! freq	dB(S11)	phase(S11)	dB(S12)	phase(S12)	
!     	dB(S21)	phase(S21)	dB(S22)	phase(S22)	
!S-par simulation data
#  GHz  S  DB  R 50
0.000000	-0.000000	0.000000	-334.411767	0.000000	-334.411767	0.000000	-0.000000	0.000000
0.050000	-0.005276	-2.049552	-87.660905	87.621780	-87.660905	87.621780	-0.005244	-2.050747
0.100000	-0.009078	-4.056481	-81.698516	85.709802	-81.698516	85.709802	-0.009065	-4.058956
0.150000	-0.010926	-6.061232	-78.222220	83.834549	-78.222220	83.834549	-0.010928	-6.064841
0.200000	-0.012335	-8.066805	-75.769944	81.944838	-75.769944	81.944838	-0.012345	-8.071528
0.250000	-0.013717	-10.072034	-73.886769	80.047914	-73.886769	80.047914	-0.013730	-10.077872
0.300000	-0.015199	-12.075943	-72.367183	78.152754	-72.367183	78.152754	-0.015214	-12.082900
0.350000	-0.016840	-14.077529	-71.105213	76.267528	-71.105213	76.267528	-0.016856	-14.085607
0.400000	-0.018637	-16.076326	-70.033201	74.397258	-70.033201	74.397258	-0.018654	-16.085525
0.450000	-0.020583	-18.071847	-69.109151	72.546586	-69.109151	72.546586	-0.020600	-18.082166
0.500000	-0.022675	-20.063382	-68.306746	70.721851	-68.306746	70.721851	-0.022693	-20.074820
0.550000	-0.024890	-22.050717	-67.603837	68.926512	-67.603837	68.926512	-0.024909	-22.063270
0.600000	-0.027209	-24.033588	-66.984814	67.164541	-66.984814	67.164541	-0.027229	-24.047252
0.650000	-0.029617	-26.011691	-66.438346	65.440597	-66.438346	65.440597	-0.029638	-26.026461
0.700000	-0.032098	-27.984749	-65.955677	63.759656	-65.955677	63.759656	-0.032120	-28.000620
0.750000	-0.034636	-29.952508	-65.529910	62.127085	-65.529910	62.127085	-0.034659	-29.969473
0.800000	-0.037217	-31.914630	-65.156131	60.549841	-65.156131	60.549841	-0.037242	-31.932682
0.850000	-0.039829	-33.870589	-64.831477	59.038037	-64.831477	59.038037	-0.039856	-33.889721
0.900000	-0.042458	-35.820576	-64.549986	57.595133	-64.549986	57.595133	-0.042487	-35.840778
0.950000	-0.045092	-37.764409	-64.308581	56.229118	-64.308581	56.229118	-0.045123	-37.785673
1.000000	-0.047722	-39.701130	-64.108476	54.960541	-64.108476	54.960541	-0.047756	-39.723445
1.050000	-0.050341	-41.631964	-63.940560	53.780200	-63.940560	53.780200	-0.050377	-41.655322
1.100000	-0.052942	-43.556177	-63.805780	52.707281	-63.805780	52.707281	-0.052981	-43.580568
1.150000	-0.055518	-45.473261	-63.703852	51.761465	-63.703852	51.761465	-0.055560	-45.498674
1.200000	-0.058065	-47.383238	-63.632158	50.955457	-63.632158	50.955457	-0.058110	-47.409662
1.250000	-0.060580	-49.286216	-63.587871	50.301081	-63.587871	50.301081	-0.060628	-49.313642
1.300000	-0.063060	-51.181953	-63.569453	49.819399	-63.569453	49.819399	-0.063111	-51.210369
1.350000	-0.065500	-53.069806	-63.576079	49.545984	-63.576079	49.545984	-0.065554	-53.099201
1.400000	-0.067906	-54.951001	-63.601045	49.466065	-63.601045	49.466065	-0.067963	-54.981365
1.450000	-0.070275	-56.824800	-63.643220	49.619187	-63.643220	49.619187	-0.070334	-56.856122
1.500000	-0.072601	-58.690357	-63.699479	50.057009	-63.699479	50.057009	-0.072663	-58.722626
1.550000	-0.074891	-60.548430	-63.762998	50.775361	-63.762998	50.775361	-0.074955	-60.581637
1.600000	-0.077144	-62.398972	-63.827683	51.793844	-63.827683	51.793844	-0.077211	-62.433106
1.650000	-0.079362	-64.241944	-63.886263	53.127548	-63.886263	53.127548	-0.079432	-64.276994
1.700000	-0.081548	-66.077623	-63.931159	54.771066	-63.931159	54.771066	-0.081620	-66.113581
1.750000	-0.083699	-67.905107	-63.950408	56.758710	-63.950408	56.758710	-0.083773	-67.941963
1.800000	-0.085820	-69.724829	-63.934234	59.052342	-63.934234	59.052342	-0.085896	-69.762573
1.850000	-0.087912	-71.536783	-63.872129	61.614323	-63.872129	61.614323	-0.087990	-71.575405
1.900000	-0.089977	-73.340887	-63.753967	64.388714	-63.753967	64.388714	-0.090057	-73.380379
1.950000	-0.092017	-75.137152	-63.572337	67.297197	-63.572337	67.297197	-0.092099	-75.177506
2.000000	-0.094035	-76.925684	-63.324085	70.249223	-63.324085	70.249223	-0.094118	-76.966892
2.050000	-0.096033	-78.706513	-63.009265	73.153006	-63.009265	73.153006	-0.096117	-78.748565
2.100000	-0.098013	-80.479674	-62.631684	75.922344	-62.631684	75.922344	-0.098099	-80.522565
2.150000	-0.099977	-82.245215	-62.198238	78.484387	-62.198238	78.484387	-0.100064	-82.288936
2.200000	-0.101928	-84.003189	-61.717865	80.784478	-61.717865	80.784478	-0.102016	-84.047734
2.250000	-0.103867	-85.753660	-61.200414	82.787579	-61.200414	82.787579	-0.103957	-85.799022
2.300000	-0.105797	-87.496697	-60.655658	84.476847	-60.655658	84.476847	-0.105888	-87.542870
2.350000	-0.107720	-89.232380	-60.092589	85.850421	-60.092589	85.850421	-0.107811	-89.279357
2.400000	-0.109637	-90.960794	-59.519018	86.917548	-59.519018	86.917548	-0.109730	-91.008571
2.450000	-0.111551	-92.682033	-58.941429	87.694870	-58.941429	87.694870	-0.111645	-92.730606
2.500000	-0.113464	-94.396200	-58.365004	88.203306	-58.365004	88.203306	-0.113558	-94.445562
2.550000	-0.115377	-96.103254	-57.793123	88.460887	-57.793123	88.460887	-0.115472	-96.153402
2.600000	-0.117293	-97.803466	-57.229567	88.496548	-57.229567	88.496548	-0.117389	-97.854395
2.650000	-0.119212	-99.496958	-56.676483	88.332510	-56.676483	88.332510	-0.119309	-99.548666
2.700000	-0.121138	-101.183862	-56.135368	87.989556	-56.135368	87.989556	-0.121235	-101.236345
2.750000	-0.123071	-102.863969	-55.606230	87.478720	-55.606230	87.478720	-0.123169	-102.917225
2.800000	-0.125013	-104.538053	-55.091559	86.832786	-55.091559	86.832786	-0.125112	-104.592080
2.850000	-0.126966	-106.205983	-54.590767	86.059916	-54.590767	86.059916	-0.127066	-106.260780
2.900000	-0.128930	-107.867915	-54.103930	85.173823	-54.103930	85.173823	-0.129031	-107.923479
2.950000	-0.130908	-109.524010	-53.630965	84.186670	-53.630965	84.186670	-0.131010	-109.580341
3.000000	-0.132901	-111.174436	-53.171675	83.109214	-53.171675	83.109214	-0.133004	-111.231534
3.050000	-0.134911	-112.819367	-52.725783	81.950957	-52.725783	81.950957	-0.135014	-112.877231
3.100000	-0.136937	-114.458982	-52.292956	80.720285	-52.292956	80.720285	-0.137042	-114.517613
3.150000	-0.138983	-116.093464	-51.872827	79.424600	-51.872827	79.424600	-0.139088	-116.152864
3.200000	-0.141048	-117.723004	-51.465010	78.070436	-51.465010	78.070436	-0.141154	-117.783175
3.250000	-0.143134	-119.347797	-51.069107	76.663565	-51.069107	76.663565	-0.143242	-119.408739
3.300000	-0.145243	-120.968041	-50.684721	75.209094	-50.684721	75.209094	-0.145352	-121.029757
3.350000	-0.147375	-122.583942	-50.311459	73.711541	-50.311459	73.711541	-0.147485	-122.646435
3.400000	-0.149532	-124.195708	-49.948934	72.174911	-49.948934	72.174911	-0.149642	-124.258982
3.450000	-0.151714	-125.803553	-49.596772	70.602758	-49.596772	70.602758	-0.151826	-125.867612
3.500000	-0.153922	-127.407696	-49.254613	68.998239	-49.254613	68.998239	-0.154035	-127.472543
3.550000	-0.156158	-129.008358	-48.922111	67.364162	-48.922111	67.364162	-0.156272	-129.074000
3.600000	-0.158422	-130.605768	-48.598933	65.703028	-48.598933	65.703028	-0.158538	-130.672210
3.650000	-0.160716	-132.200157	-48.284763	64.017064	-48.284763	64.017064	-0.160833	-132.267404
3.700000	-0.163039	-133.791760	-47.979303	62.308258	-47.979303	62.308258	-0.163158	-133.859819
3.750000	-0.165394	-135.380817	-47.682265	60.578386	-47.682265	60.578386	-0.165514	-135.449695
3.800000	-0.167782	-136.967483	-47.393318	58.828253	-47.393318	58.828253	-0.167903	-137.037189
3.850000	-0.170202	-138.552118	-47.112293	57.060171	-47.112293	57.060171	-0.170325	-138.622659
3.900000	-0.172656	-140.134975	-46.838946	55.275389	-46.838946	55.275389	-0.172781	-140.206360
3.950000	-0.175145	-141.716309	-46.573047	53.475026	-46.573047	53.475026	-0.175271	-141.788548
4.000000	-0.177668	-143.296382	-46.314381	51.660081	-46.314381	51.660081	-0.177796	-143.369484
4.050000	-0.180227	-144.875457	-46.062745	49.831451	-46.062745	49.831451	-0.180357	-144.949434
4.100000	-0.182823	-146.453805	-45.817947	47.989937	-45.817947	47.989937	-0.182954	-146.528666
4.150000	-0.185456	-148.031696	-45.579809	46.136253	-45.579809	46.136253	-0.185589	-148.107454
4.200000	-0.188126	-149.609407	-45.348162	44.271037	-45.348162	44.271037	-0.188261	-149.686075
4.250000	-0.190835	-151.187220	-45.122849	42.394857	-45.122849	42.394857	-0.190972	-151.264810
4.300000	-0.193583	-152.765419	-44.903723	40.508218	-44.903723	40.508218	-0.193722	-152.843944
4.350000	-0.196371	-154.344293	-44.690647	38.611567	-44.690647	38.611567	-0.196512	-154.423767
4.400000	-0.199199	-155.924133	-44.483494	36.705298	-44.483494	36.705298	-0.199342	-156.004573
4.450000	-0.202068	-157.505239	-44.282143	34.789754	-44.282143	34.789754	-0.202213	-157.586658
4.500000	-0.204979	-159.087911	-44.086486	32.865239	-44.086486	32.865239	-0.205126	-159.170326
4.550000	-0.207932	-160.672454	-43.896419	30.932010	-43.896419	30.932010	-0.208081	-160.755883
4.600000	-0.210927	-162.259180	-43.711851	28.990291	-43.711851	28.990291	-0.211079	-162.343639
4.650000	-0.213966	-163.848401	-43.532694	27.040266	-43.532694	27.040266	-0.214120	-163.933909
4.700000	-0.217048	-165.440439	-43.358870	25.082089	-43.358870	25.082089	-0.217204	-165.527014
4.750000	-0.220175	-167.035615	-43.190309	23.115882	-43.190309	23.115882	-0.220333	-167.123277
4.800000	-0.223346	-168.634259	-43.026946	21.141736	-43.026946	21.141736	-0.223507	-168.723029
4.850000	-0.226563	-170.236705	-42.868725	19.159715	-42.868725	19.159715	-0.226726	-170.326603
4.900000	-0.229825	-171.843289	-42.715596	17.169857	-42.715596	17.169857	-0.229991	-171.934337
4.950000	-0.233134	-173.454356	-42.567515	15.172171	-42.567515	15.172171	-0.233302	-173.546577
5.000000	-0.236489	-175.070254	-42.424447	13.166645	-42.424447	13.166645	-0.236660	-175.163671
5.050000	-0.239894	-176.691579	-42.286486	11.152893	-42.286486	11.152893	-0.240067	-176.786216
5.100000	-0.243346	-178.318480	-42.153498	9.131189	-42.153498	9.131189	-0.243522	-178.414364
5.150000	-0.246847	-179.951323	-42.025466	7.101444	-42.025466	7.101444	-0.247025	179.951522
5.200000	-0.250396	178.409521	-41.902382	5.063542	-41.902382	5.063542	-0.250577	178.311068
5.250000	-0.253992	176.764053	-41.784062	3.017801	-41.784062	3.017801	-0.254175	176.664277
5.300000	-0.257639	175.111239	-41.670829	0.963249	-41.670829	0.963249	-0.257826	175.010109
5.350000	-0.261336	173.450973	-41.562555	-1.099943	-41.562555	-1.099943	-0.261526	173.348462
5.400000	-0.265083	171.782862	-41.459261	-3.171988	-41.459261	-3.171988	-0.265276	171.678940
5.450000	-0.268882	170.106506	-41.360973	-5.253124	-41.360973	-5.253124	-0.269078	170.001142
5.500000	-0.272731	168.421497	-41.267728	-7.343619	-41.267728	-7.343619	-0.272930	168.314661
5.550000	-0.276633	166.727423	-41.179568	-9.443765	-41.179568	-9.443765	-0.276835	166.619081
5.600000	-0.280586	165.023863	-41.096547	-11.553888	-41.096547	-11.553888	-0.280792	164.913983
5.650000	-0.284593	163.310278	-41.018775	-13.674459	-41.018775	-13.674459	-0.284802	163.198827
5.700000	-0.288654	161.586221	-40.946331	-15.805881	-40.946331	-15.805881	-0.288866	161.473162
5.750000	-0.292768	159.851357	-40.879247	-17.948468	-40.879247	-17.948468	-0.292984	159.736657
5.800000	-0.296936	158.105241	-40.817615	-20.102683	-40.817615	-20.102683	-0.297155	157.988862
5.850000	-0.301158	156.347416	-40.761540	-22.269030	-40.761540	-22.269030	-0.301382	156.229322
5.900000	-0.305436	154.577422	-40.711137	-24.448055	-40.711137	-24.448055	-0.305663	154.457575
5.950000	-0.309769	152.794790	-40.666536	-26.640353	-40.666536	-26.640353	-0.310000	152.673151
6.000000	-0.314158	150.999044	-40.627881	-28.846567	-40.627881	-28.846567	-0.314394	150.875574
6.050000	-0.318604	149.189701	-40.595330	-31.067397	-40.595330	-31.067397	-0.318844	149.064360
6.100000	-0.323107	147.366271	-40.569057	-33.303601	-40.569057	-33.303601	-0.323351	147.239018
6.150000	-0.327667	145.528257	-40.549256	-35.556006	-40.549256	-35.556006	-0.327917	145.399051
6.200000	-0.332287	143.675153	-40.536137	-37.825510	-40.536137	-37.825510	-0.332541	143.543953
6.250000	-0.336965	141.806450	-40.529934	-40.113093	-40.529934	-40.113093	-0.337225	141.673212
6.300000	-0.341705	139.921266	-40.531064	-42.420266	-40.531064	-42.420266	-0.341969	139.785946
6.350000	-0.346505	138.019414	-40.539657	-44.747816	-40.539657	-44.747816	-0.346775	137.881969
6.400000	-0.351367	136.100363	-40.556022	-47.097033	-40.556022	-47.097033	-0.351642	135.960749
6.450000	-0.356291	134.163574	-40.580496	-49.469338	-40.580496	-49.469338	-0.356573	134.021746
6.500000	-0.361279	132.208504	-40.613449	-51.866298	-40.613449	-51.866298	-0.361566	132.064417
6.550000	-0.366331	130.234601	-40.655288	-54.289648	-40.655288	-54.289648	-0.366624	130.088212
6.600000	-0.371448	128.241311	-40.706458	-56.741314	-40.706458	-56.741314	-0.371748	128.092574
6.650000	-0.376632	126.228074	-40.767449	-59.223442	-40.767449	-59.223442	-0.376939	126.076943
6.700000	-0.381884	124.194325	-40.838801	-61.738436	-40.838801	-61.738436	-0.382197	124.040756
6.750000	-0.387206	122.139494	-40.921106	-64.289000	-40.921106	-64.289000	-0.387526	121.983443
6.800000	-0.392598	120.063011	-41.015017	-66.878186	-41.015017	-66.878186	-0.392925	119.904432
6.850000	-0.398062	117.964300	-41.121256	-69.509460	-41.121256	-69.509460	-0.398397	117.803151
6.900000	-0.403601	115.842532	-41.240751	-72.187333	-41.240751	-72.187333	-0.403944	115.678768
6.950000	-0.409217	113.697108	-41.374400	-74.916526	-41.374400	-74.916526	-0.409568	113.530686
7.000000	-0.414911	111.527700	-41.523053	-77.701847	-41.523053	-77.701847	-0.415270	111.358580
7.050000	-0.420686	109.333731	-41.687793	-80.549469	-41.687793	-80.549469	-0.421053	109.161872
7.100000	-0.426543	107.114628	-41.869821	-83.466629	-41.869821	-83.466629	-0.426919	106.939992
7.150000	-0.432485	104.869819	-42.070471	-86.461863	-42.070471	-86.461863	-0.432871	104.692369
7.200000	-0.438516	102.598741	-42.291222	-89.545320	-42.291222	-89.545320	-0.438911	102.418442
7.250000	-0.444638	100.300833	-42.533716	-92.729157	-42.533716	-92.729157	-0.445042	100.117652
7.300000	-0.450854	97.975544	-42.799768	-96.028058	-42.799768	-96.028058	-0.451269	97.789451
7.350000	-0.457168	95.622333	-43.091380	-99.459904	-43.091380	-99.459904	-0.457593	95.433300
7.400000	-0.463585	93.240669	-43.410735	-103.046654	-43.410735	-103.046654	-0.464020	93.048672
7.450000	-0.470107	90.830036	-43.760190	-106.815514	-43.760190	-106.815514	-0.470553	90.635053
7.500000	-0.476740	88.389932	-44.142224	-110.800470	-44.142224	-110.800470	-0.477197	88.191946
7.550000	-0.483491	85.919211	-44.559677	-115.051216	-44.559677	-115.051216	-0.483959	85.718210
7.600000	-0.490363	83.418052	-45.014437	-119.618386	-45.014437	-119.618386	-0.490842	83.214026
7.650000	-0.497362	80.886015	-45.508173	-124.572644	-45.508173	-124.572644	-0.497852	80.678961
7.700000	-0.504493	78.322684	-46.041259	-130.004375	-46.041259	-130.004375	-0.504996	78.112603
7.750000	-0.511763	75.727672	-46.611554	-136.028501	-46.611554	-136.028501	-0.512278	75.514573
7.800000	-0.519180	73.100622	-47.212336	-142.788382	-47.212336	-142.788382	-0.519707	72.884518
7.850000	-0.526751	70.441210	-47.829001	-150.455235	-47.829001	-150.455235	-0.527291	70.222120
7.900000	-0.534485	67.749146	-48.434282	-159.215229	-48.434282	-159.215229	-0.535037	67.527098
7.950000	-0.542389	65.024181	-48.982735	-169.230626	-48.982735	-169.230626	-0.542954	64.799210
8.000000	-0.550474	62.266105	-49.407822	179.439828	-49.407822	179.439828	-0.551052	62.038253
8.050000	-0.558749	59.474753	-49.628825	166.954827	-49.628825	166.954827	-0.559341	59.244070
8.100000	-0.567227	56.650006	-49.574389	153.773293	-49.574389	153.773293	-0.567832	56.416551
8.150000	-0.575920	53.791428	-49.212280	140.599862	-49.212280	140.599862	-0.576539	53.555271
8.200000	-0.584844	50.899003	-48.574022	128.148521	-48.574022	128.148521	-0.585476	50.660222
8.250000	-0.594008	47.973132	-47.736299	116.857746	-47.736299	116.857746	-0.594655	47.731814
8.300000	-0.603429	45.013908	-46.779423	106.866437	-46.779423	106.866437	-0.604091	44.770150
8.350000	-0.613123	42.021480	-45.768291	98.104341	-45.768291	98.104341	-0.613800	41.775389
8.400000	-0.623108	38.996055	-44.746526	90.405281	-44.746526	90.405281	-0.623800	38.747748
8.450000	-0.633405	35.937897	-43.739846	83.583398	-43.739846	83.583398	-0.634113	35.687501
8.500000	-0.644035	32.847328	-42.761628	77.469414	-42.761628	77.469414	-0.644760	32.594981
8.550000	-0.655024	29.724725	-41.817587	71.922183	-41.817587	71.922183	-0.655767	29.470574
8.600000	-0.666400	26.570521	-40.908974	66.828735	-40.908974	66.828735	-0.667160	26.314723
8.650000	-0.678193	23.385199	-40.034554	62.100199	-40.034554	62.100199	-0.678973	23.127921
8.700000	-0.690441	20.169291	-39.191761	57.666969	-39.191761	57.666969	-0.691242	19.910707
8.750000	-0.703184	16.923369	-38.377356	53.474343	-38.377356	53.474343	-0.704008	16.663663
8.800000	-0.716486	13.647414	-37.586706	49.482443	-37.586706	49.482443	-0.717334	13.386781
8.850000	-0.730393	10.342713	-36.817125	45.651709	-36.817125	45.651709	-0.731270	10.081350
8.900000	-0.744979	7.009907	-36.064742	41.954014	-36.064742	41.954014	-0.745887	6.748016
8.950000	-0.760328	3.649637	-35.325604	38.365758	-35.325604	38.365758	-0.761272	3.387422
9.000000	-0.776523	0.263231	-34.597125	34.864570	-34.597125	34.864570	-0.777508	0.000894
9.050000	-0.793740	-3.150048	-33.872439	31.436123	-33.872439	31.436123	-0.794772	-3.412298
9.100000	-0.812144	-6.589332	-33.147546	28.061269	-33.147546	28.061269	-0.813232	-6.851291
9.150000	-0.831958	-10.054104	-32.417608	24.721833	-32.417608	24.721833	-0.833113	-10.315579
9.200000	-0.853470	-13.543990	-31.677356	21.398577	-31.677356	21.398577	-0.854706	-13.804799
9.250000	-0.877117	-17.059335	-30.919031	18.069141	-30.919031	18.069141	-0.878452	-17.319314
9.300000	-0.903452	-20.600199	-30.135366	14.705597	-30.135366	14.705597	-0.904912	-20.859211
9.350000	-0.933290	-24.167203	-29.316731	11.271267	-29.316731	11.271267	-0.934905	-24.425145
9.400000	-0.967822	-27.761291	-28.451195	7.715099	-28.451195	7.715099	-0.969640	-28.018110
9.450000	-1.008771	-31.383269	-27.525555	3.965660	-27.525555	3.965660	-1.010854	-31.638972
9.500000	-1.059161	-35.034338	-26.516476	-0.096606	-26.516476	-0.096606	-1.061608	-35.289017
9.550000	-1.123569	-38.711864	-25.401191	-4.650751	-25.401191	-4.650751	-1.126531	-38.965703
9.600000	-1.209959	-42.403952	-24.147862	-10.002991	-24.147862	-10.002991	-1.213683	-42.657199
9.650000	-1.332221	-46.067074	-22.719739	-16.696041	-22.719739	-16.696041	-1.337144	-46.319832
9.700000	-1.512785	-49.557025	-21.093808	-25.714316	-21.093808	-25.714316	-1.519697	-49.808297
9.750000	-1.772816	-52.423404	-19.327140	-38.849749	-19.327140	-38.849749	-1.783081	-52.667180
9.800000	-2.031059	-53.667258	-17.789731	-58.594533	-17.789731	-58.594533	-2.045630	-53.881498
9.850000	-1.922994	-53.541856	-17.427648	-84.697217	-17.427648	-84.697217	-1.937268	-53.698715
9.900000	-1.460993	-55.609183	-18.811467	-109.296480	-18.811467	-109.296480	-1.469095	-55.736355
9.950000	-1.133834	-59.823546	-21.110768	-126.089311	-21.110768	-126.089311	-1.137465	-59.952178
10.000000	-0.988642	-64.365243	-23.493219	-136.033259	-23.493219	-136.033259	-0.990235	-64.499736
