! freq	dB(S11)	phase(S11)	dB(S12)	phase(S12)	
!     	dB(S21)	phase(S21)	dB(S22)	phase(S22)	
!S-par simulation data
#  GHz  S  DB  R 50
0.000000	0.000000	0.000000	-293.576426	0.000000	-293.576426	0.000000	0.000000	0.000000
0.050000	-0.001051	-1.012996	-94.353463	88.100596	-94.353463	88.100596	-0.003200	-3.038852
0.100000	-0.002907	-2.016407	-88.382648	86.172601	-88.382648	86.172601	-0.009189	-6.048460
0.150000	-0.004486	-3.014367	-84.927796	84.214176	-84.927796	84.214176	-0.014475	-9.038512
0.200000	-0.005763	-4.010596	-82.508048	82.241550	-82.508048	82.241550	-0.018672	-12.020185
0.250000	-0.006894	-5.006372	-80.661953	80.276890	-80.661953	80.276890	-0.022180	-14.997500
0.300000	-0.007990	-6.001917	-79.181727	78.336841	-79.181727	78.336841	-0.025388	-17.971029
0.350000	-0.009098	-6.997139	-77.959397	76.432344	-77.959397	76.432344	-0.028491	-20.939944
0.400000	-0.010240	-7.991862	-76.933266	74.573183	-76.933266	74.573183	-0.031597	-23.902875
0.450000	-0.011418	-8.985948	-76.061155	72.764601	-76.061155	72.764601	-0.034765	-26.858841
0.500000	-0.012630	-9.979283	-75.314517	71.011541	-75.314517	71.011541	-0.038023	-29.806972
0.550000	-0.013872	-10.971751	-74.674457	69.321145	-74.674457	69.321145	-0.041389	-32.746254
0.600000	-0.015137	-11.963266	-74.126628	67.700817	-74.126628	67.700817	-0.044872	-35.675869
0.650000	-0.016418	-12.953746	-73.660845	66.160279	-73.660845	66.160279	-0.048483	-38.594972
0.700000	-0.017709	-13.943131	-73.268910	64.710342	-73.268910	64.710342	-0.052237	-41.502915
0.750000	-0.019005	-14.931381	-72.943900	63.362642	-72.943900	63.362642	-0.056160	-44.399305
0.800000	-0.020301	-15.918454	-72.680825	62.132016	-72.680825	62.132016	-0.060300	-47.283823
0.850000	-0.021591	-16.904307	-72.475715	61.036086	-72.475715	61.036086	-0.064726	-50.156493
0.900000	-0.022871	-17.888895	-72.325337	60.095809	-72.325337	60.095809	-0.069516	-53.017993
0.950000	-0.024137	-18.872170	-72.226951	59.336139	-72.226951	59.336139	-0.074661	-55.870059
1.000000	-0.025383	-19.854071	-72.178076	58.786810	-72.178076	58.786810	-0.079838	-58.715137
1.050000	-0.026601	-20.834520	-72.176218	58.483223	-72.176218	58.483223	-0.084265	-61.553548
1.100000	-0.027777	-21.813410	-72.218549	58.467378	-72.218549	58.467378	-0.087268	-64.380144
1.150000	-0.028887	-22.790586	-72.301482	58.788723	-72.301482	58.788723	-0.089150	-67.188170
1.200000	-0.029877	-23.765822	-72.420101	59.504611	-72.420101	59.504611	-0.090752	-69.975970
1.250000	-0.030629	-24.738835	-72.567399	60.679858	-72.567399	60.679858	-0.092567	-72.745785
1.300000	-0.030798	-25.709643	-72.733314	62.397609	-72.733314	62.397609	-0.094690	-75.499687
1.350000	-0.029614	-26.682596	-72.902688	64.717055	-72.902688	64.717055	-0.097049	-78.239443
1.400000	-0.028162	-27.677092	-73.055630	67.694868	-73.055630	67.694868	-0.099562	-80.965782
1.450000	-0.031718	-28.673178	-73.166515	71.357275	-73.166515	71.357275	-0.102169	-83.679124
1.500000	-0.035684	-29.643139	-73.205089	75.676701	-73.205089	75.676701	-0.104824	-86.379772
1.550000	-0.038125	-30.606179	-73.139992	80.549624	-73.139992	80.549624	-0.107501	-89.067997
1.600000	-0.039875	-31.568605	-72.944788	85.788170	-72.944788	85.788170	-0.110182	-91.744084
1.650000	-0.041352	-32.530633	-72.604796	91.138015	-72.604796	91.138015	-0.112855	-94.408344
1.700000	-0.042707	-33.491891	-72.121461	96.323332	-72.121461	96.323332	-0.115514	-97.061124
1.750000	-0.044002	-34.452086	-71.511688	101.101650	-71.511688	101.101650	-0.118156	-99.702804
1.800000	-0.045264	-35.411025	-70.802548	105.303841	-70.802548	105.303841	-0.120780	-102.333807
1.850000	-0.046507	-36.368576	-70.024345	108.845487	-70.024345	108.845487	-0.123386	-104.954589
1.900000	-0.047739	-37.324626	-69.204036	111.707011	-69.204036	111.707011	-0.125976	-107.565543
1.950000	-0.048965	-38.279102	-68.364960	113.926074	-68.364960	113.926074	-0.128553	-110.167215
2.000000	-0.050187	-39.231965	-67.525208	115.571813	-67.525208	115.571813	-0.131118	-112.760278
2.050000	-0.051408	-40.183167	-66.696438	116.714107	-66.696438	116.714107	-0.133676	-115.345328
2.100000	-0.052629	-41.132668	-65.886233	117.421618	-65.886233	117.421618	-0.136230	-117.922998
2.150000	-0.053851	-42.080433	-65.099192	117.757101	-65.099192	117.757101	-0.138784	-120.493952
2.200000	-0.055075	-43.026431	-64.337829	117.775619	-64.337829	117.775619	-0.141342	-123.058886
2.250000	-0.056302	-43.970631	-63.603249	117.524352	-63.603249	117.524352	-0.143907	-125.618529
2.300000	-0.057533	-44.912927	-62.894402	117.035125	-62.894402	117.035125	-0.146486	-128.173493
2.350000	-0.058768	-45.853475	-62.213776	116.360412	-62.213776	116.360412	-0.149080	-130.724936
2.400000	-0.060007	-46.792152	-61.558881	115.516569	-61.558881	115.516569	-0.151694	-133.273450
2.450000	-0.061252	-47.728936	-60.928776	114.527171	-60.928776	114.527171	-0.154333	-135.819891
2.500000	-0.062502	-48.663806	-60.322416	113.411946	-60.322416	113.411946	-0.157002	-138.365151
2.550000	-0.063758	-49.596660	-59.738016	112.183341	-59.738016	112.183341	-0.159705	-140.910188
2.600000	-0.065021	-50.527561	-59.175348	110.860423	-59.175348	110.860423	-0.162448	-143.456017
2.650000	-0.066291	-51.456494	-58.633337	109.454691	-58.633337	109.454691	-0.165233	-146.003639
2.700000	-0.067568	-52.383444	-58.110964	107.975905	-58.110964	107.975905	-0.168066	-148.554089
2.750000	-0.068852	-53.308503	-57.607842	106.435627	-57.607842	106.435627	-0.170949	-151.108191
2.800000	-0.070145	-54.231465	-57.121963	104.834671	-57.121963	104.834671	-0.173891	-153.667433
2.850000	-0.071446	-55.152402	-56.653007	103.182086	-56.653007	103.182086	-0.176895	-156.232820
2.900000	-0.072756	-56.071303	-56.200201	101.483119	-56.200201	101.483119	-0.179966	-158.805547
2.950000	-0.074075	-56.988158	-55.762831	99.742287	-55.762831	99.742287	-0.183109	-161.386857
3.000000	-0.075404	-57.902956	-55.340240	97.963494	-55.340240	97.963494	-0.186329	-163.978038
3.050000	-0.076742	-58.815689	-54.931824	96.150114	-54.931824	96.150114	-0.189633	-166.580429
3.100000	-0.078091	-59.726350	-54.537030	94.305074	-54.537030	94.305074	-0.193026	-169.195421
3.150000	-0.079451	-60.634908	-54.155314	92.430624	-54.155314	92.430624	-0.196514	-171.824630
3.200000	-0.080823	-61.541358	-53.786237	90.529038	-53.786237	90.529038	-0.200105	-174.469614
3.250000	-0.082206	-62.445717	-53.429427	88.602538	-53.429427	88.602538	-0.203804	-177.131790
3.300000	-0.083601	-63.347980	-53.084504	86.652784	-53.084504	86.652784	-0.207618	-179.812796
3.350000	-0.085009	-64.248125	-52.751120	84.681029	-52.751120	84.681029	-0.211555	177.485447
3.400000	-0.086430	-65.146204	-52.429006	82.689097	-52.429006	82.689097	-0.215619	174.761751
3.450000	-0.087864	-66.042229	-52.117863	80.678139	-52.117863	80.678139	-0.219819	172.014524
3.500000	-0.089313	-66.936030	-51.817466	78.647656	-51.817466	78.647656	-0.224173	169.239696
3.550000	-0.090776	-67.827752	-51.527643	76.599824	-51.527643	76.599824	-0.228681	166.436970
3.600000	-0.092253	-68.717420	-51.248190	74.535531	-51.248190	74.535531	-0.233352	163.604661
3.650000	-0.093747	-69.604995	-50.978975	72.455105	-50.978975	72.455105	-0.238198	160.740066
3.700000	-0.095256	-70.490367	-50.720044	70.358345	-50.720044	70.358345	-0.243241	157.838864
3.750000	-0.096782	-71.373691	-50.471182	68.246930	-50.471182	68.246930	-0.248479	154.901122
3.800000	-0.098325	-72.254971	-50.232315	66.121330	-50.232315	66.121330	-0.253924	151.924474
3.850000	-0.099885	-73.134110	-50.003616	63.981348	-50.003616	63.981348	-0.259602	148.904249
3.900000	-0.101464	-74.011126	-49.785153	61.827583	-49.785153	61.827583	-0.265525	145.837632
3.950000	-0.103060	-74.886113	-49.576796	59.661098	-49.576796	59.661098	-0.271700	142.723700
4.000000	-0.104676	-75.759077	-49.378613	57.482383	-49.378613	57.482383	-0.278142	139.559591
4.050000	-0.106312	-76.629867	-49.191251	55.291098	-49.191251	55.291098	-0.284891	136.337756
4.100000	-0.107968	-77.498622	-49.014541	53.088704	-49.014541	53.088704	-0.291950	133.058146
4.150000	-0.109645	-78.365380	-48.848592	50.876079	-48.848592	50.876079	-0.299333	129.718184
4.200000	-0.111342	-79.230116	-48.693786	48.653917	-48.693786	48.653917	-0.307066	126.313299
4.250000	-0.113063	-80.092720	-48.551038	46.422860	-48.551038	46.422860	-0.315196	122.835279
4.300000	-0.114805	-80.953357	-48.420079	44.184882	-48.420079	44.184882	-0.323719	119.285214
4.350000	-0.116570	-81.812037	-48.301304	41.941466	-48.301304	41.941466	-0.332659	115.659162
4.400000	-0.118358	-82.668681	-48.195735	39.694332	-48.195735	39.694332	-0.342063	111.949056
4.450000	-0.120172	-83.523302	-48.104039	37.446059	-48.104039	37.446059	-0.351959	108.149919
4.500000	-0.122009	-84.376004	-48.026283	35.199554	-48.026283	35.199554	-0.362355	104.261085
4.550000	-0.123871	-85.226800	-47.963125	32.958085	-47.963125	32.958085	-0.373277	100.278040
4.600000	-0.125759	-86.075559	-47.916545	30.726731	-47.916545	30.726731	-0.384795	96.188098
4.650000	-0.127673	-86.922489	-47.885847	28.509617	-47.885847	28.509617	-0.396881	91.996568
4.700000	-0.129614	-87.767437	-47.873496	26.314688	-47.873496	26.314688	-0.409615	87.688663
4.750000	-0.131582	-88.610526	-47.879557	24.148673	-47.879557	24.148673	-0.422987	83.265487
4.800000	-0.133579	-89.451713	-47.905745	22.022276	-47.905745	22.022276	-0.437039	78.718179
4.850000	-0.135603	-90.291063	-47.952720	19.946160	-47.952720	19.946160	-0.451772	74.044850
4.900000	-0.137656	-91.128560	-48.022024	17.935571	-48.022024	17.935571	-0.467208	69.238520
4.950000	-0.139738	-91.964243	-48.114580	16.007126	-48.114580	16.007126	-0.483342	64.296126
5.000000	-0.141850	-92.798126	-48.231491	14.181984	-48.231491	14.181984	-0.500171	59.213365
5.050000	-0.143992	-93.630221	-48.373705	12.486036	-48.373705	12.486036	-0.517677	53.986221
5.100000	-0.146165	-94.460568	-48.541421	10.947770	-48.541421	10.947770	-0.535820	48.613865
5.150000	-0.148369	-95.289156	-48.734961	9.606834	-48.734961	9.606834	-0.554560	43.091780
5.200000	-0.150604	-96.116011	-48.953170	8.506341	-48.953170	8.506341	-0.573825	37.419880
5.250000	-0.152871	-96.941208	-49.193210	7.686392	-49.193210	7.686392	-0.593514	31.603413
5.300000	-0.155169	-97.764744	-49.451274	7.203819	-49.451274	7.203819	-0.613524	25.642407
5.350000	-0.157501	-98.586601	-49.720645	7.127161	-49.720645	7.127161	-0.633726	19.537071
5.400000	-0.159866	-99.406833	-49.990870	7.506984	-49.990870	7.506984	-0.653959	13.295901
5.450000	-0.162264	-100.225474	-50.247787	8.388852	-50.247787	8.388852	-0.674049	6.926993
5.500000	-0.164696	-101.042531	-50.472357	9.804504	-50.472357	9.804504	-0.693799	0.438592
5.550000	-0.167162	-101.858038	-50.642255	11.739621	-50.642255	11.739621	-0.713006	-6.157185
5.600000	-0.169663	-102.672012	-50.733162	14.129098	-50.733162	14.129098	-0.731452	-12.847231
5.650000	-0.172198	-103.484503	-50.725234	16.838579	-50.725234	16.838579	-0.748941	-19.615208
5.700000	-0.174769	-104.295529	-50.604193	19.688891	-50.604193	19.688891	-0.765268	-26.445155
5.750000	-0.177376	-105.105117	-50.367294	22.470154	-50.367294	22.470154	-0.780249	-33.319328
5.800000	-0.180018	-105.913295	-50.023684	24.982122	-50.023684	24.982122	-0.793729	-40.219171
5.850000	-0.182697	-106.720087	-49.591498	27.065293	-49.591498	27.065293	-0.805571	-47.125667
5.900000	-0.185414	-107.525516	-49.094138	28.620466	-49.094138	28.620466	-0.815676	-54.019461
5.950000	-0.188168	-108.329625	-48.556473	29.618249	-48.556473	29.618249	-0.824010	-60.882066
6.000000	-0.190960	-109.132444	-47.999482	30.071134	-47.999482	30.071134	-0.830564	-67.695959
6.050000	-0.193791	-109.934005	-47.439905	30.021009	-47.439905	30.021009	-0.835365	-74.444860
6.100000	-0.196660	-110.734337	-46.890107	29.524717	-46.890107	29.524717	-0.838476	-81.114026
6.150000	-0.199569	-111.533474	-46.358624	28.643771	-46.358624	28.643771	-0.839988	-87.690458
6.200000	-0.202518	-112.331445	-45.850934	27.438021	-45.850934	27.438021	-0.840017	-94.163043
6.250000	-0.205508	-113.128284	-45.370222	25.962320	-45.370222	25.962320	-0.838694	-100.522602
6.300000	-0.208539	-113.924008	-44.918124	24.262559	-44.918124	24.262559	-0.836146	-106.760061
6.350000	-0.211612	-114.718665	-44.495001	22.384176	-44.495001	22.384176	-0.832540	-112.871747
6.400000	-0.214727	-115.512288	-44.100444	20.362435	-44.100444	20.362435	-0.828023	-118.854079
6.450000	-0.217885	-116.304912	-43.733562	18.226992	-43.733562	18.226992	-0.822734	-124.705052
6.500000	-0.221085	-117.096569	-43.393174	16.002614	-43.393174	16.002614	-0.816810	-130.424058
6.550000	-0.224329	-117.887295	-43.077941	13.709882	-43.077941	13.709882	-0.810372	-136.011708
6.600000	-0.227617	-118.677123	-42.786459	11.365833	-42.786459	11.365833	-0.803532	-141.469643
6.650000	-0.230950	-119.466089	-42.517317	8.984538	-42.517317	8.984538	-0.796391	-146.800359
6.700000	-0.234328	-120.254218	-42.269321	6.577379	-42.269321	6.577379	-0.789033	-152.005411
6.750000	-0.237751	-121.041560	-42.040915	4.154357	-42.040915	4.154357	-0.781537	-157.090793
6.800000	-0.241219	-121.828148	-41.830923	1.723153	-41.830923	1.723153	-0.773968	-162.060072
6.850000	-0.244734	-122.614019	-41.638192	-0.709822	-41.638192	-0.709822	-0.766378	-166.917654
6.900000	-0.248295	-123.399205	-41.461756	-3.139238	-41.461756	-3.139238	-0.758812	-171.667286
6.950000	-0.251904	-124.183744	-41.300631	-5.560666	-41.300631	-5.560666	-0.751306	-176.313765
7.000000	-0.255560	-124.967682	-41.153826	-7.970590	-41.153826	-7.970590	-0.743889	179.137335
7.050000	-0.259263	-125.751056	-41.020530	-10.366074	-41.020530	-10.366074	-0.736584	174.681356
7.100000	-0.263014	-126.533906	-40.900009	-12.744670	-40.900009	-12.744670	-0.729408	170.313726
7.150000	-0.266814	-127.316273	-40.791600	-15.104319	-40.791600	-15.104319	-0.722373	166.029988
7.200000	-0.270662	-128.098196	-40.694706	-17.443267	-40.694706	-17.443267	-0.715489	161.825835
7.250000	-0.274560	-128.879716	-40.608787	-19.759997	-40.608787	-19.759997	-0.708762	157.697122
7.300000	-0.278506	-129.660877	-40.533361	-22.053171	-40.533361	-22.053171	-0.702198	153.639887
7.350000	-0.282503	-130.441720	-40.467994	-24.321577	-40.467994	-24.321577	-0.695798	149.650352
7.400000	-0.286550	-131.222288	-40.412295	-26.564092	-40.412295	-26.564092	-0.689564	145.724932
7.450000	-0.290648	-132.002626	-40.365916	-28.779644	-40.365916	-28.779644	-0.683497	141.860237
7.500000	-0.294797	-132.782778	-40.328542	-30.967180	-40.328542	-30.967180	-0.677597	138.053069
7.550000	-0.299000	-133.562787	-40.300076	-33.124985	-40.300076	-33.124985	-0.671868	134.301539
7.600000	-0.303254	-134.342706	-40.280071	-35.252572	-40.280071	-35.252572	-0.666306	130.601584
7.650000	-0.307563	-135.122582	-40.268299	-37.348793	-40.268299	-37.348793	-0.660912	126.950573
7.700000	-0.311925	-135.902466	-40.264551	-39.412423	-40.264551	-39.412423	-0.655685	123.346044
7.750000	-0.316343	-136.682416	-40.268634	-41.442146	-40.268634	-41.442146	-0.650628	119.785700
7.800000	-0.320817	-137.462489	-40.280370	-43.436529	-40.280370	-43.436529	-0.645742	116.267401
7.850000	-0.325344	-138.242748	-40.299591	-45.394009	-40.299591	-45.394009	-0.641030	112.789154
7.900000	-0.329924	-139.023238	-40.326131	-47.312872	-40.326131	-47.312872	-0.636495	109.349107
7.950000	-0.334555	-139.803990	-40.359829	-49.191232	-40.359829	-49.191232	-0.632141	105.945540
8.000000	-0.339243	-140.585040	-40.400520	-51.027008	-40.400520	-51.027008	-0.627974	102.576855
8.050000	-0.343991	-141.366454	-40.448031	-52.817899	-40.448031	-52.817899	-0.624000	99.241571
8.100000	-0.348803	-142.148308	-40.502171	-54.561357	-40.502171	-54.561357	-0.620225	95.938316
8.150000	-0.353681	-142.930684	-40.562793	-56.253974	-40.562793	-56.253974	-0.616659	92.666136
8.200000	-0.358628	-143.713662	-40.629639	-57.892482	-40.629639	-57.892482	-0.613312	89.423815
8.250000	-0.363646	-144.497315	-40.702354	-59.473891	-40.702354	-59.473891	-0.610192	86.209928
8.300000	-0.368738	-145.281731	-40.780587	-60.994238	-40.780587	-60.994238	-0.607309	83.023465
8.350000	-0.373914	-146.067044	-40.864059	-62.446101	-40.864059	-62.446101	-0.604686	79.864553
8.400000	-0.379171	-146.853267	-40.951851	-63.831451	-40.951851	-63.831451	-0.602310	76.729752
8.450000	-0.384520	-147.640531	-41.043433	-65.143609	-41.043433	-65.143609	-0.600199	73.618884
8.500000	-0.389988	-148.429163	-41.138183	-66.363681	-41.138183	-66.363681	-0.598412	70.534728
8.550000	-0.395575	-149.219136	-41.234596	-67.497566	-41.234596	-67.497566	-0.596918	67.472669
8.600000	-0.401301	-150.010634	-41.331273	-68.537634	-41.331273	-68.537634	-0.595733	64.432122
8.650000	-0.407217	-150.804104	-41.425790	-69.462927	-41.425790	-69.462927	-0.594912	61.414757
8.700000	-0.413367	-151.599788	-41.515093	-70.267719	-41.515093	-70.267719	-0.594459	58.418667
8.750000	-0.419834	-152.398164	-41.594421	-70.937480	-41.594421	-70.937480	-0.594403	55.443440
8.800000	-0.426757	-153.199860	-41.656469	-71.457343	-41.656469	-71.457343	-0.594777	52.488558
8.850000	-0.434377	-154.005732	-41.689355	-71.814339	-41.689355	-71.814339	-0.595623	49.553575
8.900000	-0.443155	-154.816872	-41.672680	-72.008689	-41.672680	-72.008689	-0.596999	46.638171
8.950000	-0.454058	-155.634282	-41.568513	-72.094606	-41.568513	-72.094606	-0.598989	43.742457
9.000000	-0.469295	-156.455929	-41.305420	-72.346990	-41.305420	-72.346990	-0.601703	40.867345
9.050000	-0.493627	-157.259223	-40.779198	-73.874287	-40.779198	-73.874287	-0.605101	38.016108
9.100000	-0.528761	-157.930505	-40.113389	-79.984739	-40.113389	-79.984739	-0.607794	35.195108
9.150000	-0.530647	-158.387549	-40.566171	-91.423500	-40.566171	-91.423500	-0.606208	32.383641
9.200000	-0.496198	-159.095756	-42.188945	-95.117537	-42.188945	-95.117537	-0.606422	29.551257
9.250000	-0.481229	-159.966591	-43.236008	-92.263217	-43.236008	-92.263217	-0.610682	26.736443
9.300000	-0.479282	-160.834468	-43.721667	-88.975814	-43.721667	-88.975814	-0.616240	23.944922
9.350000	-0.482124	-161.683895	-43.965179	-86.391643	-43.965179	-86.391643	-0.622427	21.172120
9.400000	-0.486697	-162.522055	-44.113127	-84.305425	-44.113127	-84.305425	-0.629143	18.413690
9.450000	-0.492095	-163.353340	-44.208981	-82.533233	-44.208981	-82.533233	-0.636430	15.668186
9.500000	-0.497962	-164.180306	-44.266168	-80.963875	-44.266168	-80.963875	-0.644434	12.936194
9.550000	-0.504062	-165.005377	-44.295486	-79.494383	-44.295486	-79.494383	-0.653138	10.215306
9.600000	-0.510308	-165.829715	-44.299634	-78.082959	-44.299634	-78.082959	-0.662566	7.504273
9.650000	-0.516667	-166.654088	-44.276860	-76.714305	-44.276860	-76.714305	-0.672824	4.802913
9.700000	-0.523116	-167.479109	-44.226301	-75.383635	-44.226301	-75.383635	-0.683986	2.110404
9.750000	-0.529632	-168.305053	-44.151666	-74.088928	-44.151666	-74.088928	-0.695973	-0.575295
9.800000	-0.536217	-169.132398	-44.048805	-72.845974	-44.048805	-72.845974	-0.708979	-3.253866
9.850000	-0.542862	-169.961300	-43.920127	-71.664138	-43.920127	-71.664138	-0.722985	-5.926262
9.900000	-0.549561	-170.791922	-43.766440	-70.556627	-43.766440	-70.556627	-0.738007	-8.591558
9.950000	-0.556292	-171.624258	-43.587871	-69.537015	-43.587871	-69.537015	-0.753975	-11.242600
10.000000	-0.562782	-172.467629	-43.347775	-68.179212	-43.347775	-68.179212	-0.771290	-13.809196
