! freq	dB(S11)	phase(S11)	dB(S12)	phase(S12)	
!     	dB(S21)	phase(S21)	dB(S22)	phase(S22)	
!S-par simulation data
#  GHz  S  DB  R 50
0.000000	-0.000000	0.000000	-373.881470	0.000000	-373.881470	0.000000	-0.000000	0.000000
0.050000	-0.000118	-0.815666	-88.987120	1.877951	-88.987120	1.877951	-0.000196	-0.819466
0.100000	-0.000465	-1.631025	-89.025495	0.954121	-89.025495	0.954121	-0.000768	-1.638257
0.150000	-0.001025	-2.445794	-89.095273	0.633405	-89.095273	0.633405	-0.001665	-2.455801
0.200000	-0.001771	-3.259753	-89.194884	0.442654	-89.194884	0.442654	-0.002816	-3.271717
0.250000	-0.002683	-4.072659	-89.327664	0.280300	-89.327664	0.280300	-0.004157	-4.085665
0.300000	-0.003713	-4.884490	-89.493057	0.102872	-89.493057	0.102872	-0.005600	-4.897771
0.350000	-0.004838	-5.695142	-89.695336	-0.113327	-89.695336	-0.113327	-0.007091	-5.708022
0.400000	-0.006030	-6.504596	-89.938403	-0.389027	-89.938403	-0.389027	-0.008586	-6.516561
0.450000	-0.007264	-7.312869	-90.227196	-0.744861	-90.227196	-0.744861	-0.010050	-7.323564
0.500000	-0.008519	-8.120000	-90.567951	-1.204238	-90.567951	-1.204238	-0.011462	-8.129213
0.550000	-0.009779	-8.926040	-90.968576	-1.796070	-90.968576	-1.796070	-0.012813	-8.933680
0.600000	-0.011034	-9.731049	-91.439171	-2.558307	-91.439171	-2.558307	-0.014096	-9.737109
0.650000	-0.012274	-10.535083	-91.992790	-3.543353	-91.992790	-3.543353	-0.015314	-10.539621
0.700000	-0.013496	-11.338195	-92.646540	-4.827086	-92.646540	-4.827086	-0.016470	-11.341307
0.750000	-0.014695	-12.140429	-93.423189	-6.524890	-93.423189	-6.524890	-0.017569	-12.142236
0.800000	-0.015871	-12.941824	-94.353451	-8.821943	-94.353451	-8.821943	-0.018618	-12.942455
0.850000	-0.017024	-13.742407	-95.478879	-12.034239	-95.478879	-12.034239	-0.019624	-13.741994
0.900000	-0.018154	-14.542199	-96.853729	-16.739660	-96.853729	-16.739660	-0.020593	-14.540869
0.950000	-0.019265	-15.341213	-98.535876	-24.068850	-98.535876	-24.068850	-0.021532	-15.339086
1.000000	-0.020356	-16.139456	-100.517824	-36.260581	-100.517824	-36.260581	-0.022445	-16.136641
1.050000	-0.021432	-16.936927	-102.427398	-56.766472	-102.427398	-56.766472	-0.023339	-16.933523
1.100000	-0.022492	-17.733625	-102.998005	-86.462417	-102.998005	-86.462417	-0.024217	-17.729718
1.150000	-0.023541	-18.529539	-101.263009	-115.070532	-101.263009	-115.070532	-0.025084	-18.525208
1.200000	-0.024579	-19.324658	-98.543615	-133.224309	-98.543615	-133.224309	-0.025942	-19.319970
1.250000	-0.025608	-20.118969	-95.946947	-143.735209	-95.946947	-143.735209	-0.026797	-20.113982
1.300000	-0.026630	-20.912419	-93.674502	-150.177080	-93.674502	-150.177080	-0.027649	-20.907185
1.350000	-0.027646	-21.705025	-91.704987	-154.592665	-91.704987	-154.592665	-0.028501	-21.699585
1.400000	-0.028659	-22.496767	-89.972339	-157.833177	-89.972339	-157.833177	-0.029356	-22.491158
1.450000	-0.029668	-23.287627	-88.423875	-160.350975	-88.423875	-160.350975	-0.030214	-23.281877
1.500000	-0.030675	-24.077582	-87.020717	-162.402363	-87.020717	-162.402363	-0.031078	-24.071717
1.550000	-0.031680	-24.866614	-85.734368	-164.141319	-85.734368	-164.141319	-0.031948	-24.860652
1.600000	-0.032685	-25.654700	-84.543674	-165.665134	-84.543674	-165.665134	-0.032826	-25.648656
1.650000	-0.033691	-26.441819	-83.432652	-167.037955	-83.432652	-167.037955	-0.033713	-26.435706
1.700000	-0.034697	-27.227598	-82.367663	-168.280515	-82.367663	-168.280515	-0.034611	-27.221425
1.750000	-0.035704	-28.012854	-81.391182	-169.478548	-81.391182	-169.478548	-0.035515	-28.006625
1.800000	-0.036712	-28.796848	-80.451154	-170.618915	-80.451154	-170.618915	-0.036431	-28.790565
1.850000	-0.037722	-29.579940	-79.562867	-171.718093	-79.562867	-171.718093	-0.037356	-29.573604
1.900000	-0.038734	-30.361906	-78.710111	-172.795884	-78.710111	-172.795884	-0.038292	-30.355515
1.950000	-0.039749	-31.142747	-77.890937	-173.852290	-77.890937	-173.852290	-0.039239	-31.136299
2.000000	-0.040766	-31.922615	-77.107578	-174.904243	-77.107578	-174.904243	-0.040195	-31.916104
2.050000	-0.041786	-32.701122	-76.344379	-175.949965	-76.344379	-175.949965	-0.041165	-32.694540
2.100000	-0.042808	-33.478825	-75.617826	-176.998548	-75.617826	-176.998548	-0.042143	-33.472166
2.150000	-0.043834	-34.254919	-74.901233	-178.052855	-74.901233	-178.052855	-0.043135	-34.248172
2.200000	-0.044862	-35.030391	-74.222308	-179.112284	-74.222308	-179.112284	-0.044134	-35.023549
2.250000	-0.045895	-35.803997	-73.545442	179.812920	-73.545442	179.812920	-0.045149	-35.797045
2.300000	-0.046929	-36.577177	-72.907256	178.733474	-72.907256	178.733474	-0.046168	-36.570110
2.350000	-0.047970	-37.348226	-72.264952	177.630780	-72.264952	177.630780	-0.047205	-37.341022
2.400000	-0.049011	-38.119056	-71.662213	176.525386	-71.662213	176.525386	-0.048244	-38.111713
2.450000	-0.050060	-38.887481	-71.050514	175.390282	-71.050514	175.390282	-0.049302	-38.879975
2.500000	-0.051108	-39.655906	-70.479073	174.255177	-70.479073	174.255177	-0.050360	-39.648236
2.550000	-0.052166	-40.421645	-69.894902	173.085103	-69.894902	173.085103	-0.051439	-40.413784
2.600000	-0.053224	-41.187385	-69.347555	171.915029	-69.347555	171.915029	-0.052518	-41.179331
2.650000	-0.054290	-41.950610	-68.792380	170.711822	-68.792380	170.711822	-0.053615	-41.942339
2.700000	-0.055358	-42.713606	-68.267128	169.505602	-68.267128	169.505602	-0.054713	-42.705115
2.750000	-0.056435	-43.474272	-67.738331	168.269130	-67.738331	168.269130	-0.055827	-43.465539
2.800000	-0.057514	-44.234472	-67.233574	167.026608	-67.233574	167.026608	-0.056945	-44.225492
2.850000	-0.058601	-44.992537	-66.728984	165.757326	-66.728984	165.757326	-0.058076	-44.983290
2.900000	-0.059692	-45.749890	-66.243427	164.479124	-66.243427	164.479124	-0.059212	-45.740371
2.950000	-0.060792	-46.505315	-65.761224	163.177964	-65.761224	163.177964	-0.060360	-46.495508
3.000000	-0.061897	-47.259775	-65.293803	161.865324	-65.293803	161.865324	-0.061514	-47.249674
3.050000	-0.063010	-48.012523	-64.832437	160.533610	-64.832437	160.533610	-0.062679	-48.002116
3.100000	-0.064130	-48.764048	-64.382264	159.188270	-64.382264	159.188270	-0.063850	-48.753327
3.150000	-0.065258	-49.514086	-63.940394	157.827651	-63.940394	157.827651	-0.065031	-49.503043
3.200000	-0.066394	-50.262636	-63.506713	156.451753	-63.506713	156.451753	-0.066220	-50.251263
3.250000	-0.067538	-51.009932	-63.083167	155.064149	-63.083167	155.064149	-0.067416	-50.998226
3.300000	-0.068693	-51.755472	-62.665316	153.660157	-62.665316	153.660157	-0.068623	-51.743426
3.350000	-0.069855	-52.499997	-62.259051	152.247706	-62.259051	152.247706	-0.069836	-52.487609
3.400000	-0.071030	-53.242494	-61.856433	150.818337	-61.856433	150.818337	-0.071061	-53.229761
3.450000	-0.072211	-53.984223	-61.466508	149.383348	-61.466508	149.383348	-0.072290	-53.971144
3.500000	-0.073409	-54.723647	-61.078568	147.931502	-61.078568	147.931502	-0.073533	-54.710223
3.550000	-0.074610	-55.462555	-60.704122	146.476412	-60.704122	146.476412	-0.074780	-55.448786
3.600000	-0.075832	-56.198881	-60.330328	145.005102	-60.330328	145.005102	-0.076042	-56.184772
3.650000	-0.077056	-56.934947	-59.970564	143.532426	-59.970564	143.532426	-0.077306	-56.920499
3.700000	-0.078305	-57.668151	-59.610390	142.044717	-59.610390	142.044717	-0.078589	-57.653374
3.750000	-0.079553	-58.401355	-59.264558	140.557008	-59.264558	140.557008	-0.079871	-58.386249
3.800000	-0.080830	-59.131418	-58.917477	139.055944	-58.917477	139.055944	-0.081175	-59.116000
3.850000	-0.082107	-59.861481	-58.583733	137.554881	-58.583733	137.554881	-0.082479	-59.845750
3.900000	-0.083412	-60.588649	-58.250339	136.044297	-58.250339	136.044297	-0.083804	-60.572626
3.950000	-0.084719	-61.315553	-57.928219	134.532848	-57.928219	134.532848	-0.085131	-61.299241
4.000000	-0.086054	-62.039814	-57.607741	133.015102	-57.607741	133.015102	-0.086478	-62.023234
4.050000	-0.087394	-62.763546	-57.296762	131.496097	-57.296762	131.496097	-0.087829	-62.746704
4.100000	-0.088760	-63.484891	-56.988455	129.973406	-56.988455	129.973406	-0.089200	-63.467810
4.150000	-0.090136	-64.205440	-56.688117	128.449488	-56.688117	128.449488	-0.090578	-64.188128
4.200000	-0.091535	-64.923861	-56.391260	126.923900	-56.391260	126.923900	-0.091974	-64.906343
4.250000	-0.092947	-65.641220	-56.101043	125.397478	-56.101043	125.397478	-0.093380	-65.623507
4.300000	-0.094382	-66.356714	-55.814935	123.870845	-55.814935	123.870845	-0.094804	-66.338830
4.350000	-0.095833	-67.070876	-55.534305	122.344061	-55.534305	122.344061	-0.096240	-67.052837
4.400000	-0.097304	-67.783440	-55.258270	120.818021	-55.258270	120.818021	-0.097693	-67.765267
4.450000	-0.098796	-68.494405	-54.986680	119.292724	-54.986680	119.292724	-0.099162	-68.476119
4.500000	-0.100305	-69.204039	-54.720064	117.768687	-54.720064	117.768687	-0.100646	-69.185658
4.550000	-0.101840	-69.911808	-54.456960	116.246413	-54.456960	116.246413	-0.102151	-69.893358
4.600000	-0.103389	-70.618513	-54.199134	114.725553	-54.199134	114.725553	-0.103668	-70.600009
4.650000	-0.104969	-71.323091	-53.943964	113.207521	-53.943964	113.207521	-0.105211	-71.304561
4.700000	-0.106560	-72.026873	-53.694321	111.690775	-53.694321	111.690775	-0.106764	-72.008328
4.750000	-0.108185	-72.728266	-53.446535	110.177884	-53.446535	110.177884	-0.108347	-72.709740
4.800000	-0.109819	-73.429131	-53.204499	108.665949	-53.204499	108.665949	-0.109938	-73.410630
4.850000	-0.111493	-74.127351	-52.963558	107.158790	-52.963558	107.158790	-0.111565	-74.108911
4.900000	-0.113172	-74.825308	-52.728578	105.652132	-52.728578	105.652132	-0.113196	-74.806931
4.950000	-0.114895	-75.520367	-52.493961	104.150996	-52.493961	104.150996	-0.114869	-75.502089
5.000000	-0.116619	-76.215427	-52.265514	102.649861	-52.265514	102.649861	-0.116543	-76.197248
5.050000	-0.118395	-76.907343	-52.036718	101.154763	-52.036718	101.154763	-0.118266	-76.889298
5.100000	-0.120170	-77.599260	-51.813794	99.659666	-51.813794	99.659666	-0.119988	-77.581348
5.150000	-0.121994	-78.288312	-51.590863	98.169884	-51.590863	98.169884	-0.121759	-78.270561
5.200000	-0.123823	-78.977105	-51.373016	96.680585	-51.373016	96.680585	-0.123534	-78.959515
5.250000	-0.125696	-79.663313	-51.155487	95.195725	-51.155487	95.195725	-0.125355	-79.645904
5.300000	-0.127579	-80.349004	-50.942296	93.711753	-50.942296	93.711753	-0.127185	-80.331779
5.350000	-0.129504	-81.032388	-50.729746	92.231270	-50.729746	92.231270	-0.129059	-81.015358
5.400000	-0.131443	-81.715003	-50.520819	90.751950	-50.520819	90.751950	-0.130947	-81.698172
5.450000	-0.133419	-82.395587	-50.312860	89.275165	-50.312860	89.275165	-0.132876	-82.378957
5.500000	-0.135415	-83.075155	-50.107839	87.799646	-50.107839	87.799646	-0.134825	-83.058728
5.550000	-0.137445	-83.752964	-49.904120	86.325763	-49.904120	86.325763	-0.136811	-83.736736
5.600000	-0.139499	-84.429517	-49.702679	84.853047	-49.702679	84.853047	-0.138824	-84.413485
5.650000	-0.141583	-85.104579	-49.502887	83.381173	-49.502887	83.381173	-0.140870	-85.088734
5.700000	-0.143697	-85.778150	-49.304736	81.910140	-49.304736	81.910140	-0.142949	-85.762484
5.750000	-0.145836	-86.450496	-49.108592	80.439303	-49.108592	80.439303	-0.145057	-86.434994
5.800000	-0.148011	-87.121124	-48.913478	78.968740	-48.913478	78.968740	-0.147205	-87.105769
5.850000	-0.150206	-87.790784	-48.720740	77.497908	-48.720740	77.497908	-0.149377	-87.775561
5.900000	-0.152443	-88.458508	-48.528447	76.026538	-48.528447	76.026538	-0.151597	-88.443388
5.950000	-0.154695	-89.125518	-48.338905	74.554637	-48.338905	74.554637	-0.153835	-89.110485
6.000000	-0.156994	-89.790382	-48.149258	73.081143	-48.149258	73.081143	-0.156128	-89.775392
6.050000	-0.159305	-90.454778	-47.962736	71.607074	-47.962736	71.607074	-0.158435	-90.439818
6.100000	-0.161668	-91.116828	-47.775596	70.130128	-47.775596	70.130128	-0.160804	-91.101836
6.150000	-0.164037	-91.778648	-47.591949	68.652786	-47.591949	68.652786	-0.163180	-91.763616
6.200000	-0.166465	-92.437932	-47.407217	67.171076	-47.407217	67.171076	-0.165627	-92.422778
6.250000	-0.168894	-93.097216	-47.226332	65.689366	-47.226332	65.689366	-0.168075	-93.081941
6.300000	-0.171389	-93.753786	-47.043949	64.201622	-47.043949	64.201622	-0.170602	-93.738282
6.350000	-0.173884	-94.410356	-46.865316	62.713879	-46.865316	62.713879	-0.173130	-94.394623
6.400000	-0.176440	-95.064488	-46.685684	61.219505	-46.685684	61.219505	-0.175732	-95.048413
6.450000	-0.179003	-95.718397	-46.509283	59.724529	-46.509283	59.724529	-0.178341	-95.701971
6.500000	-0.181622	-96.370137	-46.332383	58.222608	-46.332383	58.222608	-0.181019	-96.353244
6.550000	-0.184252	-97.021442	-46.158229	56.719298	-46.158229	56.719298	-0.183711	-97.004060
6.600000	-0.186935	-97.670839	-45.984068	55.209008	-45.984068	55.209008	-0.186466	-97.652851
6.650000	-0.189635	-98.319600	-45.812210	53.696391	-45.812210	53.696391	-0.189242	-98.300968
6.700000	-0.192382	-98.966705	-45.640821	52.177025	-45.640821	52.177025	-0.192075	-98.947317
6.750000	-0.195153	-99.612983	-45.471342	50.654285	-45.471342	50.654285	-0.194937	-99.592781
6.800000	-0.197965	-100.257849	-45.302778	49.125272	-45.302778	49.125272	-0.197849	-100.236727
6.850000	-0.200808	-100.901706	-45.135791	47.591779	-45.135791	47.591779	-0.200796	-100.879589
6.900000	-0.203687	-101.544388	-44.970127	46.052700	-44.970127	46.052700	-0.203788	-101.521176
6.950000	-0.206603	-102.185892	-44.805772	44.508037	-44.805772	44.508037	-0.206822	-102.161489
7.000000	-0.209550	-102.826444	-44.643100	42.958648	-44.643100	42.958648	-0.209893	-102.800763
7.050000	-0.212540	-103.465664	-44.481539	41.402643	-44.481539	41.402643	-0.213015	-103.438584
7.100000	-0.215556	-104.104145	-44.321965	39.842890	-44.321965	39.842890	-0.216166	-104.075595
7.150000	-0.218622	-104.741150	-44.163380	38.275640	-44.163380	38.275640	-0.219376	-104.710986
7.200000	-0.221708	-105.377620	-44.007020	36.705676	-44.007020	36.705676	-0.222607	-105.345785
7.250000	-0.224851	-106.012483	-43.851605	35.127571	-43.851605	35.127571	-0.225904	-105.978812
7.300000	-0.228009	-106.647002	-43.698582	33.547773	-43.698582	33.547773	-0.229216	-106.611456
7.350000	-0.231231	-107.279798	-43.546538	31.959514	-43.546538	31.959514	-0.232600	-107.242188
7.400000	-0.234461	-107.912428	-43.396976	30.370495	-43.396976	30.370495	-0.235993	-107.872736
7.450000	-0.237765	-108.543234	-43.248503	28.773109	-43.248503	28.773109	-0.239464	-108.501251
7.500000	-0.241069	-109.174039	-43.102526	27.175724	-43.102526	27.175724	-0.242937	-109.129765
7.550000	-0.244455	-109.802933	-42.957816	25.570572	-42.957816	25.570572	-0.246495	-109.756143
7.600000	-0.247842	-110.431826	-42.815477	23.965421	-42.815477	23.965421	-0.250054	-110.382521
7.650000	-0.251306	-111.059041	-42.674766	22.354702	-42.674766	22.354702	-0.253691	-111.007019
7.700000	-0.254778	-111.686102	-42.536237	20.743477	-42.536237	20.743477	-0.257337	-111.631347
7.750000	-0.258322	-112.311705	-42.399605	19.128871	-42.399605	19.128871	-0.261053	-112.254045
7.800000	-0.261881	-112.937017	-42.265034	17.513588	-42.265034	17.513588	-0.264785	-112.876416
7.850000	-0.265506	-113.561078	-42.132536	15.897001	-42.132536	15.897001	-0.268579	-113.497395
7.900000	-0.269154	-114.184723	-42.002035	14.279979	-42.002035	14.279979	-0.272396	-114.117910
7.950000	-0.272863	-114.807314	-41.873695	12.663528	-41.873695	12.663528	-0.276268	-114.737259
8.000000	-0.276603	-115.429377	-41.747336	11.047362	-41.747336	11.047362	-0.280169	-115.356025
8.050000	-0.280398	-116.050567	-41.623143	9.433348	-41.623143	9.433348	-0.284118	-115.973837
8.100000	-0.284233	-116.671135	-41.500950	7.820872	-41.500950	7.820872	-0.288103	-116.590968
8.150000	-0.288116	-117.290999	-41.380854	6.211753	-41.380854	6.211753	-0.292130	-117.207344
8.200000	-0.292047	-117.910159	-41.262793	4.605993	-41.262793	4.605993	-0.296198	-117.822964
8.250000	-0.296021	-118.528769	-41.146703	3.004353	-41.146703	3.004353	-0.300301	-118.438009
8.300000	-0.300053	-119.146610	-41.032682	1.408479	-41.032682	1.408479	-0.304452	-119.052250
8.350000	-0.304121	-119.764041	-40.920465	-0.183012	-40.920465	-0.183012	-0.308632	-119.666078
8.400000	-0.308257	-120.380653	-40.810326	-1.765739	-40.810326	-1.765739	-0.312866	-120.279081
8.450000	-0.312420	-120.996981	-40.701804	-3.344355	-40.701804	-3.344355	-0.317122	-120.891812
8.500000	-0.316663	-121.612455	-40.595326	-4.910642	-40.595326	-4.910642	-0.321440	-121.503727
8.550000	-0.320926	-122.227754	-40.490277	-6.473642	-40.490277	-6.473642	-0.325773	-122.115489
8.600000	-0.325280	-122.842182	-40.387173	-8.020214	-40.387173	-8.020214	-0.330174	-122.726480
8.650000	-0.329645	-123.456531	-40.285331	-9.564876	-40.285331	-9.564876	-0.334585	-123.337408
8.700000	-0.334113	-124.070006	-40.185248	-11.088527	-40.185248	-11.088527	-0.339071	-123.947648
8.750000	-0.338584	-124.683480	-40.086306	-12.612178	-40.086306	-12.612178	-0.343560	-124.557887
8.800000	-0.343172	-125.296095	-39.988833	-14.109813	-39.988833	-14.109813	-0.348134	-125.167561
8.850000	-0.347762	-125.908710	-39.892443	-15.607447	-39.892443	-15.607447	-0.352710	-125.777234
8.900000	-0.352463	-126.520623	-39.797112	-17.078525	-39.797112	-17.078525	-0.357366	-126.386571
8.950000	-0.357176	-127.132473	-39.702816	-18.547190	-39.702816	-18.547190	-0.362032	-126.995876
9.000000	-0.361995	-127.743763	-39.609179	-19.989391	-39.609179	-19.989391	-0.366774	-127.605053
9.050000	-0.366836	-128.354941	-39.516471	-21.426299	-39.516471	-21.426299	-0.371533	-128.214203
9.100000	-0.371777	-128.965688	-39.424051	-22.837432	-39.424051	-22.837432	-0.376364	-128.823407
9.150000	-0.376752	-129.576290	-39.332375	-24.239974	-39.332375	-24.239974	-0.381222	-129.432628
9.200000	-0.381818	-130.186573	-39.240669	-25.617984	-39.240669	-25.617984	-0.386147	-130.042058
9.250000	-0.386931	-130.796695	-39.149431	-26.983728	-39.149431	-26.983728	-0.391109	-130.651593
9.300000	-0.392128	-131.406592	-39.057914	-28.326684	-39.057914	-28.326684	-0.396135	-131.261461
9.350000	-0.397385	-132.016329	-38.966483	-29.653364	-38.966483	-29.653364	-0.401208	-131.871567
9.400000	-0.402717	-132.625922	-38.874612	-30.959449	-38.874612	-30.959449	-0.406342	-132.482097
9.450000	-0.408124	-133.235370	-38.782323	-32.244940	-38.782323	-32.244940	-0.411536	-133.093050
9.500000	-0.413597	-133.844738	-38.689537	-33.512431	-38.689537	-33.512431	-0.416786	-133.704479
9.550000	-0.419159	-134.453993	-38.595698	-34.754719	-38.595698	-34.754719	-0.422114	-134.316574
9.600000	-0.424778	-135.063215	-38.501422	-35.981956	-38.501422	-35.981956	-0.427491	-134.929153
9.650000	-0.430503	-135.672372	-38.405312	-37.179092	-38.405312	-37.179092	-0.432965	-135.542702
9.700000	-0.436272	-136.281528	-38.308960	-38.364454	-38.308960	-38.364454	-0.438482	-136.156698
9.750000	-0.442165	-136.890682	-38.209830	-39.514497	-38.209830	-39.514497	-0.444120	-136.772034
9.800000	-0.448091	-137.499852	-38.110804	-40.656359	-38.110804	-40.656359	-0.449791	-137.387727
9.850000	-0.454161	-138.109099	-38.007878	-41.757315	-38.007878	-41.757315	-0.455613	-138.005204
9.900000	-0.460249	-138.718362	-37.905567	-42.854003	-37.905567	-42.854003	-0.461455	-138.622891
9.950000	-0.466502	-139.327796	-37.798037	-43.903747	-37.798037	-43.903747	-0.467485	-139.242885
10.000000	-0.472759	-139.937230	-37.691822	-44.953490	-37.691822	-44.953490	-0.473519	-139.862879
