! freq	dB(S11)	phase(S11)	dB(S12)	phase(S12)	
!     	dB(S21)	phase(S21)	dB(S22)	phase(S22)	
!S-par simulation data
#  GHz  S  DB  R 50
0.000000	-82.000985	0.000000	-0.000690	0.000000	-0.000690	0.000000	-82.000985	0.000000
0.050000	-48.916210	-79.289226	-0.015782	-2.861824	-0.015782	-2.861824	-48.368178	-83.365071
0.100000	-42.608912	-86.004078	-0.021746	-5.627951	-0.021746	-5.627951	-42.635328	-93.524333
0.150000	-39.027476	-89.134011	-0.024189	-8.402790	-0.024189	-8.402790	-39.163918	-100.205349
0.200000	-36.504811	-91.259462	-0.026099	-11.183380	-0.026099	-11.183380	-36.675570	-105.915273
0.250000	-34.552365	-92.974560	-0.028083	-13.966670	-0.028083	-13.966670	-34.734119	-111.225137
0.300000	-32.957527	-94.483800	-0.030301	-16.751247	-0.030301	-16.751247	-33.140252	-116.329893
0.350000	-31.607895	-95.871163	-0.032816	-19.536438	-0.032816	-19.536438	-31.785983	-121.307921
0.400000	-30.436952	-97.186398	-0.035626	-22.321851	-0.035626	-22.321851	-30.607132	-126.205465
0.450000	-29.401812	-98.453393	-0.038731	-25.107292	-0.038731	-25.107292	-29.561854	-131.043435
0.500000	-28.473016	-99.686093	-0.042137	-27.892649	-0.042137	-27.892649	-28.621153	-135.832255
0.550000	-27.629821	-100.896070	-0.045826	-30.677873	-0.045826	-30.677873	-27.764885	-140.581124
0.600000	-26.856864	-102.090706	-0.049785	-33.462954	-0.049785	-33.462954	-26.978060	-145.294903
0.650000	-26.142271	-103.275220	-0.054011	-36.247906	-0.054011	-36.247906	-26.248990	-149.975323
0.700000	-25.476914	-104.454269	-0.058497	-39.032765	-0.058497	-39.032765	-25.568800	-154.624009
0.750000	-24.853720	-105.631771	-0.063226	-41.817587	-0.063226	-41.817587	-24.930691	-159.242671
0.800000	-24.266798	-106.811018	-0.068197	-44.602431	-0.068197	-44.602431	-24.328920	-163.831264
0.850000	-23.711197	-107.995296	-0.073414	-47.387370	-0.073414	-47.387370	-23.758638	-168.388779
0.900000	-23.183274	-109.187231	-0.078863	-50.172471	-0.078863	-50.172471	-23.216416	-172.916356
0.950000	-22.679774	-110.389398	-0.084543	-52.957807	-0.084543	-52.957807	-22.699101	-177.413633
1.000000	-22.197635	-111.605043	-0.090467	-55.743466	-0.090467	-55.743466	-22.203675	178.121514
1.050000	-21.734870	-112.835990	-0.096627	-58.529505	-0.096627	-58.529505	-21.728272	173.688109
1.100000	-21.289566	-114.084385	-0.103025	-61.315983	-0.103025	-61.315983	-21.271031	169.286542
1.150000	-20.859846	-115.353115	-0.109675	-64.102981	-0.109675	-64.102981	-20.830097	164.918566
1.200000	-20.444413	-116.643990	-0.116579	-66.890542	-0.116579	-66.890542	-20.404204	160.584251
1.250000	-20.042206	-117.958430	-0.123740	-69.678701	-0.123740	-69.678701	-19.992301	156.283416
1.300000	-19.652090	-119.298695	-0.131170	-72.467504	-0.131170	-72.467504	-19.593247	152.017237
1.350000	-19.273104	-120.666976	-0.138882	-75.256991	-0.138882	-75.256991	-19.206066	147.786837
1.400000	-18.904732	-122.063739	-0.146876	-78.047152	-0.146876	-78.047152	-18.830217	143.591335
1.450000	-18.546323	-123.490396	-0.155162	-80.837997	-0.155162	-80.837997	-18.465015	139.431224
1.500000	-18.197091	-124.949806	-0.163763	-83.629555	-0.163763	-83.629555	-18.109645	135.308734
1.550000	-17.856861	-126.441348	-0.172674	-86.421775	-0.172674	-86.421775	-17.763885	131.222222
1.600000	-17.525240	-127.965933	-0.181903	-89.214630	-0.181903	-89.214630	-17.427295	127.171961
1.650000	-17.201722	-129.525882	-0.191472	-92.008112	-0.191472	-92.008112	-17.099331	123.159824
1.700000	-16.886217	-131.120322	-0.201374	-94.802146	-0.201374	-94.802146	-16.779851	119.184342
1.750000	-16.578392	-132.750785	-0.211627	-97.596690	-0.211627	-97.596690	-16.468481	115.246712
1.800000	-16.278089	-134.417379	-0.222232	-100.391671	-0.222232	-100.391671	-16.165015	111.346709
1.850000	-15.985140	-136.120461	-0.233195	-103.187013	-0.233195	-103.187013	-15.869246	107.484456
1.900000	-15.699393	-137.860492	-0.244521	-105.982633	-0.244521	-105.982633	-15.580979	103.660253
1.950000	-15.420731	-139.637648	-0.256214	-108.778437	-0.256214	-108.778437	-15.300063	99.874174
2.000000	-15.149043	-141.452326	-0.268275	-111.574323	-0.268275	-111.574323	-15.026352	96.126580
2.050000	-14.884277	-143.303743	-0.280698	-114.370185	-0.280698	-114.370185	-14.759759	92.416679
2.100000	-14.626337	-145.192163	-0.293482	-117.165913	-0.293482	-117.165913	-14.500160	88.744795
2.150000	-14.375152	-147.117495	-0.306622	-119.961393	-0.306622	-119.961393	-14.247457	85.110933
2.200000	-14.130655	-149.079601	-0.320113	-122.756509	-0.320113	-122.756509	-14.001563	81.515082
2.250000	-13.892788	-151.078307	-0.333946	-125.551142	-0.333946	-125.551142	-13.762395	77.957222
2.300000	-13.661493	-153.113406	-0.348110	-128.345174	-0.348110	-128.345174	-13.529878	74.437325
2.350000	-13.436715	-155.184669	-0.362595	-131.138489	-0.362595	-131.138489	-13.303942	70.955354
2.400000	-13.218401	-157.291845	-0.377384	-133.930971	-0.377384	-133.930971	-13.084518	67.511264
2.450000	-13.006498	-159.434672	-0.392462	-136.722508	-0.392462	-136.722508	-12.871541	64.105006
2.500000	-12.800953	-161.612880	-0.407811	-139.512994	-0.407811	-139.512994	-12.664947	60.736524
2.550000	-12.601751	-163.826955	-0.423415	-142.302302	-0.423415	-142.302302	-12.464710	57.406577
2.600000	-12.408808	-166.075856	-0.439246	-145.090361	-0.439246	-145.090361	-12.270738	54.114278
2.650000	-12.222064	-168.359320	-0.455282	-147.877087	-0.455282	-147.877087	-12.082964	50.859556
2.700000	-12.041459	-170.677091	-0.471496	-150.662406	-0.471496	-150.662406	-11.901323	47.642338
2.750000	-11.866930	-173.028929	-0.487863	-153.446252	-0.487863	-153.446252	-11.725745	44.462543
2.800000	-11.698412	-175.414607	-0.504355	-156.228574	-0.504355	-156.228574	-11.556162	41.320089
2.850000	-11.535836	-177.833919	-0.520942	-159.009330	-0.520942	-159.009330	-11.392502	38.214887
2.900000	-11.379131	179.713323	-0.537595	-161.788493	-0.537595	-161.788493	-11.234689	35.146844
2.950000	-11.228225	177.227283	-0.554284	-164.566047	-0.554284	-164.566047	-11.082649	32.115861
3.000000	-11.083039	174.708103	-0.570976	-167.341993	-0.570976	-167.341993	-10.936304	29.121835
3.050000	-10.943496	172.155899	-0.587641	-170.116343	-0.587641	-170.116343	-10.795571	26.164658
3.100000	-10.809512	169.570764	-0.604247	-172.889126	-0.604247	-172.889126	-10.660370	23.244213
3.150000	-10.681042	166.952405	-0.620761	-175.660368	-0.620761	-175.660368	-10.530652	20.360777
3.200000	-10.557999	164.300864	-0.637149	-178.430127	-0.637149	-178.430127	-10.406332	17.514219
3.250000	-10.440256	161.616513	-0.653384	178.801506	-0.653384	178.801506	-10.287283	14.704007
3.300000	-10.327718	158.899341	-0.669434	176.034448	-0.669434	176.034448	-10.173413	11.929999
3.350000	-10.220289	156.149314	-0.685271	173.268597	-0.685271	173.268597	-10.064627	9.192049
3.400000	-10.117871	153.366377	-0.700865	170.503844	-0.700865	170.503844	-9.960828	6.490001
3.450000	-10.020362	150.550456	-0.716191	167.740062	-0.716191	167.740062	-9.861919	3.823693
3.500000	-9.927661	147.701458	-0.731221	164.977116	-0.731221	164.977116	-9.767799	1.192954
3.550000	-9.839661	144.819275	-0.745933	162.214861	-0.745933	162.214861	-9.678366	-1.402397
3.600000	-9.756257	141.903789	-0.760304	159.453140	-0.760304	159.453140	-9.593517	-3.962548
3.650000	-9.677340	138.954870	-0.774312	156.691789	-0.774312	156.691789	-9.513145	-6.487699
3.700000	-9.602798	135.972385	-0.787939	153.930636	-0.787939	153.930636	-9.437145	-8.978062
3.750000	-9.532520	132.956197	-0.801169	151.169502	-0.801169	151.169502	-9.365408	-11.433858
3.800000	-9.466470	129.905433	-0.813977	148.408197	-0.813977	148.408197	-9.297899	-13.854584
3.850000	-9.404452	126.820700	-0.826359	145.646533	-0.826359	145.646533	-9.234429	-16.241244
3.900000	-9.346350	123.701882	-0.838305	142.884321	-0.838305	142.884321	-9.174884	-18.594106
3.950000	-9.292048	120.548881	-0.849808	140.121369	-0.849808	140.121369	-9.119150	-20.913457
4.000000	-9.241425	117.361618	-0.860860	137.357488	-0.860860	137.357488	-9.067110	-23.199602
4.050000	-9.194365	114.140041	-0.871458	134.592488	-0.871458	134.592488	-9.018648	-25.452871
4.100000	-9.150747	110.884130	-0.881601	131.826184	-0.881601	131.826184	-8.973648	-27.673614
4.150000	-9.110454	107.593900	-0.891288	129.058393	-0.891288	129.058393	-8.931990	-29.862212
4.200000	-9.073367	104.269408	-0.900522	126.288941	-0.900522	126.288941	-8.893558	-32.019069
4.250000	-9.039369	100.910757	-0.909306	123.517655	-0.909306	123.517655	-8.858234	-34.144623
4.300000	-9.008343	97.518102	-0.917646	120.744375	-0.917646	120.744375	-8.825900	-36.239346
4.350000	-8.980176	94.091651	-0.925550	117.968945	-0.925550	117.968945	-8.796440	-38.303742
4.400000	-8.954784	90.631313	-0.933021	115.191197	-0.933021	115.191197	-8.769768	-40.338039
4.450000	-8.932055	87.137436	-0.940069	112.410990	-0.940069	112.410990	-8.745767	-42.342840
4.500000	-8.911856	83.610787	-0.946709	109.628228	-0.946709	109.628228	-8.724298	-44.319097
4.550000	-8.894086	80.051842	-0.952955	106.842800	-0.952955	106.842800	-8.705256	-46.267480
4.600000	-8.878650	76.461144	-0.958816	104.054608	-0.958816	104.054608	-8.688537	-48.188706
4.650000	-8.865462	72.839311	-0.964307	101.263563	-0.964307	101.263563	-8.674046	-50.083535
4.700000	-8.854439	69.187034	-0.969439	98.469592	-0.969439	98.469592	-8.661691	-51.952772
4.750000	-8.845509	65.505074	-0.974225	95.672631	-0.974225	95.672631	-8.651388	-53.797267
4.800000	-8.838608	61.794262	-0.978677	92.872631	-0.978677	92.872631	-8.643061	-55.617917
4.850000	-8.833684	58.055497	-0.982806	90.069550	-0.982806	90.069550	-8.636644	-57.415657
4.900000	-8.830694	54.289740	-0.986623	87.263361	-0.986623	87.263361	-8.632078	-59.191465
4.950000	-8.829610	50.498010	-0.990137	84.454042	-0.990137	84.454042	-8.629319	-60.946355
5.000000	-8.830415	46.681376	-0.993357	81.641584	-0.993357	81.641584	-8.628333	-62.681373
5.050000	-8.833150	42.840460	-0.996282	78.825914	-0.996282	78.825914	-8.629137	-64.397212
5.100000	-8.837789	38.976957	-0.998923	76.007103	-0.998923	76.007103	-8.631687	-66.095402
5.150000	-8.844365	35.092039	-1.001284	73.185158	-1.001284	73.185158	-8.635994	-67.777060
5.200000	-8.852926	31.186894	-1.003365	70.360089	-1.003365	70.360089	-8.642083	-69.443306
5.250000	-8.863542	27.262711	-1.005166	67.531903	-1.005166	67.531903	-8.649997	-71.095266
5.300000	-8.876299	23.320668	-1.006681	64.700610	-1.006681	64.700610	-8.659797	-72.734056
5.350000	-8.891305	19.361917	-1.007905	61.866213	-1.007905	61.866213	-8.671562	-74.360776
5.400000	-8.908688	15.387574	-1.008829	59.028710	-1.008829	59.028710	-8.685391	-75.976498
5.450000	-8.928598	11.398698	-1.009444	56.188090	-1.009444	56.188090	-8.701400	-77.582261
5.500000	-8.951205	7.396285	-1.009735	53.344332	-1.009735	53.344332	-8.719728	-79.179056
5.550000	-8.976703	3.381244	-1.009688	50.497400	-1.009688	50.497400	-8.740532	-80.767818
5.600000	-9.005308	-0.645612	-1.009285	47.647244	-1.009285	47.647244	-8.763991	-82.349416
5.650000	-9.037299	-4.683699	-1.008504	44.793758	-1.008504	44.793758	-8.790338	-83.924575
5.700000	-9.072948	-8.732435	-1.007321	41.936848	-1.007321	41.936848	-8.819799	-85.494017
5.750000	-9.112509	-12.791286	-1.005720	39.076435	-1.005720	39.076435	-8.852588	-87.058398
5.800000	-9.156297	-16.860002	-1.003677	36.212379	-1.003677	36.212379	-8.888970	-88.618195
5.850000	-9.204652	-20.938514	-1.001168	33.344513	-1.001168	33.344513	-8.929232	-90.173753
5.900000	-9.257942	-25.026947	-0.998168	30.472641	-0.998168	30.472641	-8.973682	-91.725280
5.950000	-9.316560	-29.125641	-0.994654	27.596534	-0.994654	27.596534	-9.022651	-93.272825
6.000000	-9.380931	-33.235166	-0.990601	24.715934	-0.990601	24.715934	-9.076493	-94.816269
6.050000	-9.451509	-37.356348	-0.985987	21.830546	-0.985987	21.830546	-9.135586	-96.355302
6.100000	-9.528780	-41.490284	-0.980792	18.940044	-0.980792	18.940044	-9.200331	-97.889409
6.150000	-9.613264	-45.638370	-0.974997	16.044064	-0.974997	16.044064	-9.271154	-99.417843
6.200000	-9.705519	-49.802331	-0.968586	13.142207	-0.968586	13.142207	-9.348507	-100.939606
6.250000	-9.806141	-53.984247	-0.961547	10.234042	-0.961547	10.234042	-9.432869	-102.453414
6.300000	-9.915948	-58.187108	-0.953858	7.318941	-0.953858	7.318941	-9.524898	-103.957415
6.350000	-10.035467	-62.413476	-0.945530	4.396537	-0.945530	4.396537	-9.624993	-105.449796
6.400000	-10.165433	-66.666801	-0.936565	1.466294	-0.936565	1.466294	-9.733718	-106.928165
6.450000	-10.306638	-70.951095	-0.926972	-1.472353	-0.926972	-1.472353	-9.851669	-108.389669
6.500000	-10.459930	-75.271014	-0.916768	-4.419998	-0.916768	-4.419998	-9.979469	-109.830920
6.550000	-10.626223	-79.631949	-0.905976	-7.377259	-0.905976	-7.377259	-10.117775	-111.247926
6.600000	-10.806502	-84.040152	-0.894628	-10.344775	-0.894628	-10.344775	-10.267273	-112.635990
6.650000	-11.001822	-88.502875	-0.882766	-13.323202	-0.882766	-13.323202	-10.428675	-113.989598
6.700000	-11.213322	-93.028554	-0.870439	-16.313209	-0.870439	-16.313209	-10.602721	-115.302294
6.750000	-11.442220	-97.627037	-0.857709	-19.315469	-0.857709	-19.315469	-10.790165	-116.566511
6.800000	-11.689821	-102.309862	-0.844648	-22.330659	-0.844648	-22.330659	-10.991771	-117.773393
6.850000	-11.957506	-107.090614	-0.831338	-25.359446	-0.831338	-25.359446	-11.208298	-118.912566
6.900000	-12.246868	-111.986824	-0.817875	-28.402649	-0.817875	-28.402649	-11.440577	-119.970854
6.950000	-12.559404	-117.018404	-0.804368	-31.460921	-0.804368	-31.460921	-11.689263	-120.933455
7.000000	-12.896475	-122.207313	-0.790941	-34.534708	-0.790941	-34.534708	-11.954788	-121.784386
7.050000	-13.259516	-127.581476	-0.777725	-37.624569	-0.777725	-37.624569	-12.237514	-122.503939
7.100000	-13.649554	-133.168402	-0.764852	-40.730599	-0.764852	-40.730599	-12.537370	-123.073496
7.150000	-14.067984	-139.018583	-0.752496	-43.853973	-0.752496	-43.853973	-12.854365	-123.459592
7.200000	-14.514895	-145.178328	-0.740820	-46.994803	-0.740820	-46.994803	-13.187451	-123.633822
7.250000	-14.989446	-151.710271	-0.730010	-50.153485	-0.730010	-50.153485	-13.534843	-123.559500
7.300000	-15.488977	-158.683576	-0.720250	-53.330079	-0.720250	-53.330079	-13.893579	-123.199427
7.350000	-16.008112	-166.181939	-0.711738	-56.524679	-0.711738	-56.524679	-14.259163	-122.511622
7.400000	-16.537295	-174.299093	-0.704680	-59.737268	-0.704680	-59.737268	-14.625053	-121.453054
7.450000	-17.061009	176.868008	-0.699288	-62.967702	-0.699288	-62.967702	-14.982176	-119.983321
7.500000	-17.555895	167.234307	-0.695776	-66.215707	-0.695776	-66.215707	-15.318526	-118.070582
7.550000	-17.988335	156.744611	-0.694389	-69.481044	-0.694389	-69.481044	-15.618404	-115.695159
7.600000	-18.318913	145.442243	-0.695323	-72.762954	-0.695323	-72.762954	-15.864642	-112.875732
7.650000	-18.503018	133.471772	-0.698836	-76.060963	-0.698836	-76.060963	-16.037266	-109.659135
7.700000	-18.512192	121.133494	-0.705069	-79.373760	-0.705069	-79.373760	-16.121466	-106.152870
7.750000	-18.337370	108.777874	-0.714164	-82.700140	-0.714164	-82.700140	-16.107055	-102.489614
7.800000	-17.981139	96.780381	-0.726455	-86.039592	-0.726455	-86.039592	-15.983782	-98.825986
7.850000	-17.479252	85.435948	-0.742082	-89.390563	-0.742082	-89.390563	-15.756538	-95.334554
7.900000	-16.875132	74.900158	-0.761185	-92.751503	-0.761185	-92.751503	-15.437396	-92.160555
7.950000	-16.209935	65.209026	-0.783892	-96.120783	-0.783892	-96.120783	-15.043385	-89.408329
8.000000	-15.516873	56.321066	-0.810315	-99.496691	-0.810315	-99.496691	-14.593373	-87.138286
8.050000	-14.820171	48.154191	-0.840543	-102.877421	-0.840543	-102.877421	-14.105695	-85.370731
8.100000	-14.136088	40.613373	-0.874635	-106.261086	-0.874635	-106.261086	-13.596441	-84.095490
8.150000	-13.474680	33.608817	-0.912645	-109.645736	-0.912645	-109.645736	-13.078569	-83.284865
8.200000	-12.841932	27.057085	-0.954573	-113.029357	-0.954573	-113.029357	-12.562304	-82.897419
8.250000	-12.240928	20.885585	-1.000368	-116.409951	-1.000368	-116.409951	-12.055211	-82.885909
8.300000	-11.672763	15.036372	-1.049969	-119.785537	-1.049969	-119.785537	-11.562454	-83.205947
8.350000	-11.137385	9.460821	-1.103269	-123.154211	-1.103269	-123.154211	-11.087510	-83.814704
8.400000	-10.634092	4.124171	-1.160204	-126.513917	-1.160204	-126.513917	-10.632485	-84.678651
8.450000	-10.161765	-1.008807	-1.220576	-129.862944	-1.220576	-129.862944	-10.198718	-85.760226
8.500000	-9.719044	-5.963843	-1.284208	-133.199590	-1.284208	-133.199590	-9.786751	-87.029924
8.550000	-9.304480	-10.762045	-1.350894	-136.522272	-1.350894	-136.522272	-9.396649	-88.462055
8.600000	-8.916600	-15.420817	-1.420409	-139.829543	-1.420409	-139.829543	-9.028150	-90.034353
8.650000	-8.553953	-19.954607	-1.492507	-143.120103	-1.492507	-143.120103	-8.680764	-91.727590
8.700000	-8.215134	-24.375494	-1.566925	-146.392814	-1.566925	-146.392814	-8.353853	-93.525184
8.750000	-7.898797	-28.693667	-1.643384	-149.646701	-1.643384	-149.646701	-8.046686	-95.412862
8.800000	-7.603819	-32.916551	-1.721605	-152.880672	-1.721605	-152.880672	-7.758608	-97.379312
8.850000	-7.328838	-37.053045	-1.801269	-156.094383	-1.801269	-156.094383	-7.488680	-99.412755
8.900000	-7.072709	-41.109593	-1.882072	-159.287392	-1.882072	-159.287392	-7.236074	-101.504212
8.950000	-6.834359	-45.091865	-1.963706	-162.459434	-1.963706	-162.459434	-6.999972	-103.645998
9.000000	-6.612778	-49.004904	-2.045862	-165.610410	-2.045862	-165.610410	-6.779572	-105.831560
9.050000	-6.407022	-52.853246	-2.128232	-168.740391	-2.128232	-168.740391	-6.574099	-108.055334
9.100000	-6.216206	-56.641015	-2.210512	-171.849602	-2.210512	-171.849602	-6.382804	-110.312621
9.150000	-6.039503	-60.371998	-2.292403	-174.938424	-2.292403	-174.938424	-6.204973	-112.599484
9.200000	-5.876237	-64.049225	-2.373595	-178.007192	-2.373595	-178.007192	-6.040016	-114.912887
9.250000	-5.725634	-67.676300	-2.453804	178.943321	-2.453804	178.943321	-5.887238	-117.249990
9.300000	-5.586975	-71.256565	-2.532763	175.912229	-2.532763	175.912229	-5.745985	-119.608543
9.350000	-5.459635	-74.792949	-2.610204	172.898621	-2.610204	172.898621	-5.615681	-121.986885
9.400000	-5.343033	-78.288244	-2.685872	169.901479	-2.685872	169.901479	-5.495791	-124.383766
9.450000	-5.236631	-81.745127	-2.759523	166.919679	-2.759523	166.919679	-5.385811	-126.798305
9.500000	-5.139929	-85.166168	-2.830923	163.952002	-2.830923	163.952002	-5.285272	-129.229945
9.550000	-5.052465	-88.553850	-2.899848	160.997138	-2.899848	160.997138	-5.193740	-131.678425
9.600000	-4.973848	-91.910433	-2.966072	158.053743	-2.966072	158.053743	-5.110848	-134.143827
9.650000	-4.903715	-95.238143	-3.029377	155.120358	-3.029377	155.120358	-5.036256	-136.626479
9.700000	-4.841625	-98.539526	-3.089607	152.195323	-3.089607	152.195323	-4.969547	-139.126675
9.750000	-4.787241	-101.816760	-3.146585	149.277009	-3.146585	149.277009	-4.910409	-141.645060
9.800000	-4.740253	-105.071958	-3.200147	146.363723	-3.200147	146.363723	-4.858555	-144.182452
9.850000	-4.700376	-108.307168	-3.250141	143.453696	-3.250141	143.453696	-4.813726	-146.739820
9.900000	-4.667348	-111.524380	-3.296424	140.545094	-3.296424	140.545094	-4.775686	-149.318276
9.950000	-4.640927	-114.725521	-3.338867	137.636010	-3.338867	137.636010	-4.744225	-151.919055
10.000000	-4.620890	-117.912458	-3.377351	134.724466	-3.377351	134.724466	-4.719154	-154.543507
