! freq	dB(S11)	phase(S11)	dB(S12)	phase(S12)	
!     	dB(S21)	phase(S21)	dB(S22)	phase(S22)	
!S-par simulation data
#  GHz  S  DB  R 50
0.000000	-0.000000	0.000000	-354.821664	0.000000	-354.821664	0.000000	-0.000000	0.000000
0.050000	-0.000599	-0.872584	-109.965599	88.991914	-109.965599	88.991914	-0.000816	-1.263808
0.100000	-0.001922	-1.740310	-103.988207	87.992150	-103.988207	87.992150	-0.002738	-2.521468
0.150000	-0.003320	-2.603330	-100.538838	87.009347	-100.538838	87.009347	-0.004936	-3.772258
0.200000	-0.004547	-3.463677	-98.147303	86.054803	-98.147303	86.054803	-0.006965	-5.018383
0.250000	-0.005635	-4.322947	-96.340660	85.134464	-96.340660	85.134464	-0.008784	-6.262306
0.300000	-0.006635	-5.181669	-94.918651	84.260592	-94.918651	84.260592	-0.010429	-7.504991
0.350000	-0.007599	-6.040074	-93.772773	83.445696	-93.772773	83.445696	-0.011968	-8.746963
0.400000	-0.008564	-6.898210	-92.840206	82.705556	-92.840206	82.705556	-0.013453	-9.988385
0.450000	-0.009552	-7.756024	-92.088971	82.068590	-92.088971	82.068590	-0.014920	-11.229189
0.500000	-0.010572	-8.613497	-91.483281	81.549130	-91.483281	81.549130	-0.016390	-12.469322
0.550000	-0.011626	-9.470579	-91.005373	81.174740	-91.005373	81.174740	-0.017871	-13.708650
0.600000	-0.012713	-10.327223	-90.643254	80.979934	-90.643254	80.979934	-0.019365	-14.947021
0.650000	-0.013829	-11.183387	-90.388972	81.008523	-90.388972	81.008523	-0.020873	-16.184279
0.700000	-0.014968	-12.039027	-90.237456	81.316842	-90.237456	81.316842	-0.022390	-17.420266
0.750000	-0.016124	-12.894064	-90.191592	82.006059	-90.191592	82.006059	-0.023916	-18.654733
0.800000	-0.017290	-13.748452	-90.248238	83.190234	-90.248238	83.190234	-0.025445	-19.887519
0.850000	-0.018457	-14.602156	-90.401010	85.013037	-90.401010	85.013037	-0.026976	-21.118509
0.900000	-0.019620	-15.455178	-90.636818	87.604447	-90.636818	87.604447	-0.028507	-22.347709
0.950000	-0.020773	-16.307429	-90.946102	91.244858	-90.946102	91.244858	-0.030037	-23.574893
1.000000	-0.021913	-17.158855	-91.297384	96.232160	-91.297384	96.232160	-0.031564	-24.799947
1.050000	-0.023037	-18.009404	-91.630768	102.874482	-91.630768	102.874482	-0.033089	-26.022768
1.100000	-0.024143	-18.859028	-91.846403	111.363918	-91.846403	111.363918	-0.034612	-27.243263
1.150000	-0.025231	-19.707681	-91.809458	121.542031	-91.809458	121.542031	-0.036132	-28.461349
1.200000	-0.026302	-20.555322	-91.395640	132.671491	-91.395640	132.671491	-0.037649	-29.676950
1.250000	-0.027358	-21.401917	-90.567012	143.545994	-90.567012	143.545994	-0.039164	-30.889998
1.300000	-0.028400	-22.247387	-89.384788	152.984168	-89.384788	152.984168	-0.040677	-32.100313
1.350000	-0.029431	-23.091755	-88.009471	160.562607	-88.009471	160.562607	-0.042187	-33.307951
1.400000	-0.030455	-23.935001	-86.561433	166.350368	-86.561433	166.350368	-0.043696	-34.512859
1.450000	-0.031473	-24.777111	-85.117905	170.634222	-85.117905	170.634222	-0.045202	-35.714988
1.500000	-0.032487	-25.618070	-83.720189	173.731275	-83.720189	173.731275	-0.046705	-36.914291
1.550000	-0.033499	-26.457868	-82.386845	175.913035	-82.386845	175.913035	-0.048206	-38.110727
1.600000	-0.034512	-27.296495	-81.123694	177.390128	-81.123694	177.390128	-0.049704	-39.304252
1.650000	-0.035525	-28.133941	-79.929952	178.320168	-79.929952	178.320168	-0.051200	-40.494829
1.700000	-0.036541	-28.970196	-78.801722	178.820530	-78.801722	178.820530	-0.052692	-41.682418
1.750000	-0.037561	-29.805252	-77.733911	178.979431	-77.733911	178.979431	-0.054181	-42.866983
1.800000	-0.038584	-30.639097	-76.721223	178.864044	-76.721223	178.864044	-0.055667	-44.048490
1.850000	-0.039612	-31.471722	-75.758631	178.526149	-75.758631	178.526149	-0.057150	-45.226905
1.900000	-0.040645	-32.303116	-74.841563	178.006079	-74.841563	178.006079	-0.058630	-46.402194
1.950000	-0.041684	-33.133266	-73.965942	177.335548	-73.965942	177.335548	-0.060107	-47.574328
2.000000	-0.042728	-33.962161	-73.128164	176.539708	-73.128164	176.539708	-0.061582	-48.743274
2.050000	-0.043779	-34.789789	-72.325056	175.638681	-72.325056	175.638681	-0.063054	-49.909005
2.100000	-0.044835	-35.616135	-71.553818	174.648699	-71.553818	174.648699	-0.064524	-51.071493
2.150000	-0.045898	-36.441188	-70.811976	173.582968	-70.811976	173.582968	-0.065993	-52.230712
2.200000	-0.046967	-37.264932	-70.097338	172.452319	-70.097338	172.452319	-0.067460	-53.386635
2.250000	-0.048043	-38.087356	-69.407950	171.265703	-69.407950	171.265703	-0.068926	-54.539239
2.300000	-0.049126	-38.908444	-68.742070	170.030578	-68.742070	170.030578	-0.070392	-55.688502
2.350000	-0.050215	-39.728183	-68.098136	168.753197	-68.098136	168.753197	-0.071858	-56.834401
2.400000	-0.051311	-40.546560	-67.474741	167.438843	-67.474741	167.438843	-0.073325	-57.976917
2.450000	-0.052414	-41.363560	-66.870617	166.092004	-66.870617	166.092004	-0.074794	-59.116031
2.500000	-0.053524	-42.179171	-66.284613	164.716519	-66.284613	164.716519	-0.076264	-60.251727
2.550000	-0.054642	-42.993317	-65.714811	163.314719	-65.714811	163.314719	-0.077737	-61.383837
2.600000	-0.055767	-43.806046	-65.161229	161.890646	-65.161229	161.890646	-0.079214	-62.512497
2.650000	-0.056899	-44.617345	-64.622986	160.446735	-64.622986	160.446735	-0.080695	-63.637693
2.700000	-0.058039	-45.427202	-64.099274	158.985112	-64.099274	158.985112	-0.082180	-64.759415
2.750000	-0.059186	-46.235604	-63.589350	157.507646	-63.589350	157.507646	-0.083671	-65.877653
2.800000	-0.060341	-47.042541	-63.092530	156.015983	-63.092530	156.015983	-0.085168	-66.992399
2.850000	-0.061505	-47.848000	-62.608184	154.511578	-62.608184	154.511578	-0.086672	-68.103645
2.900000	-0.062676	-48.651972	-62.135728	152.995724	-62.135728	152.995724	-0.088184	-69.211387
2.950000	-0.063856	-49.454446	-61.674620	151.469572	-61.674620	151.469572	-0.089704	-70.315620
3.000000	-0.065044	-50.255411	-61.224356	149.934150	-61.224356	149.934150	-0.091233	-71.416344
3.050000	-0.066241	-51.054859	-60.784469	148.390378	-60.784469	148.390378	-0.092772	-72.513556
3.100000	-0.067447	-51.852780	-60.354522	146.839084	-60.354522	146.839084	-0.094321	-73.607257
3.150000	-0.068663	-52.649165	-59.934106	145.281013	-59.934106	145.281013	-0.095882	-74.697451
3.200000	-0.069887	-53.444008	-59.522840	143.716839	-59.522840	143.716839	-0.097454	-75.784139
3.250000	-0.071122	-54.237300	-59.120364	142.147170	-59.120364	142.147170	-0.099039	-76.867329
3.300000	-0.072366	-55.029034	-58.726342	140.572560	-58.726342	140.572560	-0.100637	-77.947026
3.350000	-0.073621	-55.819204	-58.340459	138.993509	-58.340459	138.993509	-0.102249	-79.023239
3.400000	-0.074886	-56.607803	-57.962417	137.410477	-57.962417	137.410477	-0.103875	-80.095977
3.450000	-0.076162	-57.394826	-57.591933	135.823880	-57.591933	135.823880	-0.105517	-81.165251
3.500000	-0.077449	-58.180268	-57.228745	134.234101	-57.228745	134.234101	-0.107174	-82.231073
3.550000	-0.078748	-58.964125	-56.872600	132.641489	-56.872600	132.641489	-0.108848	-83.293457
3.600000	-0.080059	-59.746391	-56.523262	131.046364	-56.523262	131.046364	-0.110539	-84.352419
3.650000	-0.081382	-60.527064	-56.180507	129.449023	-56.180507	129.449023	-0.112248	-85.407974
3.700000	-0.082717	-61.306141	-55.844120	127.849736	-55.844120	127.849736	-0.113975	-86.460141
3.750000	-0.084066	-62.083619	-55.513901	126.248753	-55.513901	126.248753	-0.115721	-87.508938
3.800000	-0.085428	-62.859426	-55.189391	124.646252	-55.189391	124.646252	-0.117487	-88.554241
3.850000	-0.086804	-63.633629	-54.870695	123.042518	-54.870695	123.042518	-0.119273	-89.596218
3.900000	-0.088194	-64.406229	-54.557637	121.437746	-54.557637	121.437746	-0.121080	-90.634893
3.950000	-0.089599	-65.177224	-54.250049	119.832117	-54.250049	119.832117	-0.122908	-91.670289
4.000000	-0.091019	-65.946615	-53.947773	118.225801	-53.947773	118.225801	-0.124758	-92.702432
4.050000	-0.092455	-66.714401	-53.650656	116.618954	-53.650656	116.618954	-0.126630	-93.731348
4.100000	-0.093906	-67.480583	-53.358553	115.011721	-53.358553	115.011721	-0.128525	-94.757064
4.150000	-0.095374	-68.245163	-53.071325	113.404239	-53.071325	113.404239	-0.130443	-95.779610
4.200000	-0.096859	-69.008142	-52.788840	111.796635	-52.788840	111.796635	-0.132385	-96.799015
4.250000	-0.098361	-69.769523	-52.510970	110.189026	-52.510970	110.189026	-0.134351	-97.815310
4.300000	-0.099881	-70.529308	-52.237593	108.581524	-52.237593	108.581524	-0.136342	-98.828527
4.350000	-0.101420	-71.287501	-51.968593	106.974232	-51.968593	106.974232	-0.138358	-99.838698
4.400000	-0.102977	-72.044104	-51.703859	105.367249	-51.703859	105.367249	-0.140400	-100.845858
4.450000	-0.104554	-72.799123	-51.443282	103.760664	-51.443282	103.760664	-0.142468	-101.850040
4.500000	-0.106151	-73.552560	-51.186760	102.154563	-51.186760	102.154563	-0.144562	-102.851282
4.550000	-0.107768	-74.304422	-50.934193	100.549028	-50.934193	100.549028	-0.146684	-103.849618
4.600000	-0.109406	-75.054713	-50.685486	98.944135	-50.685486	98.944135	-0.148832	-104.845087
4.650000	-0.111066	-75.803439	-50.440548	97.339954	-50.440548	97.339954	-0.151009	-105.837726
4.700000	-0.112747	-76.550607	-50.199290	95.736554	-50.199290	95.736554	-0.153214	-106.827576
4.750000	-0.114452	-77.296223	-49.961628	94.133997	-49.961628	94.133997	-0.155447	-107.814675
4.800000	-0.116179	-78.040294	-49.727479	92.532345	-49.727479	92.532345	-0.157710	-108.799065
4.850000	-0.117930	-78.782827	-49.496765	90.931654	-49.496765	90.931654	-0.160001	-109.780787
4.900000	-0.119706	-79.523830	-49.269409	89.331979	-49.269409	89.331979	-0.162323	-110.759882
4.950000	-0.121506	-80.263313	-49.045338	87.733370	-49.045338	87.733370	-0.164675	-111.736395
5.000000	-0.123331	-81.001282	-48.824480	86.135875	-48.824480	86.135875	-0.167057	-112.710368
5.050000	-0.125184	-81.737683	-48.606668	84.539595	-48.606668	84.539595	-0.169471	-113.681740
5.100000	-0.127063	-82.472592	-48.391943	82.944523	-48.391943	82.944523	-0.171917	-114.650666
5.150000	-0.128969	-83.206017	-48.180240	81.350700	-48.180240	81.350700	-0.174394	-115.617191
5.200000	-0.130903	-83.937969	-47.971497	79.758167	-47.971497	79.758167	-0.176903	-116.581361
5.250000	-0.132865	-84.668461	-47.765653	78.166960	-47.765653	78.166960	-0.179445	-117.543225
5.300000	-0.134855	-85.397501	-47.562650	76.577115	-47.562650	76.577115	-0.182018	-118.502828
5.350000	-0.136875	-86.125104	-47.362431	74.988665	-47.362431	74.988665	-0.184625	-119.460219
5.400000	-0.138924	-86.851279	-47.164941	73.401644	-47.164941	73.401644	-0.187264	-120.415447
5.450000	-0.141015	-87.575556	-46.969545	71.816603	-46.969545	71.816603	-0.189949	-121.367849
5.500000	-0.143122	-88.299099	-46.777583	70.232332	-46.777583	70.232332	-0.192651	-122.319164
5.550000	-0.145267	-89.020960	-46.587855	68.649920	-46.587855	68.649920	-0.195395	-123.268052
5.600000	-0.147439	-89.741620	-46.400842	67.068835	-46.400842	67.068835	-0.198169	-124.215206
5.650000	-0.149646	-90.460869	-46.216255	65.489398	-46.216255	65.489398	-0.200978	-125.160390
5.700000	-0.151886	-91.178708	-46.034025	63.911609	-46.034025	63.911609	-0.203824	-126.103605
5.750000	-0.154156	-91.895399	-45.854375	62.335233	-45.854375	62.335233	-0.206700	-127.045273
5.800000	-0.156467	-92.610483	-45.676770	60.760838	-45.676770	60.760838	-0.209619	-127.984775
5.850000	-0.158796	-93.324893	-45.502075	59.187309	-45.502075	59.187309	-0.212557	-128.923396
5.900000	-0.161171	-94.037569	-45.329196	57.616028	-45.329196	57.616028	-0.215542	-129.859766
5.950000	-0.163582	-94.748981	-45.158538	56.046439	-45.158538	56.046439	-0.218563	-130.794538
6.000000	-0.166028	-95.459147	-44.990064	54.478560	-44.990064	54.478560	-0.221621	-131.727765
6.050000	-0.168510	-96.168084	-44.823734	52.912406	-44.823734	52.912406	-0.224715	-132.659501
6.100000	-0.171030	-96.875812	-44.659514	51.347992	-44.659514	51.347992	-0.227845	-133.589803
6.150000	-0.173586	-97.582349	-44.497366	49.785331	-44.497366	49.785331	-0.231012	-134.518723
6.200000	-0.176179	-98.287715	-44.337255	48.224437	-44.337255	48.224437	-0.234216	-135.446318
6.250000	-0.178810	-98.991930	-44.179149	46.665320	-44.179149	46.665320	-0.237456	-136.372643
6.300000	-0.181481	-99.694966	-44.022976	45.108071	-44.022976	45.108071	-0.240736	-137.297704
6.350000	-0.184191	-100.396895	-43.868745	43.552620	-43.868745	43.552620	-0.244053	-138.221612
6.400000	-0.186940	-101.097738	-43.716424	41.998977	-43.716424	41.998977	-0.247407	-139.144424
6.450000	-0.189728	-101.797517	-43.565982	40.447149	-43.565982	40.447149	-0.250799	-140.066196
6.500000	-0.192555	-102.496255	-43.417388	38.897143	-43.417388	38.897143	-0.254229	-140.986986
6.550000	-0.195423	-103.193976	-43.270613	37.348963	-43.270613	37.348963	-0.257696	-141.906851
6.600000	-0.198331	-103.890704	-43.125629	35.802614	-43.125629	35.802614	-0.261202	-142.825848
6.650000	-0.201279	-104.586463	-42.982407	34.258100	-42.982407	34.258100	-0.264745	-143.744036
6.700000	-0.204268	-105.281279	-42.840921	32.715424	-42.840921	32.715424	-0.268327	-144.661473
6.750000	-0.207299	-105.975177	-42.701143	31.174585	-42.701143	31.174585	-0.271946	-145.578216
6.800000	-0.210371	-106.668185	-42.563047	29.635586	-42.563047	29.635586	-0.275605	-146.494324
6.850000	-0.213484	-107.360329	-42.426609	28.098425	-42.426609	28.098425	-0.279301	-147.409857
6.900000	-0.216640	-108.051637	-42.291803	26.563101	-42.291803	26.563101	-0.283036	-148.324873
6.950000	-0.219837	-108.742138	-42.158605	25.029612	-42.158605	25.029612	-0.286809	-149.239431
7.000000	-0.223077	-109.431862	-42.026992	23.497953	-42.026992	23.497953	-0.290620	-150.153591
7.050000	-0.226360	-110.120837	-41.896941	21.968120	-41.896941	21.968120	-0.294470	-151.067412
7.100000	-0.229685	-110.809097	-41.768430	20.440109	-41.768430	20.440109	-0.298359	-151.980954
7.150000	-0.233054	-111.496671	-41.641436	18.913912	-41.641436	18.913912	-0.302285	-152.894277
7.200000	-0.236465	-112.183593	-41.515938	17.389521	-41.515938	17.389521	-0.306250	-153.807442
7.250000	-0.239920	-112.869896	-41.391916	15.866930	-41.391916	15.866930	-0.310254	-154.720508
7.300000	-0.243419	-113.555614	-41.269350	14.346128	-41.269350	14.346128	-0.314295	-155.633537
7.350000	-0.246961	-114.240782	-41.148219	12.827105	-41.148219	12.827105	-0.318375	-156.546588
7.400000	-0.250548	-114.925436	-41.028505	11.309850	-41.028505	11.309850	-0.322493	-157.459722
7.450000	-0.254178	-115.609614	-40.910189	9.794351	-40.910189	9.794351	-0.326649	-158.373002
7.500000	-0.257852	-116.293353	-40.793254	8.280595	-40.793254	8.280595	-0.330842	-159.286487
7.550000	-0.261573	-116.976676	-40.677673	6.768644	-40.677673	6.768644	-0.335075	-160.200254
7.600000	-0.265338	-117.659643	-40.563440	5.258406	-40.563440	5.258406	-0.339346	-161.114355
7.650000	-0.269148	-118.342295	-40.450537	3.749867	-40.450537	3.749867	-0.343654	-162.028851
7.700000	-0.273002	-119.024675	-40.338948	2.243010	-40.338948	2.243010	-0.347999	-162.943804
7.750000	-0.276902	-119.706825	-40.228659	0.737817	-40.228659	0.737817	-0.352381	-163.859277
7.800000	-0.280846	-120.388791	-40.119653	-0.765728	-40.119653	-0.765728	-0.356800	-164.775331
7.850000	-0.284836	-121.070618	-40.011917	-2.267644	-40.011917	-2.267644	-0.361256	-165.692027
7.900000	-0.288871	-121.752354	-39.905436	-3.767950	-39.905436	-3.767950	-0.365748	-166.609429
7.950000	-0.292952	-122.434047	-39.800196	-5.266665	-39.800196	-5.266665	-0.370275	-167.527598
8.000000	-0.297079	-123.115746	-39.696185	-6.763810	-39.696185	-6.763810	-0.374839	-168.446597
8.050000	-0.301251	-123.797503	-39.593390	-8.259405	-39.593390	-8.259405	-0.379438	-169.366487
8.100000	-0.305470	-124.479371	-39.491798	-9.753472	-39.491798	-9.753472	-0.384072	-170.287332
8.150000	-0.309735	-125.161403	-39.391399	-11.246032	-39.391399	-11.246032	-0.388741	-171.209194
8.200000	-0.314047	-125.843656	-39.292180	-12.737107	-39.292180	-12.737107	-0.393444	-172.132135
8.250000	-0.318406	-126.526186	-39.194131	-14.226719	-39.194131	-14.226719	-0.398181	-173.056218
8.300000	-0.322813	-127.209053	-39.097242	-15.714891	-39.097242	-15.714891	-0.402951	-173.981506
8.350000	-0.327266	-127.892317	-39.001504	-17.201647	-39.001504	-17.201647	-0.407754	-174.908061
8.400000	-0.331768	-128.576041	-38.906906	-18.687008	-38.906906	-18.687008	-0.412590	-175.835946
8.450000	-0.336319	-129.260288	-38.813440	-20.170998	-38.813440	-20.170998	-0.417458	-176.765224
8.500000	-0.340918	-129.945126	-38.721098	-21.653640	-38.721098	-21.653640	-0.422358	-177.695957
8.550000	-0.345566	-130.630621	-38.629872	-23.134957	-38.629872	-23.134957	-0.427288	-178.628207
8.600000	-0.350265	-131.316846	-38.539755	-24.614972	-38.539755	-24.614972	-0.432249	-179.562038
8.650000	-0.355014	-132.003871	-38.450739	-26.093709	-38.450739	-26.093709	-0.437240	179.502487
8.700000	-0.359814	-132.691771	-38.362818	-27.571189	-38.362818	-27.571189	-0.442259	178.565308
8.750000	-0.364666	-133.380623	-38.275987	-29.047436	-38.275987	-29.047436	-0.447307	177.626360
8.800000	-0.369572	-134.070556	-38.190249	-30.522419	-38.190249	-30.522419	-0.452384	176.685499
8.850000	-0.374533	-134.761609	-38.105592	-31.996214	-38.105592	-31.996214	-0.457488	175.742739
8.900000	-0.379548	-135.453868	-38.022011	-33.468842	-38.022011	-33.468842	-0.462618	174.798020
8.950000	-0.384618	-136.147419	-37.939500	-34.940323	-37.939500	-34.940323	-0.467773	173.851277
9.000000	-0.389746	-136.842353	-37.858058	-36.410676	-37.858058	-36.410676	-0.472952	172.902450
9.050000	-0.394931	-137.538763	-37.777679	-37.879921	-37.777679	-37.879921	-0.478156	171.951477
9.100000	-0.400176	-138.236744	-37.698362	-39.348075	-37.698362	-39.348075	-0.483382	170.998296
9.150000	-0.405482	-138.936397	-37.620105	-40.815156	-37.620105	-40.815156	-0.488629	170.042847
9.200000	-0.410850	-139.637822	-37.542904	-42.281180	-37.542904	-42.281180	-0.493898	169.085067
9.250000	-0.416283	-140.341127	-37.466759	-43.746160	-37.466759	-43.746160	-0.499186	168.124896
9.300000	-0.421781	-141.046420	-37.391669	-45.210112	-37.391669	-45.210112	-0.504493	167.162273
9.350000	-0.427349	-141.753813	-37.317632	-46.673047	-37.317632	-46.673047	-0.509817	166.197139
9.400000	-0.432987	-142.463425	-37.244648	-48.134976	-37.244648	-48.134976	-0.515158	165.229432
9.450000	-0.438698	-143.175375	-37.172718	-49.595908	-37.172718	-49.595908	-0.520514	164.259094
9.500000	-0.444485	-143.889789	-37.101842	-51.055853	-37.101842	-51.055853	-0.525885	163.286065
9.550000	-0.450350	-144.606795	-37.032021	-52.514815	-37.032021	-52.514815	-0.531268	162.310286
9.600000	-0.456298	-145.326526	-36.963255	-53.972799	-36.963255	-53.972799	-0.536663	161.331699
9.650000	-0.462331	-146.049122	-36.895547	-55.429807	-36.895547	-55.429807	-0.542067	160.350245
9.700000	-0.468452	-146.774726	-36.828898	-56.885842	-36.828898	-56.885842	-0.547481	159.365868
9.750000	-0.474667	-147.503484	-36.763311	-58.340900	-36.763311	-58.340900	-0.552902	158.378509
9.800000	-0.480979	-148.235551	-36.698787	-59.794979	-36.698787	-59.794979	-0.558329	157.388112
9.850000	-0.487394	-148.971086	-36.635330	-61.248073	-36.635330	-61.248073	-0.563760	156.394622
9.900000	-0.493915	-149.710253	-36.572943	-62.700174	-36.572943	-62.700174	-0.569194	155.397983
9.950000	-0.500549	-150.453223	-36.511628	-64.151271	-36.511628	-64.151271	-0.574629	154.398140
10.000000	-0.507301	-151.200173	-36.451391	-65.601353	-36.451391	-65.601353	-0.580064	153.395039
