! freq	dB(S11)	phase(S11)	dB(S12)	phase(S12)	
!     	dB(S21)	phase(S21)	dB(S22)	phase(S22)	
!S-par simulation data
#  GHz  S  DB  R 50
0.000000	-86.196569	0.000000	-0.000426	0.000000	-0.000426	0.000000	-86.196569	0.000000
0.050000	-44.353360	-91.239467	-0.004742	-2.498102	-0.004742	-2.498102	-44.348188	-90.730374
0.100000	-38.448405	-94.671337	-0.009437	-4.962222	-0.009437	-4.962222	-38.442824	-93.700713
0.150000	-34.985405	-97.834513	-0.013332	-7.420280	-0.013332	-7.420280	-34.979372	-96.379314
0.200000	-32.539571	-100.829773	-0.017317	-9.875683	-0.017317	-9.875683	-32.533616	-98.883971
0.250000	-30.656545	-103.734890	-0.021559	-12.328182	-0.021559	-12.328182	-30.650856	-101.295522
0.300000	-29.133136	-106.582051	-0.026016	-14.777634	-0.026016	-14.777634	-29.127796	-103.646307
0.350000	-27.860205	-109.391079	-0.030616	-17.224293	-0.030616	-17.224293	-27.855275	-105.955658
0.400000	-26.772592	-112.174649	-0.035305	-19.668546	-0.035305	-19.668546	-26.768135	-108.235387
0.450000	-25.828377	-114.941311	-0.040053	-22.110766	-0.040053	-22.110766	-25.824462	-110.492960
0.500000	-24.999063	-117.697002	-0.044845	-24.551255	-0.044845	-24.551255	-24.995760	-112.733101
0.550000	-24.264431	-120.445953	-0.049675	-26.990231	-0.049675	-26.990231	-24.261804	-114.958741
0.600000	-23.610468	-123.191247	-0.054541	-29.427793	-0.054541	-29.427793	-23.608580	-117.171245
0.650000	-23.024476	-125.935356	-0.059436	-31.864106	-0.059436	-31.864106	-23.023373	-119.372279
0.700000	-22.498168	-128.680125	-0.064355	-34.299203	-0.064355	-34.299203	-22.497893	-121.562116
0.750000	-22.026121	-131.427263	-0.069287	-36.733044	-0.069287	-36.733044	-22.026727	-123.740164
0.800000	-21.600121	-134.177854	-0.074219	-39.165790	-0.074219	-39.165790	-21.601643	-125.907566
0.850000	-21.220080	-136.934070	-0.079129	-41.597267	-0.079129	-41.597267	-21.222584	-128.061905
0.900000	-20.877667	-139.696170	-0.084004	-44.027732	-0.084004	-44.027732	-20.881196	-130.204995
0.950000	-20.574335	-142.466783	-0.088810	-46.457056	-0.088810	-46.457056	-20.578966	-132.333967
1.000000	-20.304297	-145.246224	-0.093532	-48.885456	-0.093532	-48.885456	-20.310097	-134.449852
1.050000	-20.067588	-148.036815	-0.098135	-51.312966	-0.098135	-51.312966	-20.074648	-136.550649
1.100000	-19.862113	-150.840024	-0.102594	-53.739732	-0.102594	-53.739732	-19.870533	-138.635606
1.150000	-19.685641	-153.657170	-0.106888	-56.165939	-0.106888	-56.165939	-19.695528	-140.704161
1.200000	-19.539654	-156.491822	-0.110973	-58.591729	-0.110973	-58.591729	-19.551145	-142.753204
1.250000	-19.419394	-159.343487	-0.114856	-61.017355	-0.114856	-61.017355	-19.432613	-144.784133
1.300000	-19.329912	-162.219108	-0.118465	-63.443058	-0.118465	-63.443058	-19.345042	-146.790555
1.350000	-19.265278	-165.116845	-0.121831	-65.869071	-0.121831	-65.869071	-19.282477	-148.775086
1.400000	-19.229512	-168.043983	-0.124897	-68.295754	-0.124897	-68.295754	-19.248992	-150.731267
1.450000	-19.220084	-171.001510	-0.127675	-70.723346	-0.127675	-70.723346	-19.242061	-152.658750
1.500000	-19.238336	-173.995112	-0.130145	-73.152219	-0.130145	-73.152219	-19.263062	-154.552712
1.550000	-19.285297	-177.030663	-0.132295	-75.582748	-0.132295	-75.582748	-19.313065	-156.408139
1.600000	-19.359488	179.889319	-0.134150	-78.015149	-0.134150	-78.015149	-19.390610	-158.223026
1.650000	-19.465716	176.750793	-0.135670	-80.450090	-0.135670	-80.450090	-19.500594	-159.984784
1.700000	-19.600662	173.554187	-0.136915	-82.887560	-0.136915	-82.887560	-19.639712	-161.693849
1.750000	-19.768776	170.283216	-0.137867	-85.328206	-0.137867	-85.328206	-19.812525	-163.335326
1.800000	-19.970987	166.927431	-0.138555	-87.772323	-0.138555	-87.772323	-20.020047	-164.899402
1.850000	-20.209413	163.471846	-0.139006	-90.220282	-0.139006	-90.220282	-20.264519	-166.371860
1.900000	-20.486910	159.896362	-0.139248	-92.672494	-0.139248	-92.672494	-20.548956	-167.733416
1.950000	-20.806437	156.176730	-0.139320	-95.129320	-0.139320	-95.129320	-20.876522	-168.960450
2.000000	-21.171083	152.284197	-0.139267	-97.591047	-0.139267	-97.591047	-21.250559	-170.024551
2.050000	-21.584785	148.180068	-0.139134	-100.057989	-0.139134	-100.057989	-21.675340	-170.887171
2.100000	-22.051978	143.813793	-0.138976	-102.530438	-0.138976	-102.530438	-22.155747	-171.497425
2.150000	-22.577495	139.118416	-0.138848	-105.008658	-0.138848	-105.008658	-22.697197	-171.787187
2.200000	-23.166264	134.004056	-0.138812	-107.492888	-0.138812	-107.492888	-23.305388	-171.663968
2.250000	-23.822597	128.348712	-0.138932	-109.983333	-0.138932	-109.983333	-23.985609	-171.000627
2.300000	-24.548627	121.985739	-0.139277	-112.480165	-0.139277	-112.480165	-24.741174	-169.620965
2.350000	-25.341099	114.688534	-0.139920	-114.983519	-0.139920	-114.983519	-25.570019	-167.281236
2.400000	-26.185035	106.157202	-0.140934	-117.493492	-0.140934	-117.493492	-26.457720	-163.652237
2.450000	-27.042321	96.024328	-0.142396	-120.010139	-0.142396	-120.010139	-27.364317	-158.321030
2.500000	-27.834726	83.923994	-0.144385	-122.533475	-0.144385	-122.533475	-28.203773	-150.865907
2.550000	-28.421600	69.662664	-0.146994	-125.063613	-0.146994	-125.063613	-28.816783	-141.064176
2.600000	-28.641190	53.749356	-0.150294	-127.600329	-0.150294	-127.600329	-29.019347	-129.522061
2.650000	-28.384737	37.393747	-0.154364	-130.143501	-0.154364	-130.143501	-28.697665	-117.664678
2.700000	-27.683436	22.032880	-0.159283	-132.692959	-0.159283	-132.692959	-27.906676	-107.091983
2.750000	-26.681383	8.575457	-0.165129	-135.248490	-0.165129	-135.248490	-26.820229	-98.698559
2.800000	-25.536512	-2.798609	-0.171980	-137.809832	-0.171980	-137.809832	-25.610374	-92.554561
2.850000	-24.360416	-12.344844	-0.179909	-140.376681	-0.179909	-140.376681	-24.388992	-88.308033
2.900000	-23.214511	-20.441019	-0.188986	-142.948690	-0.188986	-142.948690	-23.212845	-85.527733
2.950000	-22.126675	-27.433005	-0.199280	-145.525469	-0.199280	-145.525469	-22.105092	-83.845101
3.000000	-21.106454	-33.593142	-0.210853	-148.106586	-0.210853	-148.106586	-21.071766	-82.980595
3.050000	-20.154429	-39.124064	-0.223763	-150.691575	-0.223763	-150.691575	-20.111090	-82.730819
3.100000	-19.267212	-44.173873	-0.238063	-153.279932	-0.238063	-153.279932	-19.218150	-82.949096
3.150000	-18.439727	-48.847648	-0.253817	-155.871147	-0.253817	-155.871147	-18.386893	-83.532086
3.200000	-17.666938	-53.227059	-0.271067	-158.464633	-0.271067	-158.464633	-17.611636	-84.399751
3.250000	-16.944076	-57.374443	-0.289832	-161.059770	-0.289832	-161.059770	-16.887185	-85.491007
3.300000	-16.266561	-61.333908	-0.310138	-163.655943	-0.310138	-163.655943	-16.208680	-86.762430
3.350000	-15.630307	-65.139233	-0.332007	-166.252521	-0.332007	-166.252521	-15.571847	-88.180540
3.400000	-15.031706	-68.816583	-0.355450	-168.848859	-0.355450	-168.848859	-14.972949	-89.719147
3.450000	-14.467584	-72.386445	-0.380473	-171.444304	-0.380473	-171.444304	-14.408723	-91.357477
3.500000	-13.935151	-75.865022	-0.407074	-174.038197	-0.407074	-174.038197	-13.876316	-93.078840
3.550000	-13.431948	-79.265245	-0.435243	-176.629876	-0.435243	-176.629876	-13.373223	-94.869659
3.600000	-12.955803	-82.597518	-0.464962	-179.218685	-0.464962	-179.218685	-12.897241	-96.718767
3.650000	-12.504790	-85.870278	-0.496207	178.196025	-0.496207	178.196025	-12.446420	-98.616879
3.700000	-12.077193	-89.090415	-0.528946	175.614893	-0.528946	175.614893	-12.019027	-100.556203
3.750000	-11.671475	-92.263589	-0.563138	173.038541	-0.563138	173.038541	-11.613514	-102.530139
3.800000	-11.286324	-95.393655	-0.598764	170.467704	-0.598764	170.467704	-11.228560	-104.533573
3.850000	-10.920447	-98.485482	-0.635743	167.902858	-0.635743	167.902858	-10.862864	-106.560957
3.900000	-10.572708	-101.542295	-0.674013	165.344557	-0.674013	165.344557	-10.515288	-108.608143
3.950000	-10.242073	-104.566814	-0.713512	162.793326	-0.713512	162.793326	-10.184793	-110.671518
4.000000	-9.927595	-107.561348	-0.754168	160.249659	-0.754168	160.249659	-9.870432	-112.747925
4.050000	-9.628405	-110.527870	-0.795906	157.714016	-0.795906	157.714016	-9.571334	-114.834594
4.100000	-9.343702	-113.468078	-0.838646	155.186823	-0.838646	155.186823	-9.286697	-116.929092
4.150000	-9.072743	-116.383448	-0.882306	152.668466	-0.882306	152.668466	-9.015780	-119.029272
4.200000	-8.814838	-119.275272	-0.926797	150.159294	-0.926797	150.159294	-8.757892	-121.133243
4.250000	-8.569346	-122.144693	-0.972031	147.659618	-0.972031	147.659618	-8.512394	-123.239339
4.300000	-8.335666	-124.992735	-1.017915	145.169707	-1.017915	145.169707	-8.278686	-125.346090
4.350000	-8.113236	-127.820323	-1.064354	142.689789	-1.064354	142.689789	-8.056208	-127.452206
4.400000	-7.901588	-130.628098	-1.111254	140.220165	-1.111254	140.220165	-7.844493	-129.556525
4.450000	-7.700224	-133.416869	-1.158514	137.760984	-1.158514	137.760984	-7.643046	-131.658033
4.500000	-7.508619	-136.187580	-1.206035	135.312240	-1.206035	135.312240	-7.451343	-133.755902
4.550000	-7.326331	-138.940922	-1.253719	132.873995	-1.253719	132.873995	-7.268945	-135.849403
4.600000	-7.152941	-141.677556	-1.301470	130.446273	-1.301470	130.446273	-7.095437	-137.937914
4.650000	-6.988054	-144.398123	-1.349190	128.029061	-1.349190	128.029061	-6.930426	-140.020914
4.700000	-6.831298	-147.103241	-1.396784	125.622306	-1.396784	125.622306	-6.773541	-142.097971
4.750000	-6.682316	-149.793520	-1.444159	123.225921	-1.444159	123.225921	-6.624431	-144.168736
4.800000	-6.540989	-152.468973	-1.491192	120.840219	-1.491192	120.840219	-6.482977	-146.232639
4.850000	-6.406511	-155.131526	-1.537858	118.464055	-1.537858	118.464055	-6.348378	-148.290143
4.900000	-6.278855	-157.781000	-1.584035	116.097797	-1.584035	116.097797	-6.220608	-150.340748
4.950000	-6.157732	-160.417978	-1.629640	113.741227	-1.629640	113.741227	-6.099383	-152.384372
5.000000	-6.042872	-163.043041	-1.674589	111.394100	-1.674589	111.394100	-5.984435	-154.420990
5.050000	-5.934210	-165.656299	-1.718758	109.056526	-1.718758	109.056526	-5.875703	-156.450326
5.100000	-5.831298	-168.258847	-1.762110	106.727792	-1.762110	106.727792	-5.772742	-158.472763
5.150000	-5.733904	-170.851258	-1.804573	104.407572	-1.804573	104.407572	-5.675322	-160.488418
5.200000	-5.641808	-173.434103	-1.846079	102.095522	-1.846079	102.095522	-5.583226	-162.497448
5.250000	-5.554799	-176.007950	-1.886563	99.791273	-1.886563	99.791273	-5.496248	-164.500044
5.300000	-5.472681	-178.573366	-1.925963	97.494443	-1.925963	97.494443	-5.414193	-166.496430
5.350000	-5.395266	178.869089	-1.964222	95.204632	-1.964222	95.204632	-5.336875	-168.486856
5.400000	-5.322375	176.318859	-2.001288	92.921427	-2.001288	92.921427	-5.264120	-170.471603
5.450000	-5.253842	173.775392	-2.037111	90.644401	-2.037111	90.644401	-5.195762	-172.450972
5.500000	-5.189507	171.238145	-2.071646	88.373120	-2.071646	88.373120	-5.131645	-174.425288
5.550000	-5.129220	168.706580	-2.104851	86.107139	-2.104851	86.107139	-5.071621	-176.394896
5.600000	-5.072840	166.180171	-2.136690	83.846007	-2.136690	83.846007	-5.015551	-178.360158
5.650000	-5.020232	163.658397	-2.167129	81.589266	-2.167129	81.589266	-4.963303	179.678547
5.700000	-4.971271	161.140751	-2.196138	79.336457	-2.196138	79.336457	-4.914753	177.720825
5.750000	-4.925839	158.626735	-2.223692	77.087117	-2.223692	77.087117	-4.869785	175.766269
5.800000	-4.883823	156.115866	-2.249768	74.840783	-2.249768	74.840783	-4.828287	173.814460
5.850000	-4.845119	153.607670	-2.274349	72.596990	-2.274349	72.596990	-4.790158	171.864966
5.900000	-4.809628	151.101692	-2.297419	70.355278	-2.297419	70.355278	-4.755300	169.917347
5.950000	-4.777260	148.597489	-2.318966	68.115188	-2.318966	68.115188	-4.723622	167.971153
6.000000	-4.747928	146.094634	-2.338983	65.876263	-2.338983	65.876263	-4.695040	166.025927
6.050000	-4.721552	143.592720	-2.357463	63.638052	-2.357463	63.638052	-4.669475	164.081201
6.100000	-4.698057	141.091354	-2.374406	61.400109	-2.374406	61.400109	-4.646852	162.136504
6.150000	-4.677375	138.590164	-2.389810	59.161993	-2.389810	59.161993	-4.627102	160.191355
6.200000	-4.659442	136.088797	-2.403680	56.923271	-2.403680	56.923271	-4.610163	158.245269
6.250000	-4.644198	133.586919	-2.416020	54.683513	-2.416020	54.683513	-4.595975	156.297754
6.300000	-4.631701	131.084171	-2.426773	52.442217	-2.426773	52.442217	-4.584598	154.348207
6.350000	-4.621788	128.580286	-2.436017	50.199014	-2.436017	50.199014	-4.575865	152.396185
6.400000	-4.614413	126.075001	-2.443765	47.953499	-2.443765	47.953499	-4.569731	150.441181
6.450000	-4.609536	123.568076	-2.450031	45.705273	-2.450031	45.705273	-4.566154	148.482681
6.500000	-4.607121	121.059293	-2.454831	43.453945	-2.454831	43.453945	-4.565098	146.520168
6.550000	-4.607137	118.548461	-2.458185	41.199131	-2.458185	41.199131	-4.566529	144.553116
6.600000	-4.609555	116.035414	-2.460113	38.940452	-2.460113	38.940452	-4.570419	142.580998
6.650000	-4.614353	113.520010	-2.460635	36.677539	-2.460635	36.677539	-4.576741	140.603278
6.700000	-4.621508	111.002136	-2.459776	34.410028	-2.459776	34.410028	-4.585475	138.619415
6.750000	-4.631006	108.481704	-2.457559	32.137559	-2.457559	32.137559	-4.596601	136.628862
6.800000	-4.642832	105.958655	-2.454013	29.859780	-2.454013	29.859780	-4.610104	134.631064
6.850000	-4.656978	103.432957	-2.449163	27.576344	-2.449163	27.576344	-4.625974	132.625461
6.900000	-4.673436	100.904605	-2.443040	25.286908	-2.443040	25.286908	-4.644200	130.611482
6.950000	-4.692205	98.373625	-2.435673	22.991136	-2.435673	22.991136	-4.664777	128.588548
7.000000	-4.713283	95.840070	-2.427093	20.688692	-2.427093	20.688692	-4.687704	126.556071
7.050000	-4.736674	93.304022	-2.417335	18.379247	-2.417335	18.379247	-4.712981	124.513451
7.100000	-4.762384	90.765593	-2.406432	16.062472	-2.406432	16.062472	-4.740612	122.460077
7.150000	-4.790422	88.224923	-2.394420	13.738042	-2.394420	13.738042	-4.770602	120.395322
7.200000	-4.820800	85.682181	-2.381336	11.405633	-2.381336	11.405633	-4.802962	118.318547
7.250000	-4.853531	83.137567	-2.367217	9.064921	-2.367217	9.064921	-4.837703	116.229094
7.300000	-4.888632	80.591307	-2.352105	6.715583	-2.352105	6.715583	-4.874839	114.126286
7.350000	-4.926121	78.043657	-2.336039	4.357294	-2.336039	4.357294	-4.914388	112.009424
7.400000	-4.966019	75.494900	-2.319063	1.989727	-2.319063	1.989727	-4.956369	109.877785
7.450000	-5.008348	72.945346	-2.301221	-0.387450	-2.301221	-0.387450	-5.000803	107.730618
7.500000	-5.053132	70.395332	-2.282560	-2.774573	-2.282560	-2.774573	-5.047712	105.567137
7.550000	-5.100491	67.845235	-2.263094	-5.172451	-2.263094	-5.172451	-5.097220	103.385736
7.600000	-5.150353	65.295463	-2.242912	-7.581006	-2.242912	-7.581006	-5.149254	101.186254
7.650000	-5.202742	62.746426	-2.222068	-10.000606	-2.222068	-10.000606	-5.203842	98.967766
7.700000	-5.257681	60.198553	-2.200617	-12.431636	-2.200617	-12.431636	-5.261010	96.729292
7.750000	-5.315190	57.652290	-2.178619	-14.874498	-2.178619	-14.874498	-5.320784	94.469776
7.800000	-5.375285	55.108094	-2.156137	-17.329623	-2.156137	-17.329623	-5.383190	92.188081
7.850000	-5.437978	52.566427	-2.133240	-19.797470	-2.133240	-19.797470	-5.448249	89.882968
7.900000	-5.503274	50.027750	-2.110000	-22.278540	-2.110000	-22.278540	-5.515980	87.553079
7.950000	-5.571166	47.492516	-2.086498	-24.773379	-2.086498	-24.773379	-5.586393	85.196909
8.000000	-5.641634	44.961153	-2.062823	-27.282593	-2.062823	-27.282593	-5.659492	82.812772
8.050000	-5.714641	42.434049	-2.039072	-29.806863	-2.039072	-29.806863	-5.735269	80.398764
8.100000	-5.790125	39.911527	-2.015359	-32.346965	-2.015359	-32.346965	-5.813698	77.952705
8.150000	-5.867994	37.393814	-1.991810	-34.903791	-1.991810	-34.903791	-5.894731	75.472065
8.200000	-5.948113	34.880994	-1.968576	-37.478381	-1.968576	-37.478381	-5.978295	72.953873
8.250000	-6.030292	32.372942	-1.945836	-40.071971	-1.945836	-40.071971	-6.064273	70.394579
8.300000	-6.114268	29.869230	-1.923808	-42.686040	-1.923808	-42.686040	-6.152500	67.789881
8.350000	-6.199683	27.368894	-1.902683	-45.320939	-1.902683	-45.320939	-6.242705	65.137888
8.400000	-6.286105	24.870787	-1.882876	-47.980693	-1.882876	-47.980693	-6.334658	62.427872
8.450000	-6.372742	22.372117	-1.864995	-50.670031	-1.864995	-50.670031	-6.427864	59.646352
8.500000	-6.458801	19.869224	-1.849379	-53.388639	-1.849379	-53.388639	-6.521708	56.791554
8.550000	-6.542845	17.355257	-1.837090	-56.143716	-1.837090	-56.143716	-6.615285	53.841573
8.600000	-6.623170	14.820602	-1.829275	-58.940645	-1.829275	-58.940645	-6.707479	50.776972
8.650000	-6.697284	12.249159	-1.827773	-61.787501	-1.827773	-61.787501	-6.796735	47.567005
8.700000	-6.762064	9.617132	-1.835118	-64.693319	-1.835118	-64.693319	-6.881228	44.171916
8.750000	-6.812604	6.881313	-1.855954	-67.673522	-1.855954	-67.673522	-6.958394	40.519001
8.800000	-6.840878	3.953028	-1.899647	-70.751767	-1.899647	-70.751767	-7.024903	36.469028
8.850000	-6.838857	0.688865	-1.980940	-73.942146	-1.980940	-73.942146	-7.080122	31.826599
8.900000	-6.799566	-3.175137	-2.127501	-77.236656	-2.127501	-77.236656	-7.131014	26.248540
8.950000	-6.729329	-8.298632	-2.408733	-80.488850	-2.408733	-80.488850	-7.221245	18.913324
9.000000	-6.734708	-15.874622	-2.938013	-82.831689	-2.938013	-82.831689	-7.542216	8.486256
9.050000	-7.330797	-27.219563	-3.637743	-80.900693	-3.637743	-80.900693	-8.849228	-6.063868
9.100000	-9.500096	-36.470192	-3.263839	-74.807253	-3.263839	-74.807253	-12.536880	-14.524055
9.150000	-11.901550	-31.211169	-2.181069	-75.886079	-2.181069	-75.886079	-15.551900	4.598015
9.200000	-12.529772	-21.799681	-1.614218	-80.563418	-1.614218	-80.563418	-14.665671	19.375341
9.250000	-12.423668	-17.188687	-1.372416	-85.127883	-1.372416	-85.127883	-13.666101	21.247857
9.300000	-12.297988	-15.680373	-1.256098	-89.203172	-1.256098	-89.203172	-13.161263	19.236640
9.350000	-12.268417	-15.546313	-1.190964	-92.923470	-1.190964	-92.923470	-12.970545	16.083854
9.400000	-12.330986	-16.005149	-1.149531	-96.407605	-1.149531	-96.407605	-12.976171	12.527872
9.450000	-12.461442	-16.674841	-1.119356	-99.747644	-1.119356	-99.747644	-13.104986	8.804975
9.500000	-12.647430	-17.379036	-1.095898	-102.987298	-1.095898	-102.987298	-13.330148	4.968462
9.550000	-12.871213	-18.022474	-1.076078	-106.170023	-1.076078	-106.170023	-13.622700	1.043820
9.600000	-13.127583	-18.541273	-1.059071	-109.311205	-1.059071	-109.311205	-13.978614	-2.983641
9.650000	-13.410129	-18.886093	-1.044283	-112.425155	-1.044283	-112.425155	-14.393790	-7.133148
9.700000	-13.713493	-18.997728	-1.031547	-115.521311	-1.031547	-115.521311	-14.869592	-11.444448
9.750000	-14.030986	-18.836550	-1.020718	-118.607993	-1.020718	-118.607993	-15.406694	-15.957174
9.800000	-14.356037	-18.377795	-1.011707	-121.690943	-1.011707	-121.690943	-16.007433	-20.713592
9.850000	-14.681492	-17.588537	-1.004572	-124.773913	-1.004572	-124.773913	-16.677565	-25.779830
9.900000	-14.998774	-16.440665	-0.999405	-127.859777	-0.999405	-127.859777	-17.424421	-31.245584
9.950000	-15.297649	-14.914330	-0.996321	-130.950745	-0.996321	-130.950745	-18.256574	-37.235142
10.000000	-15.566221	-13.002632	-0.995451	-134.048524	-0.995451	-134.048524	-19.182946	-43.924019
