! freq	dB(S11)	phase(S11)	dB(S12)	phase(S12)	
!     	dB(S21)	phase(S21)	dB(S22)	phase(S22)	
!S-par simulation data
#  GHz  S  DB  R 50
0.000000	-0.000000	0.000000	-306.760919	0.000000	-306.760919	0.000000	-0.000000	0.000000
0.050000	-0.000822	-1.305914	-112.177668	89.214535	-112.177668	89.214535	-0.000510	-0.770498
0.100000	-0.002791	-2.605863	-106.233205	88.135027	-106.233205	88.135027	-0.001672	-1.536981
0.150000	-0.005096	-3.898919	-102.803254	87.056108	-102.803254	87.056108	-0.002948	-2.299273
0.200000	-0.007265	-5.187102	-100.429730	86.039374	-100.429730	86.039374	-0.004088	-3.058971
0.250000	-0.009224	-6.472906	-98.642880	85.087737	-98.642880	85.087737	-0.005098	-3.817564
0.300000	-0.010991	-7.757342	-97.245030	84.214072	-97.245030	84.214072	-0.006016	-4.575613
0.350000	-0.012628	-9.040976	-96.128974	83.431094	-96.128974	83.431094	-0.006888	-5.333410
0.400000	-0.014185	-10.323983	-95.233126	82.756899	-95.233126	82.756899	-0.007752	-6.091060
0.450000	-0.015698	-11.606269	-94.528015	82.227849	-94.528015	82.227849	-0.008630	-6.848577
0.500000	-0.017192	-12.887765	-93.977378	81.861713	-93.977378	81.861713	-0.009533	-7.605960
0.550000	-0.018681	-14.168309	-93.564663	81.696590	-93.564663	81.696590	-0.010462	-8.363184
0.600000	-0.020172	-15.447727	-93.279260	81.782480	-93.279260	81.782480	-0.011416	-9.120214
0.650000	-0.021669	-16.725846	-93.114746	82.185705	-93.114746	82.185705	-0.012387	-9.877003
0.700000	-0.023173	-18.002499	-93.067611	82.995253	-93.067611	82.995253	-0.013370	-10.633494
0.750000	-0.024685	-19.277421	-93.142830	84.374763	-93.142830	84.374763	-0.014356	-11.389589
0.800000	-0.026207	-20.550454	-93.336260	86.521163	-93.336260	86.521163	-0.015338	-12.145201
0.850000	-0.027737	-21.821493	-93.635418	89.692747	-93.635418	89.692747	-0.016312	-12.900252
0.900000	-0.029273	-23.090564	-94.013916	94.128755	-94.013916	94.128755	-0.017278	-13.654712
0.950000	-0.030816	-24.357433	-94.430804	100.295937	-94.430804	100.295937	-0.018234	-14.408481
1.000000	-0.032364	-25.621993	-94.792922	108.587154	-94.792922	108.587154	-0.019183	-15.161501
1.050000	-0.033917	-26.884141	-94.946710	119.123607	-94.946710	119.123607	-0.020126	-15.913730
1.100000	-0.035473	-28.143786	-94.708027	131.357480	-94.708027	131.357480	-0.021065	-16.665135
1.150000	-0.037031	-29.400842	-93.964957	143.907146	-93.964957	143.907146	-0.022003	-17.415694
1.200000	-0.038591	-30.655229	-92.771364	155.160279	-92.771364	155.160279	-0.022942	-18.165390
1.250000	-0.040151	-31.906874	-91.300601	164.195410	-91.300601	164.195410	-0.023882	-18.914215
1.300000	-0.041711	-33.155582	-89.711432	170.873951	-89.711432	170.873951	-0.024824	-19.662121
1.350000	-0.043269	-34.401409	-88.131204	175.692239	-88.131204	175.692239	-0.025769	-20.409141
1.400000	-0.044825	-35.644295	-86.611290	179.084425	-86.611290	179.084425	-0.026717	-21.155271
1.450000	-0.046378	-36.884182	-85.171278	-178.590517	-85.171278	-178.590517	-0.027667	-21.900505
1.500000	-0.047927	-38.121018	-83.814961	-177.062428	-83.814961	-177.062428	-0.028620	-22.644839
1.550000	-0.049473	-39.354751	-82.539096	-176.134707	-82.539096	-176.134707	-0.029576	-23.388266
1.600000	-0.051015	-40.585334	-81.337717	-175.665285	-81.337717	-175.665285	-0.030533	-24.130781
1.650000	-0.052552	-41.812720	-80.204159	-175.550924	-80.204159	-175.550924	-0.031492	-24.872377
1.700000	-0.054084	-43.036866	-79.131941	-175.715744	-79.131941	-175.715744	-0.032452	-25.613045
1.750000	-0.055611	-44.257730	-78.115116	-176.103199	-78.115116	-176.103199	-0.033414	-26.352779
1.800000	-0.057133	-45.475273	-77.148370	-176.670537	-77.148370	-176.670537	-0.034376	-27.091568
1.850000	-0.058651	-46.689455	-76.227017	-177.384969	-76.227017	-177.384969	-0.035339	-27.829404
1.900000	-0.060164	-47.900243	-75.346948	-178.221002	-75.346948	-178.221002	-0.036303	-28.566277
1.950000	-0.061672	-49.107600	-74.504557	-179.158562	-74.504557	-179.158562	-0.037267	-29.302178
2.000000	-0.063177	-50.311494	-73.696683	179.818352	-73.696683	179.818352	-0.038233	-30.037094
2.050000	-0.064678	-51.511895	-72.920543	178.722634	-72.920543	178.722634	-0.039199	-30.771017
2.100000	-0.066175	-52.708773	-72.173681	177.564780	-72.173681	177.564780	-0.040165	-31.503934
2.150000	-0.067670	-53.902101	-71.453921	176.353420	-71.453921	176.353420	-0.041134	-32.235835
2.200000	-0.069162	-55.091852	-70.759328	175.095708	-70.759328	175.095708	-0.042103	-32.966707
2.250000	-0.070652	-56.278001	-70.088174	173.797625	-70.088174	173.797625	-0.043074	-33.696540
2.300000	-0.072142	-57.460527	-69.438910	172.464209	-69.438910	172.464209	-0.044046	-34.425322
2.350000	-0.073630	-58.639409	-68.810144	171.099734	-68.810144	171.099734	-0.045021	-35.153041
2.400000	-0.075119	-59.814626	-68.200618	169.707846	-68.200618	169.707846	-0.045998	-35.879686
2.450000	-0.076609	-60.986161	-67.609193	168.291682	-67.609193	168.291682	-0.046978	-36.605244
2.500000	-0.078101	-62.153998	-67.034834	166.853947	-67.034834	166.853947	-0.047960	-37.329703
2.550000	-0.079594	-63.317961	-66.475742	165.396255	-66.475742	165.396255	-0.048947	-38.053005
2.600000	-0.081091	-64.478197	-65.932002	163.921557	-65.932002	163.921557	-0.049937	-38.775183
2.650000	-0.082592	-65.634697	-65.402811	162.431623	-65.402811	162.431623	-0.050931	-39.496228
2.700000	-0.084097	-66.787451	-64.887434	160.928014	-64.887434	160.928014	-0.051930	-40.216127
2.750000	-0.085607	-67.936452	-64.385191	159.412113	-64.385191	159.412113	-0.052934	-40.934870
2.800000	-0.087124	-69.081694	-63.895457	157.885148	-63.895457	157.885148	-0.053943	-41.652445
2.850000	-0.088647	-70.223174	-63.417652	156.348214	-63.417652	156.348214	-0.054957	-42.368841
2.900000	-0.090178	-71.360888	-62.951237	154.802294	-62.951237	154.802294	-0.055978	-43.084048
2.950000	-0.091717	-72.494837	-62.495712	153.248265	-62.495712	153.248265	-0.057005	-43.798055
3.000000	-0.093265	-73.625021	-62.050611	151.686922	-62.050611	151.686922	-0.058040	-44.510852
3.050000	-0.094823	-74.751444	-61.615500	150.118980	-61.615500	150.118980	-0.059081	-45.222428
3.100000	-0.096391	-75.874110	-61.189971	148.545085	-61.189971	148.545085	-0.060130	-45.932774
3.150000	-0.097971	-76.993024	-60.773645	146.965825	-60.773645	146.965825	-0.061187	-46.641881
3.200000	-0.099562	-78.108195	-60.366163	145.381734	-60.366163	145.381734	-0.062253	-47.349738
3.250000	-0.101166	-79.219633	-59.967191	143.793299	-59.967191	143.793299	-0.063327	-48.056337
3.300000	-0.102784	-80.327347	-59.576411	142.200965	-59.576411	142.200965	-0.064411	-48.761669
3.350000	-0.104415	-81.431350	-59.193527	140.605138	-59.193527	140.605138	-0.065504	-49.465725
3.400000	-0.106062	-82.531657	-58.818258	139.006191	-58.818258	139.006191	-0.066607	-50.168497
3.450000	-0.107723	-83.628283	-58.450339	137.404467	-58.450339	137.404467	-0.067721	-50.869978
3.500000	-0.109401	-84.721245	-58.089517	135.800280	-58.089517	135.800280	-0.068845	-51.570158
3.550000	-0.111095	-85.810562	-57.735556	134.193921	-57.735556	134.193921	-0.069981	-52.269032
3.600000	-0.112806	-86.896253	-57.388230	132.585656	-57.388230	132.585656	-0.071127	-52.966592
3.650000	-0.114535	-87.978341	-57.047325	130.975734	-57.047325	130.975734	-0.072286	-53.662831
3.700000	-0.116283	-89.056849	-56.712638	129.364382	-56.712638	129.364382	-0.073457	-54.357743
3.750000	-0.118049	-90.131799	-56.383975	127.751812	-56.383975	127.751812	-0.074641	-55.051321
3.800000	-0.119836	-91.203067	-56.060885	126.138184	-56.060885	126.138184	-0.075838	-55.743502
3.850000	-0.121643	-92.270833	-55.743482	124.523731	-55.743482	124.523731	-0.077048	-56.434338
3.900000	-0.123471	-93.335127	-55.431595	122.908621	-55.431595	122.908621	-0.078272	-57.123823
3.950000	-0.125321	-94.395977	-55.125064	121.293009	-55.125064	121.293009	-0.079511	-57.811953
4.000000	-0.127192	-95.453415	-54.823735	119.677039	-54.823735	119.677039	-0.080764	-58.498723
4.050000	-0.129085	-96.507473	-54.527460	118.060847	-54.527460	118.060847	-0.082031	-59.184129
4.100000	-0.131002	-97.558184	-54.236100	116.444558	-54.236100	116.444558	-0.083314	-59.868168
4.150000	-0.132941	-98.605583	-53.949519	114.828289	-53.949519	114.828289	-0.084612	-60.550835
4.200000	-0.134905	-99.649706	-53.667588	113.212149	-53.667588	113.212149	-0.085927	-61.232127
4.250000	-0.136893	-100.690589	-53.390184	111.596241	-53.390184	111.596241	-0.087257	-61.912042
4.300000	-0.138905	-101.728269	-53.117188	109.980660	-53.117188	109.980660	-0.088605	-62.590577
4.350000	-0.140943	-102.762787	-52.848486	108.365494	-52.848486	108.365494	-0.089969	-63.267730
4.400000	-0.143006	-103.794181	-52.583969	106.750828	-52.583969	106.750828	-0.091351	-63.943498
4.450000	-0.145096	-104.822493	-52.323533	105.136738	-52.323533	105.136738	-0.092750	-64.617880
4.500000	-0.147211	-105.847764	-52.067075	103.523298	-52.067075	103.523298	-0.094168	-65.290874
4.550000	-0.149354	-106.870037	-51.814499	101.910576	-51.814499	101.910576	-0.095604	-65.962480
4.600000	-0.151524	-107.889355	-51.565711	100.298635	-51.565711	100.298635	-0.097059	-66.632697
4.650000	-0.153722	-108.905764	-51.320621	98.687536	-51.320621	98.687536	-0.098533	-67.301524
4.700000	-0.155948	-109.919308	-51.079143	97.077334	-51.079143	97.077334	-0.100027	-67.968961
4.750000	-0.158202	-110.930034	-50.841193	95.468082	-50.841193	95.468082	-0.101541	-68.635009
4.800000	-0.160485	-111.937988	-50.606691	93.859829	-50.606691	93.859829	-0.103075	-69.299668
4.850000	-0.162797	-112.943219	-50.375558	92.252621	-50.375558	92.252621	-0.104630	-69.962938
4.900000	-0.165138	-113.945775	-50.147719	90.646501	-50.147719	90.646501	-0.106206	-70.624821
4.950000	-0.167510	-114.945706	-49.923103	89.041510	-49.923103	89.041510	-0.107804	-71.285317
5.000000	-0.169911	-115.943060	-49.701639	87.437685	-49.701639	87.437685	-0.109423	-71.944430
5.050000	-0.172344	-116.937782	-49.483156	85.835117	-49.483156	85.835117	-0.111066	-72.602099
5.100000	-0.174808	-117.930035	-49.267699	84.233787	-49.267699	84.233787	-0.112731	-73.258389
5.150000	-0.177303	-118.919872	-49.055206	82.633726	-49.055206	82.633726	-0.114419	-73.913301
5.200000	-0.179829	-119.907343	-48.845614	81.034964	-48.845614	81.034964	-0.116131	-74.566839
5.250000	-0.182387	-120.892505	-48.638865	79.437529	-48.638865	79.437529	-0.117866	-75.219004
5.300000	-0.184977	-121.875409	-48.434901	77.841445	-48.434901	77.841445	-0.119626	-75.869801
5.350000	-0.187599	-122.856110	-48.233665	76.246737	-48.233665	76.246737	-0.121410	-76.519234
5.400000	-0.190253	-123.834664	-48.035105	74.653428	-48.035105	74.653428	-0.123219	-77.167305
5.450000	-0.192940	-124.811126	-47.839168	73.061539	-47.839168	73.061539	-0.125054	-77.814019
5.500000	-0.195659	-125.785552	-47.645803	71.471090	-47.645803	71.471090	-0.126914	-78.459381
5.550000	-0.198412	-126.757999	-47.454961	69.882100	-47.454961	69.882100	-0.128801	-79.103395
5.600000	-0.201198	-127.728524	-47.266595	68.294587	-47.266595	68.294587	-0.130714	-79.746066
5.650000	-0.204018	-128.697184	-47.080659	66.708566	-47.080659	66.708566	-0.132654	-80.387399
5.700000	-0.206871	-129.664037	-46.897107	65.124054	-46.897107	65.124054	-0.134621	-81.027399
5.750000	-0.209758	-130.629141	-46.715897	63.541066	-46.715897	63.541066	-0.136616	-81.666073
5.800000	-0.212679	-131.592557	-46.536987	61.959614	-46.536987	61.959614	-0.138639	-82.303425
5.850000	-0.215634	-132.554341	-46.360335	60.379713	-46.360335	60.379713	-0.140690	-82.939462
5.900000	-0.218624	-133.514556	-46.185902	58.801374	-46.185902	58.801374	-0.142771	-83.574190
5.950000	-0.221648	-134.473259	-46.013649	57.224608	-46.013649	57.224608	-0.144880	-84.207616
6.000000	-0.224707	-135.430513	-45.843539	55.649427	-45.843539	55.649427	-0.147019	-84.839746
6.050000	-0.227801	-136.386377	-45.675535	54.075840	-45.675535	54.075840	-0.149189	-85.470588
6.100000	-0.230929	-137.340913	-45.509603	52.503856	-45.509603	52.503856	-0.151389	-86.100148
6.150000	-0.234093	-138.294182	-45.345708	50.933485	-45.345708	50.933485	-0.153619	-86.728434
6.200000	-0.237291	-139.246247	-45.183816	49.364735	-45.183816	49.364735	-0.155881	-87.355454
6.250000	-0.240525	-140.197168	-45.023896	47.797614	-45.023896	47.797614	-0.158175	-87.981215
6.300000	-0.243796	-141.146966	-44.865874	46.232199	-44.865874	46.232199	-0.160502	-88.605671
6.350000	-0.247102	-142.095752	-44.709765	44.668427	-44.709765	44.668427	-0.162862	-89.228886
6.400000	-0.250443	-143.043589	-44.555538	43.106305	-44.555538	43.106305	-0.165254	-89.850868
6.450000	-0.253820	-143.990540	-44.403163	41.545837	-44.403163	41.545837	-0.167680	-90.471626
6.500000	-0.257232	-144.936671	-44.252614	39.987030	-44.252614	39.987030	-0.170139	-91.091167
6.550000	-0.260679	-145.882043	-44.103862	38.429888	-44.103862	38.429888	-0.172632	-91.709503
6.600000	-0.264163	-146.826722	-43.956879	36.874415	-43.956879	36.874415	-0.175160	-92.326641
6.650000	-0.267681	-147.770773	-43.811641	35.320616	-43.811641	35.320616	-0.177723	-92.942590
6.700000	-0.271235	-148.714259	-43.668121	33.768494	-43.668121	33.768494	-0.180321	-93.557362
6.750000	-0.274825	-149.657246	-43.526295	32.218053	-43.526295	32.218053	-0.182954	-94.170965
6.800000	-0.278450	-150.599798	-43.386139	30.669297	-43.386139	30.669297	-0.185624	-94.783410
6.850000	-0.282110	-151.541983	-43.247629	29.122227	-43.247629	29.122227	-0.188330	-95.394706
6.900000	-0.285806	-152.483864	-43.110742	27.576846	-43.110742	27.576846	-0.191073	-96.004864
6.950000	-0.289537	-153.425508	-42.975455	26.033156	-42.975455	26.033156	-0.193853	-96.613895
7.000000	-0.293302	-154.366981	-42.841749	24.491159	-42.841749	24.491159	-0.196670	-97.221809
7.050000	-0.297103	-155.308350	-42.709600	22.950856	-42.709600	22.950856	-0.199525	-97.828616
7.100000	-0.300939	-156.249680	-42.578989	21.412249	-42.578989	21.412249	-0.202419	-98.434329
7.150000	-0.304809	-157.191038	-42.449896	19.875338	-42.449896	19.875338	-0.205351	-99.038958
7.200000	-0.308714	-158.132493	-42.322301	18.340124	-42.322301	18.340124	-0.208322	-99.642514
7.250000	-0.312654	-159.074109	-42.196185	16.806607	-42.196185	16.806607	-0.211333	-100.245010
7.300000	-0.316627	-160.015955	-42.071529	15.274787	-42.071529	15.274787	-0.214384	-100.846456
7.350000	-0.320635	-160.958098	-41.948317	13.744664	-41.948317	13.744664	-0.217474	-101.446865
7.400000	-0.324676	-161.900605	-41.826530	12.216238	-41.826530	12.216238	-0.220605	-102.046248
7.450000	-0.328751	-162.843545	-41.706151	10.689507	-41.706151	10.689507	-0.223777	-102.644618
7.500000	-0.332859	-163.786985	-41.587164	9.164471	-41.587164	9.164471	-0.226990	-103.241986
7.550000	-0.337001	-164.731021	-41.469543	7.641201	-41.469543	7.641201	-0.230246	-103.838324
7.600000	-0.341176	-165.675699	-41.353285	6.119623	-41.353285	6.119623	-0.233544	-104.433687
7.650000	-0.345384	-166.621088	-41.238373	4.599735	-41.238373	4.599735	-0.236885	-105.028088
7.700000	-0.349623	-167.567256	-41.124792	3.081535	-41.124792	3.081535	-0.240267	-105.621540
7.750000	-0.353894	-168.514272	-41.012530	1.565020	-41.012530	1.565020	-0.243693	-106.214056
7.800000	-0.358196	-169.462203	-40.901571	0.050189	-40.901571	0.050189	-0.247162	-106.805650
7.850000	-0.362529	-170.411120	-40.791901	-1.462961	-40.791901	-1.462961	-0.250675	-107.396334
7.900000	-0.366892	-171.361091	-40.683509	-2.974433	-40.683509	-2.974433	-0.254231	-107.986122
7.950000	-0.371285	-172.312184	-40.576380	-4.484230	-40.576380	-4.484230	-0.257831	-108.575028
8.000000	-0.375708	-173.264468	-40.470503	-5.992355	-40.470503	-5.992355	-0.261476	-109.163066
8.050000	-0.380159	-174.218013	-40.365866	-7.498810	-40.365866	-7.498810	-0.265165	-109.750249
8.100000	-0.384639	-175.172888	-40.262457	-9.003599	-40.262457	-9.003599	-0.268900	-110.336592
8.150000	-0.389147	-176.129161	-40.160265	-10.506726	-40.160265	-10.506726	-0.272680	-110.922110
8.200000	-0.393682	-177.086902	-40.059279	-12.008194	-40.059279	-12.008194	-0.276505	-111.506816
8.250000	-0.398244	-178.046180	-39.959488	-13.508005	-39.959488	-13.508005	-0.280376	-112.090725
8.300000	-0.402832	-179.007064	-39.860882	-15.006164	-39.860882	-15.006164	-0.284293	-112.673852
8.350000	-0.407446	-179.969624	-39.763453	-16.502674	-39.763453	-16.502674	-0.288257	-113.256212
8.400000	-0.412084	179.066073	-39.667189	-17.997539	-39.667189	-17.997539	-0.292267	-113.837819
8.450000	-0.416746	178.099957	-39.572083	-19.490761	-39.572083	-19.490761	-0.296324	-114.418689
8.500000	-0.421431	177.131958	-39.478125	-20.982344	-39.478125	-20.982344	-0.300428	-114.998838
8.550000	-0.426139	176.162007	-39.385307	-22.472292	-39.385307	-22.472292	-0.304579	-115.578280
8.600000	-0.430868	175.190037	-39.293622	-23.960606	-39.293622	-23.960606	-0.308778	-116.157031
8.650000	-0.435618	174.215978	-39.203061	-25.447291	-39.203061	-25.447291	-0.313024	-116.735107
8.700000	-0.440389	173.239762	-39.113617	-26.932348	-39.113617	-26.932348	-0.317319	-117.312524
8.750000	-0.445178	172.261320	-39.025283	-28.415781	-39.025283	-28.415781	-0.321661	-117.889299
8.800000	-0.449986	171.280480	-38.938062	-29.897521	-38.938062	-29.897521	-0.326053	-118.465420
8.850000	-0.454811	170.297272	-38.851940	-31.377640	-38.851940	-31.377640	-0.330494	-119.040932
8.900000	-0.459652	169.311627	-38.766911	-32.856141	-38.766911	-32.856141	-0.334984	-119.615851
8.950000	-0.464508	168.323479	-38.682968	-34.333023	-38.682968	-34.333023	-0.339522	-120.190195
9.000000	-0.469378	167.332759	-38.600106	-35.808288	-38.600106	-35.808288	-0.344109	-120.763980
9.050000	-0.474260	166.339400	-38.518320	-37.281936	-38.518320	-37.281936	-0.348745	-121.337223
9.100000	-0.479155	165.343335	-38.437606	-38.753967	-38.437606	-38.753967	-0.353430	-121.909942
9.150000	-0.484059	164.344499	-38.357958	-40.224380	-38.357958	-40.224380	-0.358164	-122.482153
9.200000	-0.488973	163.342825	-38.279373	-41.693174	-38.279373	-41.693174	-0.362948	-123.053875
9.250000	-0.493895	162.338246	-38.201846	-43.160346	-38.201846	-43.160346	-0.367781	-123.625124
9.300000	-0.498823	161.330699	-38.125374	-44.625894	-38.125374	-44.625894	-0.372663	-124.195919
9.350000	-0.503757	160.320117	-38.049953	-46.089815	-38.049953	-46.089815	-0.377594	-124.766278
9.400000	-0.508694	159.306437	-37.975581	-47.552105	-37.975581	-47.552105	-0.382575	-125.336218
9.450000	-0.513633	158.289595	-37.902254	-49.012757	-37.902254	-49.012757	-0.387606	-125.905759
9.500000	-0.518574	157.269527	-37.829970	-50.471768	-37.829970	-50.471768	-0.392686	-126.474919
9.550000	-0.523514	156.246171	-37.758727	-51.929129	-37.758727	-51.929129	-0.397816	-127.043716
9.600000	-0.528451	155.219464	-37.688522	-53.384834	-37.688522	-53.384834	-0.402995	-127.612169
9.650000	-0.533385	154.189346	-37.619353	-54.838874	-37.619353	-54.838874	-0.408223	-128.180298
9.700000	-0.538313	153.155756	-37.551220	-56.291239	-37.551220	-56.291239	-0.413501	-128.748121
9.750000	-0.543234	152.118633	-37.484120	-57.741918	-37.484120	-57.741918	-0.418829	-129.315658
9.800000	-0.548146	151.077919	-37.418053	-59.190900	-37.418053	-59.190900	-0.424205	-129.882930
9.850000	-0.553048	150.033556	-37.353016	-60.638171	-37.353016	-60.638171	-0.429631	-130.449954
9.900000	-0.557936	148.985485	-37.289011	-62.083718	-37.289011	-62.083718	-0.435105	-131.016753
9.950000	-0.562811	147.933652	-37.226036	-63.527525	-37.226036	-63.527525	-0.440629	-131.583345
10.000000	-0.567669	146.878000	-37.164090	-64.969575	-37.164090	-64.969575	-0.446201	-132.149751
