! freq	dB(S11)	phase(S11)	dB(S12)	phase(S12)	
!     	dB(S21)	phase(S21)	dB(S22)	phase(S22)	
!S-par simulation data
#  GHz  S  DB  R 50
0.000000	0.000000	0.000000	-296.470819	0.000000	-296.470819	0.000000	-0.000000	0.000000
0.050000	-0.000688	-0.764621	-95.814340	87.312246	-95.814340	87.312246	-0.003538	-4.733894
0.100000	-0.001824	-1.523438	-89.839023	84.633873	-89.839023	84.633873	-0.011189	-9.431559
0.150000	-0.002899	-2.279261	-86.391451	81.973831	-86.391451	81.973831	-0.019067	-14.089677
0.200000	-0.003918	-3.033448	-83.997576	79.341572	-83.997576	79.341572	-0.025944	-18.713990
0.250000	-0.004893	-3.786490	-82.195529	76.745927	-82.195529	76.745927	-0.031964	-23.306229
0.300000	-0.005830	-4.538701	-80.780276	74.192978	-80.780276	74.192978	-0.037485	-27.863905
0.350000	-0.006739	-5.290293	-79.647732	71.672942	-79.647732	71.672942	-0.042745	-32.381822
0.400000	-0.007635	-6.041424	-78.735053	69.003685	-78.735053	69.003685	-0.047872	-36.855939
0.450000	-0.008531	-6.792168	-77.879446	66.533603	-77.879446	66.533603	-0.052908	-41.280015
0.500000	-0.009437	-7.542584	-77.255259	64.589782	-77.255259	64.589782	-0.057857	-45.651427
0.550000	-0.010362	-8.292684	-76.758759	62.527916	-76.758759	62.527916	-0.062694	-49.964386
0.600000	-0.011309	-9.042487	-76.363398	60.553061	-76.363398	60.553061	-0.067394	-54.217421
0.650000	-0.012278	-9.791984	-76.062948	58.717560	-76.062948	58.717560	-0.071924	-58.406266
0.700000	-0.013265	-10.541169	-75.849412	57.050527	-75.849412	57.050527	-0.076259	-62.529731
0.750000	-0.014267	-11.290018	-75.718361	55.585510	-75.718361	55.585510	-0.080376	-66.585424
0.800000	-0.015274	-12.038493	-75.665689	54.359228	-75.665689	54.359228	-0.084261	-70.572168
0.850000	-0.016281	-12.786534	-75.689825	53.423956	-75.689825	53.423956	-0.087899	-74.487639
0.900000	-0.017280	-13.534093	-75.785085	52.823642	-75.785085	52.823642	-0.091298	-78.334264
0.950000	-0.018267	-14.281091	-75.950160	52.633866	-75.950160	52.633866	-0.094454	-82.110639
1.000000	-0.019240	-15.027456	-76.181394	52.943197	-76.181394	52.943197	-0.097373	-85.816975
1.050000	-0.020199	-15.773121	-76.472848	53.862169	-76.472848	53.862169	-0.100064	-89.453780
1.100000	-0.021146	-16.518030	-76.814240	55.525649	-76.814240	55.525649	-0.102537	-93.021818
1.150000	-0.022084	-17.262138	-77.187824	58.090221	-77.187824	58.090221	-0.104807	-96.522087
1.200000	-0.023015	-18.005412	-77.564181	61.719530	-77.564181	61.719530	-0.106888	-99.955781
1.250000	-0.023942	-18.747829	-77.897793	66.546382	-77.897793	66.546382	-0.108794	-103.324267
1.300000	-0.024868	-19.489355	-78.121480	72.623855	-78.121480	72.623855	-0.110538	-106.627708
1.350000	-0.025795	-20.230000	-78.163188	79.739203	-78.163188	79.739203	-0.112140	-109.869157
1.400000	-0.026723	-20.969756	-77.962204	87.447164	-77.962204	87.447164	-0.113614	-113.050346
1.450000	-0.027655	-21.708620	-77.497027	95.124053	-77.497027	95.124053	-0.114975	-116.173078
1.500000	-0.028589	-22.446587	-76.795982	102.169323	-76.795982	102.169323	-0.116236	-119.239212
1.550000	-0.029527	-23.183653	-75.921806	108.187622	-75.921806	108.187622	-0.117412	-122.250648
1.600000	-0.030469	-23.919812	-74.944690	113.036081	-74.944690	113.036081	-0.118514	-125.209307
1.650000	-0.031413	-24.655061	-73.923118	116.758748	-73.923118	116.758748	-0.119554	-128.117124
1.700000	-0.032361	-25.389391	-72.897817	119.493426	-72.897817	119.493426	-0.120542	-130.976036
1.750000	-0.033311	-26.122797	-71.893774	121.403561	-71.893774	121.403561	-0.121487	-133.787968
1.800000	-0.034264	-26.855270	-70.924694	122.642942	-70.924694	122.642942	-0.122400	-136.554831
1.850000	-0.035219	-27.586803	-69.997042	123.342650	-69.997042	123.342650	-0.123287	-139.278512
1.900000	-0.036175	-28.317376	-69.112501	123.605514	-69.112501	123.605514	-0.124157	-141.960440
1.950000	-0.037134	-29.046979	-68.270980	123.518508	-68.270980	123.518508	-0.125015	-144.602500
2.000000	-0.038094	-29.775613	-67.471321	123.152104	-67.471321	123.152104	-0.125868	-147.206924
2.050000	-0.039056	-30.503267	-66.711221	122.558186	-66.711221	122.558186	-0.126720	-149.775457
2.100000	-0.040020	-31.229931	-65.988155	121.777797	-65.988155	121.777797	-0.127578	-152.309799
2.150000	-0.040985	-31.955595	-65.299590	120.843572	-65.299590	120.843572	-0.128444	-154.811608
2.200000	-0.041953	-32.680246	-64.643091	119.781620	-64.643091	119.781620	-0.129322	-157.282495
2.250000	-0.042922	-33.403875	-64.016375	118.612966	-64.016375	118.612966	-0.130216	-159.724027
2.300000	-0.043893	-34.126470	-63.417333	117.354657	-63.417333	117.354657	-0.131129	-162.137725
2.350000	-0.044867	-34.848020	-62.844038	116.020607	-62.844038	116.020607	-0.132062	-164.525063
2.400000	-0.045843	-35.568512	-62.294732	114.622246	-62.294732	114.622246	-0.133018	-166.887472
2.450000	-0.046822	-36.287937	-61.767820	113.169022	-61.767820	113.169022	-0.133999	-169.226338
2.500000	-0.047804	-37.006282	-61.261857	111.668789	-61.261857	111.668789	-0.135006	-171.543002
2.550000	-0.048790	-37.723501	-60.775276	110.126958	-60.775276	110.126958	-0.136042	-173.838117
2.600000	-0.049779	-38.439617	-60.307201	108.550523	-60.307201	108.550523	-0.137107	-176.113669
2.650000	-0.050772	-39.154619	-59.856547	106.944068	-59.856547	106.944068	-0.138201	-178.370870
2.700000	-0.051770	-39.868496	-59.422327	105.311486	-59.422327	105.311486	-0.139326	179.389108
2.750000	-0.052773	-40.581237	-59.003648	103.656102	-59.003648	103.656102	-0.140483	177.165130
2.800000	-0.053780	-41.292832	-58.599695	101.980760	-58.599695	101.980760	-0.141671	174.956099
2.850000	-0.054794	-42.003269	-58.209728	100.287909	-58.209728	100.287909	-0.142891	172.760953
2.900000	-0.055812	-42.712538	-57.833072	98.579660	-57.833072	98.579660	-0.144144	170.578664
2.950000	-0.056838	-43.420630	-57.469111	96.857841	-57.469111	96.857841	-0.145429	168.408239
3.000000	-0.057869	-44.127533	-57.117282	95.124041	-57.117282	95.124041	-0.146747	166.248715
3.050000	-0.058908	-44.833238	-56.777072	93.379644	-56.777072	93.379644	-0.148098	164.099160
3.100000	-0.059954	-45.537735	-56.448010	91.625862	-56.448010	91.625862	-0.149482	161.958673
3.150000	-0.061008	-46.241015	-56.129667	89.863756	-56.129667	89.863756	-0.150899	159.826380
3.200000	-0.062070	-46.943069	-55.821649	88.094263	-55.821649	88.094263	-0.152348	157.701435
3.250000	-0.063141	-47.643887	-55.523597	86.318207	-55.523597	86.318207	-0.153830	155.583018
3.300000	-0.064220	-48.343461	-55.235182	84.536322	-55.235182	84.536322	-0.155344	153.470335
3.350000	-0.065309	-49.041782	-54.956101	82.749259	-54.956101	82.749259	-0.156891	151.362615
3.400000	-0.066408	-49.738843	-54.686080	80.957601	-54.686080	80.957601	-0.158469	149.259112
3.450000	-0.067516	-50.434634	-54.424867	79.161870	-54.424867	79.161870	-0.160079	147.159101
3.500000	-0.068635	-51.129150	-54.172234	77.362539	-54.172234	77.362539	-0.161720	145.061879
3.550000	-0.069765	-51.822382	-53.927970	75.560035	-53.927970	75.560035	-0.163393	142.966765
3.600000	-0.070906	-52.514322	-53.691886	73.754750	-53.691886	73.754750	-0.165096	140.873097
3.650000	-0.072059	-53.204965	-53.463811	71.947041	-53.463811	71.947041	-0.166829	138.780232
3.700000	-0.073224	-53.894304	-53.243587	70.137244	-53.243587	70.137244	-0.168593	136.687545
3.750000	-0.074401	-54.582333	-53.031076	68.325668	-53.031076	68.325668	-0.170386	134.594430
3.800000	-0.075591	-55.268987	-52.826274	66.512557	-52.826274	66.512557	-0.172211	132.500228
3.850000	-0.076795	-55.954319	-52.628968	64.698268	-52.628968	64.698268	-0.174064	130.404385
3.900000	-0.078012	-56.638324	-52.439058	62.883073	-52.439058	62.883073	-0.175946	128.306348
3.950000	-0.079243	-57.320995	-52.256457	61.067237	-52.256457	61.067237	-0.177857	126.205578
4.000000	-0.080488	-58.002330	-52.081089	59.251025	-52.081089	59.251025	-0.179796	124.101549
4.050000	-0.081748	-58.682322	-51.912889	57.434704	-51.912889	57.434704	-0.181764	121.993752
4.100000	-0.083023	-59.360969	-51.751805	55.618543	-51.751805	55.618543	-0.183759	119.881689
4.150000	-0.084314	-60.038266	-51.597794	53.802824	-51.597794	53.802824	-0.185783	117.764876
4.200000	-0.085620	-60.714209	-51.450824	51.987835	-51.450824	51.987835	-0.187834	115.642842
4.250000	-0.086943	-61.388797	-51.310874	50.173881	-51.310874	50.173881	-0.189913	113.515128
4.300000	-0.088282	-62.062025	-51.177933	48.361283	-51.177933	48.361283	-0.192020	111.381283
4.350000	-0.089637	-62.733892	-51.052001	46.550381	-51.052001	46.550381	-0.194156	109.240871
4.400000	-0.091011	-63.404395	-50.933089	44.741537	-50.933089	44.741537	-0.196319	107.093464
4.450000	-0.092402	-64.073531	-50.821219	42.935138	-50.821219	42.935138	-0.198511	104.938643
4.500000	-0.093811	-64.741301	-50.716427	41.131595	-50.716427	41.131595	-0.200732	102.775997
4.550000	-0.095238	-65.407701	-50.618757	39.331351	-50.618757	39.331351	-0.202983	100.605125
4.600000	-0.096684	-66.072731	-50.528270	37.534878	-50.528270	37.534878	-0.205265	98.425631
4.650000	-0.098149	-66.736390	-50.445039	35.742683	-50.445039	35.742683	-0.207578	96.237125
4.700000	-0.099634	-67.398678	-50.369151	33.955307	-50.369151	33.955307	-0.209923	94.039223
4.750000	-0.101139	-68.059595	-50.300710	32.173330	-50.300710	32.173330	-0.212302	91.831543
4.800000	-0.102664	-68.719140	-50.239835	30.397374	-50.239835	30.397374	-0.214717	89.613706
4.850000	-0.104210	-69.377313	-50.186664	28.628102	-50.186664	28.628102	-0.217169	87.385335
4.900000	-0.105777	-70.034117	-50.141354	26.866229	-50.141354	26.866229	-0.219660	85.146050
4.950000	-0.107366	-70.689551	-50.104083	25.112518	-50.104083	25.112518	-0.222192	82.895471
5.000000	-0.108976	-71.343617	-50.075054	23.367793	-50.075054	23.367793	-0.224769	80.633212
5.050000	-0.110609	-71.996257	-50.054871	21.633413	-50.054871	21.633413	-0.227396	78.358335
5.100000	-0.112265	-72.647531	-50.043438	19.909954	-50.043438	19.909954	-0.230075	76.070944
5.150000	-0.113945	-73.297443	-50.041045	18.198465	-50.041045	18.198465	-0.232809	73.770620
5.200000	-0.115647	-73.945995	-50.048014	16.500086	-50.048014	16.500086	-0.235604	71.456930
5.250000	-0.117372	-74.593263	-50.064168	14.815237	-50.064168	14.815237	-0.238461	69.130185
5.300000	-0.119123	-75.239116	-50.090861	13.146675	-50.090861	13.146675	-0.241393	66.788555
5.350000	-0.120897	-75.883617	-50.128137	11.495303	-50.128137	11.495303	-0.244403	64.432124
5.400000	-0.122697	-76.526770	-50.176510	9.862789	-50.176510	9.862789	-0.247501	62.060345
5.450000	-0.124522	-77.168578	-50.236563	8.250996	-50.236563	8.250996	-0.250693	59.672626
5.500000	-0.126373	-77.809045	-50.308957	6.662019	-50.308957	6.662019	-0.253992	57.268328
5.550000	-0.128251	-78.448174	-50.394441	5.098229	-50.394441	5.098229	-0.257408	54.846750
5.600000	-0.130154	-79.085971	-50.493870	3.562333	-50.493870	3.562333	-0.260954	52.407120
5.650000	-0.132089	-79.722253	-50.610252	2.062361	-50.610252	2.062361	-0.264667	49.945774
5.700000	-0.134047	-80.357385	-50.740939	0.593164	-50.740939	0.593164	-0.268525	47.466997
5.750000	-0.136033	-80.991199	-50.889014	-0.836919	-50.889014	-0.836919	-0.272565	44.967256
5.800000	-0.138047	-81.623700	-51.055996	-2.222789	-51.055996	-2.222789	-0.276810	42.445347
5.850000	-0.140090	-82.254894	-51.243661	-3.558320	-51.243661	-3.558320	-0.281286	39.899913
5.900000	-0.142162	-82.884785	-51.454098	-4.836070	-51.454098	-4.836070	-0.286023	37.329413
5.950000	-0.144263	-83.513382	-51.689781	-6.046871	-51.689781	-6.046871	-0.291055	34.732095
6.000000	-0.146393	-84.140688	-51.953663	-7.179273	-51.953663	-7.179273	-0.296424	32.105954
6.050000	-0.148553	-84.766767	-52.248199	-8.223950	-52.248199	-8.223950	-0.302155	29.450204
6.100000	-0.150745	-85.391499	-52.580075	-9.151425	-52.580075	-9.151425	-0.308349	26.758898
6.150000	-0.152968	-86.014961	-52.953304	-9.942284	-52.953304	-9.942284	-0.315050	24.030693
6.200000	-0.155222	-86.637160	-53.374383	-10.563322	-53.374383	-10.563322	-0.322336	21.262012
6.250000	-0.157508	-87.258103	-53.851385	-10.968989	-53.851385	-10.968989	-0.330303	18.448683
6.300000	-0.159828	-87.877770	-54.395270	-11.087030	-54.395270	-11.087030	-0.339085	15.584605
6.350000	-0.162179	-88.496196	-55.017979	-10.826640	-55.017979	-10.826640	-0.348809	12.664915
6.400000	-0.164564	-89.113387	-55.735174	-10.044468	-55.735174	-10.044468	-0.359647	9.682703
6.450000	-0.166983	-89.729352	-56.565544	-8.517634	-56.565544	-8.517634	-0.371813	6.629731
6.500000	-0.169435	-90.344097	-57.528973	-5.887354	-57.528973	-5.887354	-0.385575	3.496117
6.550000	-0.171922	-90.957631	-58.638456	-1.560362	-58.638456	-1.560362	-0.401268	0.269928
6.600000	-0.174444	-91.569961	-59.872635	5.438651	-59.872635	5.438651	-0.419321	-3.063353
6.650000	-0.177001	-92.181093	-61.096951	16.533584	-61.096951	16.533584	-0.440285	-6.521534
6.700000	-0.179593	-92.791036	-61.916316	32.880742	-61.916316	32.880742	-0.464874	-10.126438
6.750000	-0.182222	-93.399789	-61.693584	52.860040	-61.693584	52.860040	-0.494074	-13.906967
6.800000	-0.184887	-94.007369	-60.255882	71.144864	-60.255882	71.144864	-0.529114	-17.896268
6.850000	-0.187589	-94.613781	-58.139351	84.179225	-58.139351	84.179225	-0.571713	-22.138456
6.900000	-0.190328	-95.219014	-55.864621	92.219945	-55.864621	92.219945	-0.624399	-26.695439
6.950000	-0.193104	-95.823071	-53.655955	96.787585	-53.655955	96.787585	-0.690657	-31.645505
7.000000	-0.195917	-96.425966	-51.565868	99.056718	-51.565868	99.056718	-0.775241	-37.086457
7.050000	-0.198766	-97.027691	-49.579860	99.669945	-49.579860	99.669945	-0.885510	-43.161809
7.100000	-0.201650	-97.628234	-47.671558	98.962149	-47.671558	98.962149	-1.032575	-50.072191
7.150000	-0.204564	-98.227598	-45.820953	97.076093	-45.820953	97.076093	-1.232629	-58.085338
7.200000	-0.207504	-98.825770	-44.010019	93.987054	-44.010019	93.987054	-1.511380	-67.605920
7.250000	-0.210460	-99.422745	-42.233843	89.551547	-42.233843	89.551547	-1.908298	-79.233567
7.300000	-0.213416	-100.018552	-40.509696	83.534142	-40.509696	83.534142	-2.480082	-93.861519
7.350000	-0.216352	-100.613299	-38.888697	75.669920	-38.888697	75.669920	-3.291481	-112.804544
7.400000	-0.219255	-101.207221	-37.465827	65.799427	-37.465827	65.799427	-4.353156	-137.927839
7.450000	-0.222136	-101.800676	-36.373400	54.171490	-36.373400	54.171490	-5.415843	-170.881741
7.500000	-0.225057	-102.393918	-35.726693	41.642769	-35.726693	41.642769	-5.810112	150.153627
7.550000	-0.228093	-102.986815	-35.543799	29.491024	-35.543799	29.491024	-5.199321	113.009474
7.600000	-0.231275	-103.578936	-35.726802	18.778509	-35.726802	18.778509	-4.164933	83.536083
7.650000	-0.234583	-104.169927	-36.129571	9.938888	-36.129571	9.938888	-3.236357	61.491377
7.700000	-0.237981	-104.759656	-36.629307	2.904502	-36.629307	2.904502	-2.542483	44.850397
7.750000	-0.241439	-105.348154	-37.147308	-2.628823	-37.147308	-2.628823	-2.049165	31.899598
7.800000	-0.244943	-105.935490	-37.641463	-6.981466	-37.641463	-6.981466	-1.700123	21.509652
7.850000	-0.248485	-106.521748	-38.092910	-10.438812	-38.092910	-10.438812	-1.449362	12.916872
7.900000	-0.252063	-107.106988	-38.494619	-13.215689	-38.494619	-13.215689	-1.265980	5.629269
7.950000	-0.255678	-107.691249	-38.845343	-15.472804	-38.845343	-15.472804	-1.129568	-0.684202
8.000000	-0.259330	-108.274573	-39.147534	-17.336010	-39.147534	-17.336010	-1.026167	-6.262871
8.050000	-0.263019	-108.856991	-39.404762	-18.898853	-39.404762	-18.898853	-0.946521	-11.274452
8.100000	-0.266748	-109.438529	-39.620734	-20.231208	-39.620734	-20.231208	-0.884401	-15.838251
8.150000	-0.270517	-110.019206	-39.799153	-21.386984	-39.799153	-21.386984	-0.835461	-20.042656
8.200000	-0.274327	-110.599042	-39.943545	-22.408272	-39.943545	-22.408272	-0.796608	-23.954309
8.250000	-0.278179	-111.178054	-40.057189	-23.328285	-40.057189	-23.328285	-0.765604	-27.624275
8.300000	-0.282074	-111.756260	-40.143101	-24.173465	-40.143101	-24.173465	-0.740801	-31.092269
8.350000	-0.286015	-112.333625	-40.202616	-24.962754	-40.202616	-24.962754	-0.721212	-34.380511
8.400000	-0.289996	-112.910292	-40.241927	-25.719307	-40.241927	-25.719307	-0.705253	-37.537590
8.450000	-0.294026	-113.486137	-40.259453	-26.451344	-40.259453	-26.451344	-0.692868	-40.559100
8.500000	-0.298098	-114.061280	-40.259907	-27.172455	-40.259907	-27.172455	-0.683082	-43.477593
8.550000	-0.302218	-114.635679	-40.243843	-27.890865	-40.243843	-27.890865	-0.675653	-46.298517
8.600000	-0.306385	-115.209364	-40.213295	-28.613692	-40.213295	-28.613692	-0.670189	-49.034873
8.650000	-0.310596	-115.782379	-40.170360	-29.346281	-40.170360	-29.346281	-0.666342	-51.699111
8.700000	-0.314858	-116.354673	-40.115288	-30.094272	-40.115288	-30.094272	-0.664030	-54.292418
8.750000	-0.319163	-116.926367	-40.051074	-30.858530	-40.051074	-30.858530	-0.662861	-56.831249
8.800000	-0.323522	-117.497340	-39.976807	-31.645787	-39.976807	-31.645787	-0.662928	-59.309485
8.850000	-0.327925	-118.067743	-39.895502	-32.453432	-39.895502	-32.453432	-0.663878	-61.743286
8.900000	-0.332380	-118.637499	-39.806845	-33.286281	-39.806845	-33.286281	-0.665750	-64.129645
8.950000	-0.336881	-119.206681	-39.712423	-34.142844	-39.712423	-34.142844	-0.668373	-66.476542
9.000000	-0.341432	-119.775286	-39.612758	-35.024521	-39.612758	-35.024521	-0.671702	-68.785794
9.050000	-0.346033	-120.343319	-39.508442	-35.931935	-39.508442	-35.931935	-0.675685	-71.059680
9.100000	-0.350682	-120.910841	-39.400523	-36.863043	-39.400523	-36.863043	-0.680219	-73.303389
9.150000	-0.355383	-121.477797	-39.288909	-37.820895	-39.288909	-37.820895	-0.685333	-75.515168
9.200000	-0.360130	-122.044295	-39.174886	-38.800780	-39.174886	-38.800780	-0.690896	-77.702091
9.250000	-0.364932	-122.610258	-39.058126	-39.806740	-39.058126	-39.806740	-0.696964	-79.861010
9.300000	-0.369780	-123.175786	-38.939686	-40.834042	-38.939686	-40.834042	-0.703429	-81.997988
9.350000	-0.374680	-123.740844	-38.819528	-41.884601	-38.819528	-41.884601	-0.710313	-84.111942
9.400000	-0.379630	-124.305478	-38.698152	-42.956385	-38.698152	-42.956385	-0.717569	-86.205585
9.450000	-0.384629	-124.869705	-38.575837	-44.048620	-38.575837	-44.048620	-0.725176	-88.280263
9.500000	-0.389680	-125.433520	-38.452688	-45.161694	-38.452688	-45.161694	-0.733137	-90.336158
9.550000	-0.394779	-125.996987	-38.329196	-46.292567	-38.329196	-46.292567	-0.741397	-92.376440
9.600000	-0.399932	-126.560062	-38.205184	-47.443720	-38.205184	-47.443720	-0.749995	-94.399397
9.650000	-0.405131	-127.122832	-38.081211	-48.610908	-38.081211	-48.610908	-0.758863	-96.409011
9.700000	-0.410385	-127.685259	-37.957108	-49.796417	-37.957108	-49.796417	-0.768036	-98.403773
9.750000	-0.415686	-128.247404	-37.833239	-50.997302	-37.833239	-50.997302	-0.777469	-100.386408
9.800000	-0.421039	-128.809265	-37.709596	-52.214140	-37.709596	-52.214140	-0.787172	-102.356817
9.850000	-0.426442	-129.370868	-37.586310	-53.446012	-37.586310	-53.446012	-0.797133	-104.316055
9.900000	-0.431894	-129.932242	-37.463519	-54.691771	-37.463519	-54.691771	-0.807334	-106.265322
9.950000	-0.437399	-130.493385	-37.341182	-55.952226	-37.341182	-55.952226	-0.817791	-108.204425
10.000000	-0.442950	-131.054351	-37.219541	-57.224781	-37.219541	-57.224781	-0.828463	-110.135503
