! freq	dB(S11)	phase(S11)	dB(S12)	phase(S12)	
!     	dB(S21)	phase(S21)	dB(S22)	phase(S22)	
!S-par simulation data
#  GHz  S  DB  R 50
0.000000	-0.000000	0.000000	-333.067900	0.000000	-333.067900	0.000000	-0.000000	0.000000
0.050000	-0.000158	-1.581707	-76.187966	-168.049865	-76.187966	-168.049865	-0.000094	-1.074376
0.100000	-0.000630	-3.163014	-75.796679	175.843426	-75.796679	175.843426	-0.000375	-2.148561
0.150000	-0.001403	-4.743533	-75.676367	165.830233	-75.676367	165.830233	-0.000836	-3.222369
0.200000	-0.002456	-6.322920	-75.587739	157.569925	-75.587739	157.569925	-0.001468	-4.295632
0.250000	-0.003785	-7.900746	-75.504038	150.209018	-75.504038	150.209018	-0.002271	-5.368143
0.300000	-0.005339	-9.476853	-75.422964	143.384840	-75.422964	143.384840	-0.003216	-6.439820
0.350000	-0.007100	-11.050925	-75.347881	137.019371	-75.347881	137.019371	-0.004297	-7.510505
0.400000	-0.009039	-12.622739	-75.283568	131.057694	-75.283568	131.057694	-0.005498	-8.580084
0.450000	-0.011127	-14.192111	-75.235159	125.470836	-75.235159	125.470836	-0.006805	-9.648458
0.500000	-0.013335	-15.758888	-75.207676	120.241455	-75.207676	120.241455	-0.008201	-10.715547
0.550000	-0.015635	-17.322949	-75.205861	115.358342	-75.205861	115.358342	-0.009673	-11.781285
0.600000	-0.018003	-18.884199	-75.234159	110.814499	-75.234159	110.814499	-0.011205	-12.845620
0.650000	-0.020417	-20.442563	-75.296763	106.606804	-75.296763	106.606804	-0.012785	-13.908511
0.700000	-0.022857	-21.997985	-75.397710	102.736473	-75.397710	102.736473	-0.014400	-14.969927
0.750000	-0.025306	-23.550420	-75.540983	99.210044	-75.540983	99.210044	-0.016040	-16.029847
0.800000	-0.027752	-25.099829	-75.730616	96.040816	-75.730616	96.040816	-0.017694	-17.088254
0.850000	-0.030182	-26.646184	-75.970789	93.250865	-75.970789	93.250865	-0.019356	-18.145135
0.900000	-0.032589	-28.189454	-76.265870	90.873839	-76.265870	90.873839	-0.021017	-19.200482
0.950000	-0.034965	-29.729615	-76.620375	88.958870	-76.620375	88.958870	-0.022673	-20.254286
1.000000	-0.037306	-31.266637	-77.038756	87.576084	-77.038756	87.576084	-0.024319	-21.306540
1.050000	-0.039609	-32.800493	-77.524841	86.824268	-77.524841	86.824268	-0.025950	-22.357238
1.100000	-0.041871	-34.331153	-78.080603	86.841188	-78.080603	86.841188	-0.027564	-23.406371
1.150000	-0.044092	-35.858583	-78.703634	87.816319	-78.703634	87.816319	-0.029160	-24.453930
1.200000	-0.046272	-37.382749	-79.382230	90.002992	-79.382230	90.002992	-0.030736	-25.499903
1.250000	-0.048413	-38.903615	-80.086503	93.719398	-80.086503	93.719398	-0.032290	-26.544278
1.300000	-0.050512	-40.420996	-80.745881	99.399931	-80.745881	99.399931	-0.033823	-27.586970
1.350000	-0.052575	-41.934995	-81.248469	107.157810	-81.248469	107.157810	-0.035334	-28.628031
1.400000	-0.054603	-43.445573	-81.445182	116.706527	-81.445182	116.706527	-0.036825	-29.667444
1.450000	-0.056599	-44.952687	-81.214762	127.089265	-81.214762	127.089265	-0.038295	-30.705187
1.500000	-0.058564	-46.456299	-80.546643	136.992921	-80.546643	136.992921	-0.039747	-31.741241
1.550000	-0.060501	-47.956368	-79.546993	145.409265	-79.546993	145.409265	-0.041180	-32.775582
1.600000	-0.062413	-49.452854	-78.362248	151.957671	-78.362248	151.957671	-0.042597	-33.808187
1.650000	-0.064302	-50.945721	-77.111327	156.737638	-77.111327	156.737638	-0.043997	-34.839032
1.700000	-0.066170	-52.434931	-75.867322	160.053420	-75.867322	160.053420	-0.045383	-35.868091
1.750000	-0.068020	-53.920450	-74.667341	162.231610	-74.667341	162.231610	-0.046755	-36.895338
1.800000	-0.069854	-55.402247	-73.526764	163.548424	-73.526764	163.548424	-0.048115	-37.920748
1.850000	-0.071673	-56.880293	-72.449497	164.216817	-72.449497	164.216817	-0.049464	-38.944293
1.900000	-0.073481	-58.354559	-71.433935	164.395118	-71.433935	164.395118	-0.050804	-39.965948
1.950000	-0.075279	-59.825024	-70.476099	164.199809	-70.476099	164.199809	-0.052135	-40.985686
2.000000	-0.077068	-61.291665	-69.571213	163.716739	-69.571213	163.716739	-0.053459	-42.003481
2.050000	-0.078851	-62.754465	-68.714448	163.009661	-68.714448	163.009661	-0.054777	-43.019306
2.100000	-0.080630	-64.213411	-67.901258	162.126400	-67.901258	162.126400	-0.056090	-44.033137
2.150000	-0.082405	-65.668492	-67.127509	161.103225	-67.127509	161.103225	-0.057399	-45.044949
2.200000	-0.084179	-67.119700	-66.389504	159.967941	-66.389504	159.967941	-0.058706	-46.054716
2.250000	-0.085952	-68.567032	-65.683968	158.742082	-65.683968	158.742082	-0.060011	-47.062416
2.300000	-0.087727	-70.010488	-65.008008	157.442489	-65.008008	157.442489	-0.061316	-48.068024
2.350000	-0.089504	-71.450072	-64.359071	156.082447	-64.359071	156.082447	-0.062621	-49.071519
2.400000	-0.091285	-72.885792	-63.734905	154.672517	-63.734905	154.672517	-0.063927	-50.072880
2.450000	-0.093070	-74.317660	-63.133517	153.221160	-63.133517	153.221160	-0.065235	-51.072085
2.500000	-0.094862	-75.745690	-62.553142	151.735190	-62.553142	151.735190	-0.066546	-52.069116
2.550000	-0.096661	-77.169736	-61.991470	150.219079	-61.991470	150.219079	-0.067862	-53.063856
2.600000	-0.098468	-78.589989	-61.447922	148.678708	-61.447922	148.678708	-0.069182	-54.056385
2.650000	-0.100284	-80.006475	-60.921239	147.117668	-60.921239	147.117668	-0.070508	-55.046684
2.700000	-0.102110	-81.419225	-60.410291	145.538915	-60.410291	145.538915	-0.071840	-56.034738
2.750000	-0.103947	-82.828273	-59.914064	143.944891	-59.914064	143.944891	-0.073179	-57.020534
2.800000	-0.105795	-84.233657	-59.431647	142.337619	-59.431647	142.337619	-0.074526	-58.004058
2.850000	-0.107657	-85.635419	-58.962213	140.718778	-58.962213	140.718778	-0.075881	-58.985298
2.900000	-0.109532	-87.033604	-58.505019	139.089763	-58.505019	139.089763	-0.077246	-59.964242
2.950000	-0.111421	-88.428260	-58.059388	137.451739	-58.059388	137.451739	-0.078620	-60.940881
3.000000	-0.113325	-89.819439	-57.624705	135.805677	-57.624705	135.805677	-0.080005	-61.915206
3.050000	-0.115244	-91.207197	-57.200409	134.152390	-57.200409	134.152390	-0.081400	-62.887210
3.100000	-0.117181	-92.591593	-56.785990	132.492559	-56.785990	132.492559	-0.082808	-63.856885
3.150000	-0.119134	-93.972688	-56.380981	130.826755	-56.380981	130.826755	-0.084227	-64.824227
3.200000	-0.121106	-95.350548	-55.984954	129.155460	-55.984954	129.155460	-0.085659	-65.789231
3.250000	-0.123096	-96.725242	-55.597516	127.479081	-55.597516	127.479081	-0.087105	-66.751894
3.300000	-0.125106	-98.096841	-55.218306	125.797963	-55.218306	125.797963	-0.088565	-67.712214
3.350000	-0.127136	-99.465419	-54.846993	124.112401	-54.846993	124.112401	-0.090039	-68.670189
3.400000	-0.129187	-100.831056	-54.483270	122.422648	-54.483270	122.422648	-0.091528	-69.625821
3.450000	-0.131259	-102.193830	-54.126856	120.728923	-54.126856	120.728923	-0.093032	-70.579109
3.500000	-0.133353	-103.553827	-53.777490	119.031421	-53.777490	119.031421	-0.094553	-71.530057
3.550000	-0.135471	-104.911133	-53.434930	117.330311	-53.434930	117.330311	-0.096090	-72.478669
3.600000	-0.137612	-106.265837	-53.098953	115.625748	-53.098953	115.625748	-0.097645	-73.424947
3.650000	-0.139777	-107.618031	-52.769350	113.917876	-52.769350	113.917876	-0.099217	-74.368898
3.700000	-0.141967	-108.967810	-52.445930	112.206825	-52.445930	112.206825	-0.100807	-75.310528
3.750000	-0.144182	-110.315272	-52.128511	110.492723	-52.128511	110.492723	-0.102416	-76.249845
3.800000	-0.146425	-111.660426	-51.816697	108.775568	-51.816697	108.775568	-0.104045	-77.186758
3.850000	-0.148695	-113.003474	-51.510583	107.055614	-51.510583	107.055614	-0.105693	-78.121376
3.900000	-0.150992	-114.344523	-51.210022	105.332979	-51.210022	105.332979	-0.107362	-79.053711
3.950000	-0.153318	-115.683681	-50.914875	103.607783	-50.914875	103.607783	-0.109052	-79.983774
4.000000	-0.155672	-117.021058	-50.625013	101.880148	-50.625013	101.880148	-0.110762	-80.911577
4.050000	-0.158056	-118.356768	-50.340313	100.150197	-50.340313	100.150197	-0.112494	-81.837134
4.100000	-0.160470	-119.690924	-50.060660	98.418058	-50.060660	98.418058	-0.114249	-82.760460
4.150000	-0.162915	-121.023646	-49.785944	96.683862	-49.785944	96.683862	-0.116026	-83.681570
4.200000	-0.165392	-122.355053	-49.516064	94.947741	-49.516064	94.947741	-0.117826	-84.600480
4.250000	-0.167900	-123.685266	-49.250919	93.209834	-49.250919	93.209834	-0.119649	-85.517207
4.300000	-0.170442	-125.014411	-48.990416	91.470283	-48.990416	91.470283	-0.121497	-86.431769
4.350000	-0.173016	-126.342613	-48.734466	89.729231	-48.734466	89.729231	-0.123369	-87.344186
4.400000	-0.175625	-127.670001	-48.482983	87.986826	-48.482983	87.986826	-0.125266	-88.254476
4.450000	-0.178267	-128.996706	-48.235884	86.243218	-48.235884	86.243218	-0.127189	-89.162660
4.500000	-0.180945	-130.322861	-47.993090	84.498561	-47.993090	84.498561	-0.129137	-90.068760
4.550000	-0.183659	-131.648600	-47.754524	82.753006	-47.754524	82.753006	-0.131112	-90.972797
4.600000	-0.186409	-132.974060	-47.520112	81.006710	-47.520112	81.006710	-0.133114	-91.874795
4.650000	-0.189195	-134.299381	-47.289781	79.259828	-47.289781	79.259828	-0.135144	-92.774777
4.700000	-0.192019	-135.624703	-47.063461	77.512515	-47.063461	77.512515	-0.137201	-93.672767
4.750000	-0.194881	-136.950169	-46.841083	75.764924	-46.841083	75.764924	-0.139286	-94.568792
4.800000	-0.197781	-138.275924	-46.622580	74.017208	-46.622580	74.017208	-0.141401	-95.462876
4.850000	-0.200720	-139.602115	-46.407887	72.269517	-46.407887	72.269517	-0.143544	-96.355047
4.900000	-0.203698	-140.928891	-46.196939	70.521996	-46.196939	70.521996	-0.145717	-97.245332
4.950000	-0.206717	-142.256401	-45.989672	68.774789	-45.989672	68.774789	-0.147921	-98.133758
5.000000	-0.209775	-143.584799	-45.786026	67.028033	-45.786026	67.028033	-0.150155	-99.020356
5.050000	-0.212876	-144.914291	-45.585893	65.281892	-45.585893	65.281892	-0.152422	-99.905076
5.100000	-0.216017	-146.244996	-45.389266	63.536470	-45.389266	63.536470	-0.154720	-100.788030
5.150000	-0.219201	-147.577072	-45.196087	61.791887	-45.196087	61.791887	-0.157050	-101.669248
5.200000	-0.222426	-148.910679	-45.006295	60.048251	-45.006295	60.048251	-0.159413	-102.548762
5.250000	-0.225694	-150.245978	-44.819832	58.305666	-44.819832	58.305666	-0.161810	-103.426604
5.300000	-0.229003	-151.583135	-44.636641	56.564224	-44.636641	56.564224	-0.164239	-104.302806
5.350000	-0.232356	-152.922314	-44.456665	54.824009	-44.456665	54.824009	-0.166703	-105.177403
5.400000	-0.235752	-154.263683	-44.279850	53.085096	-44.279850	53.085096	-0.169200	-106.050428
5.450000	-0.239191	-155.607410	-44.106140	51.347547	-44.106140	51.347547	-0.171733	-106.921917
5.500000	-0.242674	-156.953667	-43.935481	49.611417	-43.935481	49.611417	-0.174301	-107.791905
5.550000	-0.246201	-158.302627	-43.767823	47.876747	-43.767823	47.876747	-0.176905	-108.660428
5.600000	-0.249771	-159.654463	-43.603113	46.143569	-43.603113	46.143569	-0.179545	-109.527522
5.650000	-0.253385	-161.009351	-43.441302	44.411901	-43.441302	44.411901	-0.182222	-110.393225
5.700000	-0.257044	-162.367471	-43.282340	42.681752	-43.282340	42.681752	-0.184936	-111.257576
5.750000	-0.260746	-163.728999	-43.126181	40.953117	-43.126181	40.953117	-0.187687	-112.120612
5.800000	-0.264493	-165.094119	-42.972778	39.225981	-42.972778	39.225981	-0.190477	-112.982373
5.850000	-0.268284	-166.463012	-42.822087	37.500317	-42.822087	37.500317	-0.193304	-113.842899
5.900000	-0.272119	-167.835862	-42.674066	35.776084	-42.674066	35.776084	-0.196171	-114.702230
5.950000	-0.275998	-169.212855	-42.528673	34.053231	-42.528673	34.053231	-0.199077	-115.560407
6.000000	-0.279921	-170.594179	-42.385869	32.331696	-42.385869	32.331696	-0.202023	-116.417473
6.050000	-0.283888	-171.980023	-42.245617	30.611402	-42.245617	30.611402	-0.205009	-117.273470
6.100000	-0.287899	-173.370576	-42.107880	28.892264	-42.107880	28.892264	-0.208035	-118.128441
6.150000	-0.291953	-174.766030	-41.972626	27.174183	-41.972626	27.174183	-0.211103	-118.982430
6.200000	-0.296050	-176.166578	-41.839822	25.457050	-41.839822	25.457050	-0.214211	-119.835482
6.250000	-0.300190	-177.572414	-41.709441	23.740745	-41.709441	23.740745	-0.217362	-120.687642
6.300000	-0.304374	-178.983982	-41.581476	22.025159	-41.581476	22.025159	-0.220557	-121.538921
6.350000	-0.308601	179.598751	-41.455884	20.310112	-41.455884	20.310112	-0.223794	-122.389406
6.400000	-0.312869	178.175588	-41.332644	18.595448	-41.332644	18.595448	-0.227074	-123.239145
6.450000	-0.317179	176.746329	-41.211734	16.881001	-41.211734	16.881001	-0.230398	-124.088185
6.500000	-0.321529	175.310774	-41.093136	15.166593	-41.093136	15.166593	-0.233765	-124.936577
6.550000	-0.325920	173.868723	-40.976837	13.452035	-40.976837	13.452035	-0.237177	-125.784371
6.600000	-0.330350	172.419974	-40.862822	11.737126	-40.862822	11.737126	-0.240634	-126.631619
6.650000	-0.334820	170.964325	-40.751081	10.021653	-40.751081	10.021653	-0.244135	-127.478374
6.700000	-0.339328	169.501572	-40.641606	8.305388	-40.641606	8.305388	-0.247682	-128.324688
6.750000	-0.343875	168.031514	-40.534393	6.588092	-40.534393	6.588092	-0.251275	-129.170618
6.800000	-0.348459	166.553946	-40.429438	4.869509	-40.429438	4.869509	-0.254913	-130.016219
6.850000	-0.353079	165.068664	-40.326741	3.149366	-40.326741	3.149366	-0.258599	-130.861548
6.900000	-0.357736	163.575465	-40.226304	1.427372	-40.226304	1.427372	-0.262331	-131.706665
6.950000	-0.362428	162.074145	-40.128132	-0.296785	-40.128132	-0.296785	-0.266111	-132.551631
7.000000	-0.367154	160.564501	-40.032233	-2.023444	-40.032233	-2.023444	-0.269938	-133.396508
7.050000	-0.371915	159.046331	-39.938617	-3.752970	-39.938617	-3.752970	-0.273814	-134.241361
7.100000	-0.376708	157.519432	-39.847295	-5.485761	-39.847295	-5.485761	-0.277738	-135.086255
7.150000	-0.381534	155.983603	-39.758283	-7.222254	-39.758283	-7.222254	-0.281711	-135.931261
7.200000	-0.386392	154.438644	-39.671599	-8.962934	-39.671599	-8.962934	-0.285734	-136.776451
7.250000	-0.391282	152.884356	-39.587262	-10.708338	-39.587262	-10.708338	-0.289807	-137.621898
7.300000	-0.396201	151.320543	-39.505297	-12.459070	-39.505297	-12.459070	-0.293930	-138.467682
7.350000	-0.401151	149.747008	-39.425728	-14.215812	-39.425728	-14.215812	-0.298105	-139.313885
7.400000	-0.406130	148.163560	-39.348584	-15.979343	-39.348584	-15.979343	-0.302331	-140.160594
7.450000	-0.411138	146.570006	-39.273898	-17.750556	-39.273898	-17.750556	-0.306610	-141.007901
7.500000	-0.416175	144.966159	-39.201705	-19.530484	-39.201705	-19.530484	-0.310943	-141.855907
7.550000	-0.421241	143.351369	-39.132134	-21.320834	-39.132134	-21.320834	-0.315332	-142.704757
7.600000	-0.426336	141.725903	-39.065148	-23.122684	-39.065148	-23.122684	-0.319777	-143.554537
7.650000	-0.431460	140.089582	-39.000799	-24.937763	-39.000799	-24.937763	-0.324280	-144.405377
7.700000	-0.436614	138.442233	-38.939145	-26.768150	-38.939145	-26.768150	-0.328841	-145.257416
7.750000	-0.441797	136.783685	-38.880254	-28.616357	-38.880254	-28.616357	-0.333465	-146.110814
7.800000	-0.447012	135.113774	-38.824205	-30.485452	-38.824205	-30.485452	-0.338153	-146.965748
7.850000	-0.452261	133.432340	-38.771094	-32.379219	-38.771094	-32.379219	-0.342909	-147.822426
7.900000	-0.457545	131.739227	-38.721038	-34.302366	-38.721038	-34.302366	-0.347739	-148.681085
7.950000	-0.462869	130.034286	-38.674185	-36.260826	-38.674185	-36.260826	-0.352649	-149.542007
8.000000	-0.468238	128.317373	-38.630722	-38.262161	-38.630722	-38.262161	-0.357649	-150.405533
8.050000	-0.473657	126.588349	-38.590900	-40.316142	-38.590900	-40.316142	-0.362753	-151.272079
8.100000	-0.479136	124.847084	-38.555056	-42.435596	-38.555056	-42.435596	-0.367979	-152.142163
8.150000	-0.484688	123.093453	-38.523665	-44.637660	-38.523665	-44.637660	-0.373354	-153.016451
8.200000	-0.490328	121.327338	-38.497407	-46.945703	-38.497407	-46.945703	-0.378920	-153.895813
8.250000	-0.496082	119.548632	-38.477306	-49.392361	-38.477306	-49.392361	-0.384742	-154.781417
8.300000	-0.501984	117.757244	-38.464952	-52.024523	-38.464952	-52.024523	-0.390922	-155.674879
8.350000	-0.508058	115.954401	-38.461403	-54.873887	-38.461403	-54.873887	-0.397547	-156.577087
8.400000	-0.514429	114.137506	-38.473324	-58.104893	-38.473324	-58.104893	-0.405033	-157.493690
8.450000	-0.521221	112.307568	-38.508452	-61.882299	-38.508452	-61.882299	-0.413925	-158.429415
8.500000	-0.528636	110.465516	-38.581762	-66.480682	-38.581762	-66.480682	-0.425270	-159.391531
8.550000	-0.537049	108.612483	-38.727063	-72.432199	-38.727063	-72.432199	-0.441380	-160.392361
8.600000	-0.547243	106.751814	-39.041260	-80.995478	-39.041260	-80.995478	-0.468590	-161.453107
8.650000	-0.560330	104.896642	-39.810236	-94.925284	-39.810236	-94.925284	-0.522997	-162.581199
8.700000	-0.575632	103.091068	-42.260694	-122.865509	-42.260694	-122.865509	-0.646910	-163.605225
8.750000	-0.573654	101.374038	-50.720464	140.560473	-50.720464	140.560473	-0.815163	-163.529486
8.800000	-0.547905	99.477783	-42.836348	20.636289	-42.836348	20.636289	-0.731667	-163.003670
8.850000	-0.541433	97.452770	-39.879432	-11.176488	-39.879432	-11.176488	-0.603923	-163.730038
8.900000	-0.545364	95.447421	-38.993312	-26.439075	-38.993312	-26.439075	-0.544710	-164.777544
8.950000	-0.551470	93.457161	-38.644792	-35.456140	-38.644792	-35.456140	-0.519422	-165.819822
9.000000	-0.557839	91.468805	-38.480371	-41.582221	-38.480371	-41.582221	-0.508651	-166.825380
9.050000	-0.564107	89.476080	-38.392528	-46.208534	-38.392528	-46.208534	-0.504557	-167.803514
9.100000	-0.570221	87.475943	-38.345058	-49.903729	-38.345058	-49.903729	-0.504162	-168.762466
9.150000	-0.576199	85.466891	-38.320584	-52.998441	-38.320584	-52.998441	-0.505910	-169.708819
9.200000	-0.582067	83.448192	-38.310652	-55.680934	-38.310652	-55.680934	-0.508996	-170.647026
9.250000	-0.587851	81.419522	-38.310779	-58.065666	-38.310779	-58.065666	-0.512971	-171.580116
9.300000	-0.593572	79.380788	-38.318426	-60.225889	-38.318426	-60.225889	-0.517573	-172.510198
9.350000	-0.599247	77.332040	-38.332084	-62.210427	-38.332084	-62.210427	-0.522634	-173.438786
9.400000	-0.604888	75.273317	-38.350875	-64.051622	-38.350875	-64.051622	-0.528053	-174.367005
9.450000	-0.610504	73.204842	-38.374213	-65.773783	-38.374213	-65.773783	-0.533755	-175.295733
9.500000	-0.616106	71.126991	-38.401705	-67.395223	-38.401705	-67.395223	-0.539689	-176.225631
9.550000	-0.621699	69.040074	-38.433160	-68.928252	-38.433160	-68.928252	-0.545820	-177.157235
9.600000	-0.627288	66.944436	-38.468498	-70.381993	-38.468498	-70.381993	-0.552124	-178.090985
9.650000	-0.632878	64.840454	-38.507729	-71.763242	-38.507729	-71.763242	-0.558583	-179.027258
9.700000	-0.638472	62.728531	-38.550935	-73.077067	-38.550935	-73.077067	-0.565184	-179.966378
9.750000	-0.644074	60.609099	-38.598272	-74.327237	-38.598272	-74.327237	-0.571917	179.091366
9.800000	-0.649685	58.482612	-38.649967	-75.516539	-38.649967	-75.516539	-0.578775	178.145714
9.850000	-0.655307	56.349546	-38.706317	-76.647029	-38.706317	-76.647029	-0.585753	177.196426
9.900000	-0.660943	54.210400	-38.767705	-77.720222	-38.767705	-77.720222	-0.592847	176.243280
9.950000	-0.666591	52.065692	-38.834597	-78.737279	-38.834597	-78.737279	-0.600055	175.286066
10.000000	-0.672254	49.915958	-38.907560	-79.699164	-38.907560	-79.699164	-0.607375	174.324582
