! freq	dB(S11)	phase(S11)	dB(S12)	phase(S12)	
!     	dB(S21)	phase(S21)	dB(S22)	phase(S22)	
!S-par simulation data
#  GHz  S  DB  R 50
0.000000	-0.000000	0.000000	-353.349800	0.000000	-353.349800	0.000000	-0.000000	0.000000
0.050000	-0.003793	-0.827779	-97.830067	88.213339	-97.830067	88.213339	-0.000720	-2.965508
0.100000	-0.005884	-1.627477	-91.845141	86.429616	-91.845141	86.429616	-0.002787	-5.927878
0.150000	-0.006730	-2.427742	-88.380198	84.649865	-88.380198	84.649865	-0.005925	-8.884759
0.200000	-0.007269	-3.229543	-85.963561	82.872594	-85.963561	82.872594	-0.009884	-11.833832
0.250000	-0.007760	-4.032041	-84.130536	81.093584	-84.130536	81.093584	-0.014330	-14.773890
0.300000	-0.008271	-4.834757	-82.672552	79.310923	-82.672552	79.310923	-0.019002	-17.704160
0.350000	-0.008829	-5.637415	-81.478946	77.532743	-81.478946	77.532743	-0.023712	-20.623649
0.400000	-0.009442	-6.439830	-80.482883	75.781647	-80.482883	75.781647	-0.028331	-23.531521
0.450000	-0.010111	-7.241887	-79.640602	74.083799	-79.640602	74.083799	-0.032789	-26.427406
0.500000	-0.010834	-8.043492	-78.925808	72.461069	-78.925808	72.461069	-0.037055	-29.310403
0.550000	-0.011612	-8.844549	-78.322961	70.931421	-78.322961	70.931421	-0.041112	-32.179023
0.600000	-0.012441	-9.645023	-77.815994	69.500215	-77.815994	69.500215	-0.044978	-35.033025
0.650000	-0.013319	-10.444869	-77.394963	68.177096	-77.394963	68.177096	-0.048666	-37.871510
0.700000	-0.014245	-11.244017	-77.054918	66.980203	-77.054918	66.980203	-0.052189	-40.692827
0.750000	-0.015218	-12.042466	-76.787518	65.921712	-76.787518	65.921712	-0.055570	-43.496714
0.800000	-0.016240	-12.840193	-76.588813	65.024373	-76.588813	65.024373	-0.058826	-46.282141
0.850000	-0.017315	-13.637184	-76.457242	64.322441	-76.457242	64.322441	-0.061967	-49.047630
0.900000	-0.018443	-14.433527	-76.386334	63.838552	-76.386334	63.838552	-0.065015	-51.793543
0.950000	-0.019629	-15.229309	-76.374878	63.618160	-76.374878	63.618160	-0.067975	-54.518764
1.000000	-0.020865	-16.024710	-76.420171	63.711867	-76.420171	63.711867	-0.070859	-57.222685
1.050000	-0.022117	-16.819951	-76.518900	64.181495	-76.518900	64.181495	-0.073671	-59.904761
1.100000	-0.023321	-17.615125	-76.666371	65.101832	-76.666371	65.101832	-0.076418	-62.564517
1.150000	-0.024394	-18.409946	-76.855407	66.561585	-76.855407	66.561585	-0.079105	-65.201540
1.200000	-0.025309	-19.203748	-77.074791	68.662126	-77.074791	68.662126	-0.081733	-67.815484
1.250000	-0.026120	-19.995961	-77.307232	71.511429	-77.307232	71.511429	-0.084305	-70.406064
1.300000	-0.026908	-20.786439	-77.525878	75.229066	-77.525878	75.229066	-0.086822	-72.972537
1.350000	-0.027727	-21.575429	-77.694284	79.856638	-77.694284	79.856638	-0.089287	-75.515250
1.400000	-0.028589	-22.363167	-77.767305	85.366688	-77.767305	85.366688	-0.091699	-78.034093
1.450000	-0.029493	-23.149812	-77.697301	91.600804	-77.697301	91.600804	-0.094060	-80.529011
1.500000	-0.030429	-23.935453	-77.446226	98.254284	-77.446226	98.254284	-0.096370	-82.999997
1.550000	-0.031390	-24.720127	-76.998825	104.922043	-76.998825	104.922043	-0.098629	-85.447091
1.600000	-0.032367	-25.503845	-76.368525	111.198479	-76.368525	111.198479	-0.100839	-87.870377
1.650000	-0.033357	-26.286604	-75.591551	116.777243	-75.591551	116.777243	-0.102999	-90.269979
1.700000	-0.034355	-27.068393	-74.713770	121.497292	-74.713770	121.497292	-0.105110	-92.646060
1.750000	-0.035360	-27.849199	-73.778604	125.328334	-73.778604	125.328334	-0.107174	-94.998817
1.800000	-0.036368	-28.629005	-72.820601	128.325903	-72.820601	128.325903	-0.109191	-97.328481
1.850000	-0.037379	-29.407796	-71.864178	130.586870	-71.864178	130.586870	-0.111162	-99.635310
1.900000	-0.038393	-30.185542	-70.924319	132.213211	-70.924319	132.213211	-0.113088	-101.919350
1.950000	-0.039408	-30.962228	-70.010735	133.309915	-70.010735	133.309915	-0.114971	-104.180923
2.000000	-0.040425	-31.737849	-69.129174	133.972268	-69.129174	133.972268	-0.116813	-106.420610
2.050000	-0.041444	-32.512387	-68.281671	134.274729	-68.281671	134.274729	-0.118615	-108.638766
2.100000	-0.042463	-33.285827	-67.468549	134.278769	-67.468549	134.278769	-0.120379	-110.835761
2.150000	-0.043484	-34.058154	-66.689114	134.034661	-66.689114	134.034661	-0.122107	-113.011984
2.200000	-0.044507	-34.829352	-65.942099	133.583385	-65.942099	133.583385	-0.123802	-115.167835
2.250000	-0.045532	-35.599406	-65.225948	132.958360	-65.225948	132.958360	-0.125466	-117.303729
2.300000	-0.046559	-36.368300	-64.538982	132.186910	-64.538982	132.186910	-0.127101	-119.420086
2.350000	-0.047588	-37.136020	-63.879511	131.291468	-63.879511	131.291468	-0.128709	-121.517340
2.400000	-0.048621	-37.902552	-63.245884	130.290541	-63.245884	130.290541	-0.130293	-123.595926
2.450000	-0.049656	-38.667881	-62.636532	129.199474	-62.636532	129.199474	-0.131856	-125.656291
2.500000	-0.050695	-39.431994	-62.049976	128.031061	-62.049976	128.031061	-0.133399	-127.698880
2.550000	-0.051738	-40.194849	-61.484507	126.794790	-61.484507	126.794790	-0.134926	-129.723780
2.600000	-0.052786	-40.956459	-60.939236	125.501280	-60.939236	125.501280	-0.136439	-131.731830
2.650000	-0.053837	-41.716812	-60.412972	124.158108	-60.412972	124.158108	-0.137940	-133.723485
2.700000	-0.054894	-42.475895	-59.904620	122.771732	-59.904620	122.771732	-0.139432	-135.699198
2.750000	-0.055957	-43.233694	-59.413168	121.347683	-59.413168	121.347683	-0.140918	-137.659423
2.800000	-0.057025	-43.990199	-58.937686	119.890716	-58.937686	119.890716	-0.142399	-139.604611
2.850000	-0.058100	-44.745396	-58.477315	118.404939	-58.477315	118.404939	-0.143879	-141.535213
2.900000	-0.059181	-45.499275	-58.031266	116.893915	-58.031266	116.893915	-0.145359	-143.451676
2.950000	-0.060269	-46.251825	-57.598806	115.360747	-57.598806	115.360747	-0.146842	-145.354443
3.000000	-0.061365	-47.003034	-57.179260	113.808145	-57.179260	113.808145	-0.148329	-147.243954
3.050000	-0.062468	-47.752892	-56.772004	112.238488	-56.772004	112.238488	-0.149823	-149.120644
3.100000	-0.063579	-48.501390	-56.376457	110.653869	-56.376457	110.653869	-0.151325	-150.984945
3.150000	-0.064700	-49.248502	-55.992019	109.056012	-55.992019	109.056012	-0.152838	-152.837157
3.200000	-0.065829	-49.994218	-55.618204	107.446603	-55.618204	107.446603	-0.154364	-154.677716
3.250000	-0.066967	-50.738545	-55.254614	105.827230	-55.254614	105.827230	-0.155903	-156.507166
3.300000	-0.068116	-51.481475	-54.900814	104.199178	-54.900814	104.199178	-0.157457	-158.325917
3.350000	-0.069274	-52.222998	-54.556397	102.563601	-54.556397	102.563601	-0.159027	-160.134372
3.400000	-0.070444	-52.963107	-54.220986	100.921531	-54.220986	100.921531	-0.160616	-161.932928
3.450000	-0.071624	-53.701795	-53.894224	99.273897	-53.894224	99.273897	-0.162223	-163.721976
3.500000	-0.072815	-54.439055	-53.575781	97.621538	-53.575781	97.621538	-0.163850	-165.501900
3.550000	-0.074018	-55.174879	-53.265343	95.965212	-53.265343	95.965212	-0.165498	-167.273080
3.600000	-0.075234	-55.909262	-52.962619	94.305607	-52.962619	94.305607	-0.167167	-169.035886
3.650000	-0.076462	-56.642198	-52.667335	92.643347	-52.667335	92.643347	-0.168859	-170.790685
3.700000	-0.077702	-57.373682	-52.379230	90.979002	-52.379230	90.979002	-0.170573	-172.537835
3.750000	-0.078956	-58.103707	-52.098062	89.313095	-52.098062	89.313095	-0.172311	-174.277687
3.800000	-0.080225	-58.832239	-51.823557	87.646090	-51.823557	87.646090	-0.174072	-176.010445
3.850000	-0.081507	-59.559303	-51.555551	85.978457	-51.555551	85.978457	-0.175858	-177.736605
3.900000	-0.082804	-60.284896	-51.293837	84.310599	-51.293837	84.310599	-0.177667	-179.456500
3.950000	-0.084115	-61.009015	-51.038220	82.642890	-51.038220	82.642890	-0.179500	178.829547
4.000000	-0.085443	-61.731656	-50.788517	80.975674	-50.788517	80.975674	-0.181358	177.121215
4.050000	-0.086785	-62.452817	-50.544552	79.309274	-50.544552	79.309274	-0.183238	175.418193
4.100000	-0.088144	-63.172495	-50.306162	77.643990	-50.306162	77.643990	-0.185143	173.720176
4.150000	-0.089520	-63.890687	-50.073187	75.980102	-50.073187	75.980102	-0.187070	172.026865
4.200000	-0.090913	-64.607394	-49.845480	74.317874	-49.845480	74.317874	-0.189021	170.337967
4.250000	-0.092323	-65.322612	-49.622898	72.657556	-49.622898	72.657556	-0.190993	168.653197
4.300000	-0.093750	-66.036342	-49.405306	70.999382	-49.405306	70.999382	-0.192987	166.972274
4.350000	-0.095196	-66.748583	-49.192577	69.343576	-49.192577	69.343576	-0.195003	165.294927
4.400000	-0.096664	-67.459123	-48.984554	67.690744	-48.984554	67.690744	-0.197041	163.621318
4.450000	-0.098147	-68.168368	-48.781202	66.040361	-48.781202	66.040361	-0.199097	161.950321
4.500000	-0.099651	-68.876125	-48.582364	64.392960	-48.582364	64.392960	-0.201172	160.282114
4.550000	-0.101174	-69.582394	-48.387934	62.748728	-48.387934	62.748728	-0.203265	158.616450
4.600000	-0.102718	-70.287176	-48.197811	61.107846	-48.197811	61.107846	-0.205374	156.953088
4.650000	-0.104282	-70.990473	-48.011898	59.470492	-48.011898	59.470492	-0.207501	155.291795
4.700000	-0.105867	-71.692286	-47.830103	57.836837	-47.830103	57.836837	-0.209643	153.632341
4.750000	-0.107474	-72.392619	-47.652338	56.207051	-47.652338	56.207051	-0.211799	151.974505
4.800000	-0.109103	-73.091474	-47.478517	54.581300	-47.478517	54.581300	-0.213969	150.318071
4.850000	-0.110754	-73.788853	-47.308561	52.959748	-47.308561	52.959748	-0.216151	148.662831
4.900000	-0.112428	-74.484760	-47.142392	51.342558	-47.142392	51.342558	-0.218345	147.008582
4.950000	-0.114125	-75.179199	-46.979936	49.729894	-46.979936	49.729894	-0.220550	145.355127
5.000000	-0.115846	-75.872173	-46.821122	48.121917	-46.821122	48.121917	-0.222764	143.702276
5.050000	-0.117592	-76.563624	-46.665917	46.519012	-46.665917	46.519012	-0.224988	142.049855
5.100000	-0.119362	-77.253619	-46.514226	44.921140	-46.514226	44.921140	-0.227218	140.397662
5.150000	-0.121158	-77.942165	-46.365986	43.328468	-46.365986	43.328468	-0.229456	138.745526
5.200000	-0.122978	-78.629265	-46.221136	41.741168	-46.221136	41.741168	-0.231699	137.093284
5.250000	-0.124825	-79.314926	-46.079618	40.159415	-46.079618	40.159415	-0.233948	135.440779
5.300000	-0.126697	-79.999153	-45.941375	38.583386	-45.941375	38.583386	-0.236200	133.787860
5.350000	-0.128597	-80.681953	-45.806354	37.013265	-45.806354	37.013265	-0.238456	132.134382
5.400000	-0.130523	-81.363331	-45.674503	35.449241	-45.674503	35.449241	-0.240714	130.480208
5.450000	-0.132477	-82.043296	-45.545769	33.891507	-45.545769	33.891507	-0.242974	128.825208
5.500000	-0.134458	-82.721854	-45.420104	32.340265	-45.420104	32.340265	-0.245235	127.169255
5.550000	-0.136468	-83.399011	-45.297461	30.795721	-45.297461	30.795721	-0.247496	125.512234
5.600000	-0.138506	-84.074777	-45.177792	29.258091	-45.177792	29.258091	-0.249758	123.854031
5.650000	-0.140574	-84.749159	-45.061051	27.727599	-45.061051	27.727599	-0.252019	122.194544
5.700000	-0.142671	-85.422165	-44.947194	26.204474	-44.947194	26.204474	-0.254279	120.533673
5.750000	-0.144798	-86.093803	-44.836177	24.688957	-44.836177	24.688957	-0.256537	118.871328
5.800000	-0.146955	-86.764082	-44.727955	23.181297	-44.727955	23.181297	-0.258795	117.207425
5.850000	-0.149143	-87.433012	-44.622486	21.681752	-44.622486	21.681752	-0.261050	115.541885
5.900000	-0.151362	-88.100602	-44.519726	20.190592	-44.519726	20.190592	-0.263304	113.874639
5.950000	-0.153613	-88.766861	-44.419632	18.708095	-44.419632	18.708095	-0.265556	112.205623
6.000000	-0.155896	-89.431798	-44.322160	17.234550	-44.322160	17.234550	-0.267806	110.534779
6.050000	-0.158211	-90.095426	-44.227265	15.770255	-44.227265	15.770255	-0.270054	108.862058
6.100000	-0.160559	-90.757752	-44.134904	14.315520	-44.134904	14.315520	-0.272302	107.187417
6.150000	-0.162940	-91.418789	-44.045029	12.870665	-44.045029	12.870665	-0.274548	105.510818
6.200000	-0.165354	-92.078547	-43.957594	11.436021	-43.957594	11.436021	-0.276794	103.832234
6.250000	-0.167803	-92.737036	-43.872551	10.011927	-43.872551	10.011927	-0.279040	102.151641
6.300000	-0.170287	-93.394229	-43.789898	8.599104	-43.789898	8.599104	-0.281286	100.468957
6.350000	-0.172806	-94.050178	-43.709533	7.197565	-43.709533	7.197565	-0.283535	98.784239
6.400000	-0.175360	-94.704894	-43.631402	5.807678	-43.631402	5.807678	-0.285785	97.097488
6.450000	-0.177950	-95.358391	-43.555446	4.429820	-43.555446	4.429820	-0.288039	95.408707
6.500000	-0.180576	-96.010679	-43.481606	3.064372	-43.481606	3.064372	-0.290298	93.717910
6.550000	-0.183238	-96.661773	-43.409820	1.711725	-43.409820	1.711725	-0.292562	92.025115
6.600000	-0.185937	-97.311684	-43.340020	0.372269	-43.340020	0.372269	-0.294833	90.330347
6.650000	-0.188673	-97.960425	-43.272137	-0.953598	-43.272137	-0.953598	-0.297112	88.633639
6.700000	-0.191446	-98.608011	-43.206099	-2.265479	-43.206099	-2.265479	-0.299402	86.935029
6.750000	-0.194258	-99.254454	-43.141827	-3.562977	-43.141827	-3.562977	-0.301702	85.234561
6.800000	-0.197108	-99.899768	-43.079241	-4.845697	-43.079241	-4.845697	-0.304016	83.532287
6.850000	-0.199996	-100.543967	-43.018255	-6.113248	-43.018255	-6.113248	-0.306345	81.828263
6.900000	-0.202924	-101.187053	-42.958790	-7.365072	-42.958790	-7.365072	-0.308691	80.122534
6.950000	-0.205892	-101.829042	-42.900750	-8.600780	-42.900750	-8.600780	-0.311057	78.415173
7.000000	-0.208900	-102.469959	-42.844021	-9.820179	-42.844021	-9.820179	-0.313443	76.706271
7.050000	-0.211948	-103.109821	-42.788501	-11.022921	-42.788501	-11.022921	-0.315853	74.995910
7.100000	-0.215037	-103.748640	-42.734079	-12.208672	-42.734079	-12.208672	-0.318289	73.284174
7.150000	-0.218166	-104.386434	-42.680642	-13.377124	-42.680642	-13.377124	-0.320753	71.571154
7.200000	-0.221337	-105.023217	-42.628070	-14.527987	-42.628070	-14.527987	-0.323248	69.856946
7.250000	-0.224550	-105.659005	-42.576239	-15.661002	-42.576239	-15.661002	-0.325776	68.141649
7.300000	-0.227806	-106.293773	-42.525028	-16.775138	-42.525028	-16.775138	-0.328342	66.425332
7.350000	-0.231103	-106.927629	-42.474286	-17.871988	-42.474286	-17.871988	-0.330946	64.708189
7.400000	-0.234442	-107.560539	-42.423890	-18.950401	-42.423890	-18.950401	-0.333591	62.990281
7.450000	-0.237825	-108.192518	-42.373700	-20.010254	-42.373700	-20.010254	-0.336281	61.271724
7.500000	-0.241251	-108.823582	-42.323572	-21.051464	-42.323572	-21.051464	-0.339019	59.552637
7.550000	-0.244723	-109.453711	-42.273334	-22.073183	-42.273334	-22.073183	-0.341811	57.833132
7.600000	-0.248239	-110.082962	-42.222845	-23.076239	-42.222845	-23.076239	-0.344658	56.113357
7.650000	-0.251800	-110.711351	-42.171951	-24.060701	-42.171951	-24.060701	-0.347564	54.393441
7.700000	-0.255405	-111.338896	-42.120499	-25.026691	-42.120499	-25.026691	-0.350532	52.673515
7.750000	-0.259056	-111.965615	-42.068330	-25.974386	-42.068330	-25.974386	-0.353566	50.953710
7.800000	-0.262752	-112.591525	-42.015289	-26.904018	-42.015289	-26.904018	-0.356669	49.234162
7.850000	-0.266495	-113.216645	-41.961218	-27.815878	-41.961218	-27.815878	-0.359847	47.515006
7.900000	-0.270283	-113.840993	-41.905962	-28.710314	-41.905962	-28.710314	-0.363102	45.796378
7.950000	-0.274119	-114.464587	-41.849366	-29.587734	-41.849366	-29.587734	-0.366439	44.078415
8.000000	-0.278001	-115.087446	-41.791276	-30.448603	-41.791276	-30.448603	-0.369862	42.361254
8.050000	-0.281930	-115.709588	-41.731545	-31.293443	-41.731545	-31.293443	-0.373377	40.645033
8.100000	-0.285907	-116.331034	-41.670024	-32.122833	-41.670024	-32.122833	-0.376987	38.929889
8.150000	-0.289932	-116.951801	-41.606573	-32.937408	-41.606573	-32.937408	-0.380698	37.215958
8.200000	-0.294006	-117.571909	-41.541053	-33.737854	-41.541053	-33.737854	-0.384514	35.503375
8.250000	-0.298127	-118.191379	-41.473333	-34.524907	-41.473333	-34.524907	-0.388441	33.792275
8.300000	-0.302298	-118.810229	-41.403286	-35.299350	-41.403286	-35.299350	-0.392484	32.082790
8.350000	-0.306518	-119.428479	-41.330794	-36.062010	-41.330794	-36.062010	-0.396649	30.375051
8.400000	-0.310787	-120.046150	-41.255743	-36.813755	-41.255743	-36.813755	-0.400941	28.669187
8.450000	-0.315107	-120.663262	-41.178028	-37.555487	-41.178028	-37.555487	-0.405368	26.965323
8.500000	-0.319476	-121.279836	-41.097552	-38.288140	-41.097552	-38.288140	-0.409935	25.263583
8.550000	-0.323894	-121.895913	-41.014390	-39.012970	-41.014390	-39.012970	-0.414642	23.563983
8.600000	-0.328365	-122.511467	-40.928091	-39.730266	-40.928091	-39.730266	-0.419511	21.866872
8.650000	-0.332887	-123.126544	-40.838781	-40.441455	-40.838781	-40.441455	-0.424542	20.172239
8.700000	-0.337460	-123.741168	-40.746393	-41.147553	-40.746393	-41.147553	-0.429742	18.480194
8.750000	-0.342085	-124.355360	-40.650870	-41.849588	-40.650870	-41.849588	-0.435120	16.790845
8.800000	-0.346762	-124.969132	-40.552066	-42.548547	-40.552066	-42.548547	-0.440687	15.104355
8.850000	-0.351492	-125.582516	-40.450028	-43.245551	-40.450028	-43.245551	-0.446449	13.420765
8.900000	-0.356275	-126.195535	-40.344720	-43.941630	-40.344720	-43.941630	-0.452415	11.740168
8.950000	-0.361110	-126.808210	-40.236113	-44.637807	-40.236113	-44.637807	-0.458596	10.062653
9.000000	-0.365998	-127.420564	-40.124184	-45.335095	-40.124184	-45.335095	-0.465000	8.388304
9.050000	-0.370939	-128.032620	-40.008917	-46.034496	-40.008917	-46.034496	-0.471640	6.717202
9.100000	-0.375934	-128.644400	-39.890299	-46.737000	-39.890299	-46.737000	-0.478527	5.049422
9.150000	-0.380983	-129.255928	-39.768324	-47.443581	-39.768324	-47.443581	-0.485671	3.385034
9.200000	-0.386085	-129.867227	-39.642987	-48.155196	-39.642987	-48.155196	-0.493087	1.724105
9.250000	-0.391242	-130.478320	-39.514291	-48.872787	-39.514291	-48.872787	-0.500787	0.066696
9.300000	-0.396453	-131.089232	-39.382237	-49.597279	-39.382237	-49.597279	-0.508785	-1.587137
9.350000	-0.401719	-131.699985	-39.246833	-50.329583	-39.246833	-50.329583	-0.517096	-3.237341
9.400000	-0.407047	-132.310590	-39.107291	-51.071953	-39.107291	-51.071953	-0.525782	-4.883341
9.450000	-0.412424	-132.921103	-38.965131	-51.822792	-38.965131	-51.822792	-0.534771	-6.526101
9.500000	-0.417856	-133.531532	-38.819643	-52.584106	-38.819643	-52.584106	-0.544121	-8.165100
9.550000	-0.423344	-134.141901	-38.670837	-53.356755	-38.670837	-53.356755	-0.553849	-9.800303
9.600000	-0.428888	-134.752236	-38.518723	-54.141595	-38.518723	-54.141595	-0.563976	-11.431678
9.650000	-0.434487	-135.362561	-38.363308	-54.939476	-38.363308	-54.939476	-0.574519	-13.059196
9.700000	-0.440143	-135.972903	-38.204602	-55.751252	-38.204602	-55.751252	-0.585499	-14.682832
9.750000	-0.445855	-136.583286	-38.042611	-56.577780	-38.042611	-56.577780	-0.596938	-16.302562
9.800000	-0.451624	-137.193737	-37.877340	-57.419925	-37.877340	-57.419925	-0.608857	-17.918367
9.850000	-0.457449	-137.804282	-37.708792	-58.278568	-37.708792	-58.278568	-0.621281	-19.530228
9.900000	-0.463332	-138.414947	-37.536969	-59.154607	-37.536969	-59.154607	-0.634232	-21.138128
9.950000	-0.469272	-139.025759	-37.361870	-60.048964	-37.361870	-60.048964	-0.647736	-22.742051
10.000000	-0.475269	-139.636745	-37.183492	-60.962593	-37.183492	-60.962593	-0.661819	-24.341982
