! freq	dB(S11)	phase(S11)	dB(S12)	phase(S12)	
!     	dB(S21)	phase(S21)	dB(S22)	phase(S22)	
!S-par simulation data
#  GHz  S  DB  R 50
0.000000	-0.000000	-0.000000	-373.361551	180.000000	-373.361551	180.000000	-0.000000	0.000000
0.050000	-0.005460	-1.473585	-96.140939	88.473501	-96.140939	88.473501	-0.006113	-1.469022
0.100000	-0.006991	-2.919231	-90.154142	87.014032	-90.154142	87.014032	-0.007125	-2.915515
0.150000	-0.007831	-4.368414	-86.679201	85.613560	-86.679201	85.613560	-0.007843	-4.365614
0.200000	-0.008694	-5.818553	-84.234886	84.243867	-84.234886	84.243867	-0.008676	-5.816269
0.250000	-0.009692	-7.268575	-82.362336	82.894595	-82.362336	82.894595	-0.009680	-7.266543
0.300000	-0.010853	-8.717871	-80.858630	81.564593	-80.858630	81.564593	-0.010862	-8.715910
0.350000	-0.012151	-10.166214	-79.609830	80.253754	-79.609830	80.253754	-0.012189	-10.164205
0.400000	-0.013582	-11.613349	-78.552955	78.966823	-78.552955	78.966823	-0.013651	-11.611195
0.450000	-0.015129	-13.059116	-77.646239	77.708523	-77.646239	77.708523	-0.015229	-13.056735
0.500000	-0.016784	-14.503246	-76.864929	76.487795	-76.864929	76.487795	-0.016913	-14.500567
0.550000	-0.018522	-15.945740	-76.186166	75.308924	-76.186166	75.308924	-0.018676	-15.942710
0.600000	-0.020324	-17.386570	-75.594251	74.177607	-75.594251	74.177607	-0.020501	-17.383148
0.650000	-0.022178	-18.825687	-75.078132	73.101108	-75.078132	73.101108	-0.022371	-18.821842
0.700000	-0.024070	-20.263054	-74.629341	72.087556	-74.629341	72.087556	-0.024276	-20.258764
0.750000	-0.025990	-21.698645	-74.241286	71.146116	-74.241286	71.146116	-0.026203	-21.693894
0.800000	-0.027929	-23.132396	-73.909761	70.289529	-73.909761	70.289529	-0.028144	-23.127176
0.850000	-0.029878	-24.564167	-73.633306	69.537839	-73.633306	69.537839	-0.030091	-24.558477
0.900000	-0.031829	-25.994116	-73.404765	68.897440	-73.404765	68.897440	-0.032036	-25.987957
0.950000	-0.033778	-27.422231	-73.221303	68.384687	-73.221303	68.384687	-0.033976	-27.415610
1.000000	-0.035721	-28.848507	-73.080470	68.018486	-73.080470	68.018486	-0.035908	-28.841430
1.050000	-0.037655	-30.272934	-72.980031	67.820721	-72.980031	67.820721	-0.037828	-30.265411
1.100000	-0.039578	-31.695504	-72.917792	67.816707	-72.917792	67.816707	-0.039736	-31.687545
1.150000	-0.041488	-33.116070	-72.893830	68.054605	-72.893830	68.054605	-0.041629	-33.107687
1.200000	-0.043383	-34.534678	-72.903792	68.566450	-72.903792	68.566450	-0.043507	-34.525881
1.250000	-0.045266	-35.951399	-72.942382	69.381646	-72.942382	69.381646	-0.045371	-35.942197
1.300000	-0.047134	-37.366220	-73.004623	70.543430	-73.004623	70.543430	-0.047222	-37.356622
1.350000	-0.048990	-38.779132	-73.083855	72.097908	-73.083855	72.097908	-0.049060	-38.769144
1.400000	-0.050833	-40.190121	-73.171175	74.091520	-73.171175	74.091520	-0.050886	-40.179751
1.450000	-0.052665	-41.599166	-73.254766	76.569729	-73.254766	76.569729	-0.052701	-41.588418
1.500000	-0.054485	-43.006050	-73.315619	79.618382	-73.315619	79.618382	-0.054505	-42.994929
1.550000	-0.056295	-44.410977	-73.335708	83.185235	-73.335708	83.185235	-0.056300	-44.399484
1.600000	-0.058097	-45.813938	-73.294266	87.235824	-73.294266	87.235824	-0.058088	-45.802074
1.650000	-0.059892	-47.214923	-73.170779	91.690169	-73.170779	91.690169	-0.059870	-47.202688
1.700000	-0.061681	-48.613808	-72.941147	96.427175	-72.941147	96.427175	-0.061647	-48.601200
1.750000	-0.063465	-50.010731	-72.602750	101.253104	-72.602750	101.253104	-0.063420	-49.997748
1.800000	-0.065245	-51.405629	-72.152153	105.989018	-72.152153	105.989018	-0.065190	-51.392266
1.850000	-0.067022	-52.798498	-71.598520	110.460708	-71.598520	110.460708	-0.066958	-52.784753
1.900000	-0.068798	-54.189340	-70.958376	114.532146	-70.958376	114.532146	-0.068726	-54.175205
1.950000	-0.070574	-55.578154	-70.251974	118.117123	-70.251974	118.117123	-0.070495	-55.563625
2.000000	-0.072350	-56.964946	-69.499820	121.178011	-69.499820	121.178011	-0.072265	-56.950015
2.050000	-0.074128	-58.349722	-68.720263	123.715994	-68.720263	123.715994	-0.074038	-58.334381
2.100000	-0.075909	-59.732489	-67.928338	125.758379	-67.928338	125.758379	-0.075815	-59.716732
2.150000	-0.077694	-61.113261	-67.135563	127.347035	-67.135563	127.347035	-0.077596	-61.097079
2.200000	-0.079483	-62.492051	-66.350296	128.529741	-66.350296	128.529741	-0.079382	-62.475435
2.250000	-0.081279	-63.868876	-65.578310	129.354580	-65.578310	129.354580	-0.081175	-63.851817
2.300000	-0.083081	-65.243756	-64.823386	129.866762	-64.823386	129.866762	-0.082975	-65.226245
2.350000	-0.084891	-66.616713	-64.087835	130.107131	-64.087835	130.107131	-0.084784	-66.598741
2.400000	-0.086710	-67.987773	-63.372915	130.111686	-63.372915	130.111686	-0.086601	-67.969329
2.450000	-0.088538	-69.356963	-62.679145	129.911690	-62.679145	129.911690	-0.088429	-69.338039
2.500000	-0.090377	-70.724316	-62.006543	129.534052	-62.006543	129.534052	-0.090267	-70.704901
2.550000	-0.092228	-72.089788	-61.353617	128.996024	-61.353617	128.996024	-0.092118	-72.069873
2.600000	-0.094091	-73.453498	-60.721207	128.324616	-60.721207	128.324616	-0.093981	-73.433072
2.650000	-0.095967	-74.815486	-60.108612	127.536337	-60.108612	127.536337	-0.095857	-74.794540
2.700000	-0.097858	-76.175795	-59.515069	126.645344	-59.515069	126.645344	-0.097748	-76.154318
2.750000	-0.099764	-77.534472	-58.939785	125.663794	-58.939785	125.663794	-0.099654	-77.512455
2.800000	-0.101686	-78.891566	-58.381961	124.602156	-58.381961	124.602156	-0.101576	-78.869000
2.850000	-0.103625	-80.247131	-57.840815	123.469473	-57.840815	123.469473	-0.103515	-80.224006
2.900000	-0.105582	-81.601222	-57.315588	122.273576	-57.315588	122.273576	-0.105471	-81.577528
2.950000	-0.107557	-82.953897	-56.805551	121.021266	-56.805551	121.021266	-0.107447	-82.929625
3.000000	-0.109552	-84.305218	-56.310009	119.718476	-56.310009	119.718476	-0.109441	-84.280359
3.050000	-0.111568	-85.655251	-55.828304	118.370389	-55.828304	118.370389	-0.111456	-85.629794
3.100000	-0.113604	-87.004061	-55.359812	116.981550	-55.359812	116.981550	-0.113492	-86.977998
3.150000	-0.115664	-88.351721	-54.903946	115.555959	-54.903946	115.555959	-0.115550	-88.325043
3.200000	-0.117746	-89.698304	-54.460154	114.097143	-54.460154	114.097143	-0.117631	-89.671001
3.250000	-0.119852	-91.043886	-54.027913	112.608221	-54.027913	112.608221	-0.119736	-91.015949
3.300000	-0.121984	-92.388548	-53.606736	111.091959	-53.606736	111.091959	-0.121866	-92.359967
3.350000	-0.124141	-93.732371	-53.196162	109.550818	-53.196162	109.550818	-0.124021	-93.703138
3.400000	-0.126325	-95.075442	-52.795759	107.986988	-52.795759	107.986988	-0.126203	-95.045547
3.450000	-0.128537	-96.417848	-52.405121	106.402428	-52.405121	106.402428	-0.128412	-96.387282
3.500000	-0.130777	-97.759682	-52.023865	104.798888	-52.023865	104.798888	-0.130650	-97.728436
3.550000	-0.133047	-99.101037	-51.651631	103.177939	-51.651631	103.177939	-0.132917	-99.069102
3.600000	-0.135347	-100.442012	-51.288080	101.540993	-51.288080	101.540993	-0.135214	-100.409378
3.650000	-0.137679	-101.782707	-50.932895	99.889318	-50.932895	99.889318	-0.137541	-101.749365
3.700000	-0.140043	-103.123225	-50.585775	98.224059	-50.585775	98.224059	-0.139901	-103.089164
3.750000	-0.142439	-104.463672	-50.246435	96.546247	-50.246435	96.546247	-0.142294	-104.428884
3.800000	-0.144872	-105.804165	-49.914387	94.856351	-49.914387	94.856351	-0.144722	-105.768638
3.850000	-0.147339	-107.144818	-49.589627	93.155747	-49.589627	93.155747	-0.147184	-107.108544
3.900000	-0.149842	-108.485749	-49.271914	91.445188	-49.271914	91.445188	-0.149682	-108.448716
3.950000	-0.152382	-109.827075	-48.961022	89.725360	-48.961022	89.725360	-0.152216	-109.789273
4.000000	-0.154959	-111.168918	-48.656736	87.996880	-48.656736	87.996880	-0.154788	-111.130336
4.050000	-0.157574	-112.511402	-48.358855	86.260313	-48.358855	86.260313	-0.157397	-112.472029
4.100000	-0.160229	-113.854655	-48.067185	84.516169	-48.067185	84.516169	-0.160046	-113.814480
4.150000	-0.162924	-115.198807	-47.781547	82.764913	-47.781547	82.764913	-0.162734	-115.157817
4.200000	-0.165660	-116.543991	-47.501768	81.006966	-47.501768	81.006966	-0.165464	-116.502175
4.250000	-0.168437	-117.890344	-47.227687	79.242712	-47.227687	79.242712	-0.168234	-117.847688
4.300000	-0.171257	-119.238004	-46.959149	77.472499	-46.959149	77.472499	-0.171047	-119.194497
4.350000	-0.174121	-120.587114	-46.696011	75.696643	-46.696011	75.696643	-0.173904	-120.542743
4.400000	-0.177028	-121.937820	-46.438133	73.915431	-46.438133	73.915431	-0.176804	-121.892570
4.450000	-0.179981	-123.290269	-46.185385	72.129123	-46.185385	72.129123	-0.179748	-123.244127
4.500000	-0.182979	-124.644614	-45.937646	70.337957	-45.937646	70.337957	-0.182739	-124.597564
4.550000	-0.186023	-126.001007	-45.694797	68.542146	-45.694797	68.542146	-0.185775	-125.953035
4.600000	-0.189115	-127.359606	-45.456730	66.741883	-45.456730	66.741883	-0.188859	-127.310696
4.650000	-0.192254	-128.720572	-45.223339	64.937344	-45.223339	64.937344	-0.191990	-128.670709
4.700000	-0.195442	-130.084068	-44.994526	63.128687	-44.994526	63.128687	-0.195169	-130.033234
4.750000	-0.198680	-131.450261	-44.770198	61.316055	-44.770198	61.316055	-0.198398	-131.398439
4.800000	-0.201967	-132.819319	-44.550269	59.499576	-44.550269	59.499576	-0.201676	-132.766493
4.850000	-0.205304	-134.191416	-44.334655	57.679366	-44.334655	57.679366	-0.205005	-134.137566
4.900000	-0.208693	-135.566726	-44.123278	55.855527	-44.123278	55.855527	-0.208385	-135.511834
4.950000	-0.212134	-136.945429	-43.916066	54.028154	-43.916066	54.028154	-0.211816	-136.889475
5.000000	-0.215627	-138.327706	-43.712950	52.197329	-43.712950	52.197329	-0.215300	-138.270671
5.050000	-0.219175	-139.713914	-43.513844	50.362981	-43.513844	50.362981	-0.218838	-139.655776
5.100000	-0.222776	-141.104086	-43.318722	48.525326	-43.318722	48.525326	-0.222430	-141.044824
5.150000	-0.226432	-142.498414	-43.127526	46.684420	-43.127526	46.684420	-0.226076	-142.438005
5.200000	-0.230142	-143.897091	-42.940206	44.840316	-42.940206	44.840316	-0.229777	-143.835514
5.250000	-0.233907	-145.300316	-42.756713	42.993058	-42.756713	42.993058	-0.233531	-145.237546
5.300000	-0.237727	-146.708287	-42.577001	41.142685	-42.577001	41.142685	-0.237342	-146.644303
5.350000	-0.241603	-148.121210	-42.401032	39.289233	-42.401032	39.289233	-0.241207	-148.055985
5.400000	-0.245534	-149.539290	-42.228767	37.432734	-42.228767	37.432734	-0.245129	-149.472801
5.450000	-0.249523	-150.962737	-42.060173	35.573214	-42.060173	35.573214	-0.249107	-150.894957
5.500000	-0.253567	-152.391763	-41.895220	33.710699	-41.895220	33.710699	-0.253141	-152.322666
5.550000	-0.257669	-153.826583	-41.733881	31.845212	-41.733881	31.845212	-0.257233	-153.756142
5.600000	-0.261828	-155.267415	-41.576134	29.976772	-41.576134	29.976772	-0.261381	-155.195604
5.650000	-0.266043	-156.714481	-41.421957	28.105399	-41.421957	28.105399	-0.265586	-156.641270
5.700000	-0.270317	-158.168003	-41.271335	26.231110	-41.271335	26.231110	-0.269848	-158.093365
5.750000	-0.274647	-159.628209	-41.124254	24.353925	-41.124254	24.353925	-0.274168	-159.552114
5.800000	-0.279035	-161.095327	-40.980703	22.473860	-40.980703	22.473860	-0.278545	-161.017746
5.850000	-0.283480	-162.569588	-40.840677	20.590934	-40.840677	20.590934	-0.282980	-162.490491
5.900000	-0.287983	-164.051228	-40.704171	18.705166	-40.704171	18.705166	-0.287471	-163.970584
5.950000	-0.292543	-165.540481	-40.571185	16.816577	-40.571185	16.816577	-0.292020	-165.458259
6.000000	-0.297160	-167.037586	-40.441721	14.925190	-40.441721	14.925190	-0.296625	-166.953755
6.050000	-0.301833	-168.542785	-40.315787	13.031030	-40.315787	13.031030	-0.301287	-168.457313
6.100000	-0.306563	-170.056320	-40.193390	11.134127	-40.193390	11.134127	-0.306006	-169.969174
6.150000	-0.311348	-171.578436	-40.074545	9.234512	-40.074545	9.234512	-0.310780	-171.489583
6.200000	-0.316189	-173.109377	-39.959268	7.332223	-39.959268	7.332223	-0.315609	-173.018786
6.250000	-0.321085	-174.649394	-39.847577	5.427302	-39.847577	5.427302	-0.320494	-174.557030
6.300000	-0.326038	-176.199150	-39.739598	3.519685	-39.739598	3.519685	-0.325434	-176.104980
6.350000	-0.331044	-177.758503	-39.635266	1.609542	-39.635266	1.609542	-0.330429	-177.662492
6.400000	-0.336103	-179.327702	-39.534613	-0.303064	-39.534613	-0.303064	-0.335476	-179.229817
6.450000	-0.341214	179.092999	-39.437671	-2.218064	-39.437671	-2.218064	-0.340574	179.192792
6.500000	-0.346375	177.503351	-39.344480	-4.135378	-39.344480	-4.135378	-0.345724	177.605085
6.550000	-0.351587	175.903101	-39.255081	-6.054917	-39.255081	-6.054917	-0.350924	176.006810
6.600000	-0.356847	174.291998	-39.169520	-7.976579	-39.169520	-7.976579	-0.356172	174.397715
6.650000	-0.362155	172.669790	-39.087847	-9.900254	-39.087847	-9.900254	-0.361468	172.777549
6.700000	-0.367505	171.037361	-39.009792	-11.825641	-39.009792	-11.825641	-0.366805	171.147191
6.750000	-0.372903	169.392354	-38.936012	-13.752943	-38.936012	-13.752943	-0.372191	169.504290
6.800000	-0.378345	167.735504	-38.866293	-15.681840	-38.866293	-15.681840	-0.377621	167.849579
6.850000	-0.383828	166.066569	-38.800704	-17.612155	-38.800704	-17.612155	-0.383091	166.182814
6.900000	-0.389351	164.385171	-38.739360	-19.543708	-38.739360	-19.543708	-0.388602	164.503618
6.950000	-0.394912	162.691064	-38.682343	-21.476275	-38.682343	-21.476275	-0.394151	162.811744
7.000000	-0.400509	160.984150	-38.629697	-23.409603	-38.629697	-23.409603	-0.399736	161.107092
7.050000	-0.406139	159.264200	-38.581510	-25.343428	-38.581510	-25.343428	-0.405354	159.389432
7.100000	-0.411800	157.530990	-38.537878	-27.277455	-38.537878	-27.277455	-0.411003	157.658540
7.150000	-0.417491	155.784303	-38.498901	-29.211360	-38.498901	-29.211360	-0.416681	155.914198
7.200000	-0.423207	154.023929	-38.464685	-31.144785	-38.464685	-31.144785	-0.422386	154.156194
7.250000	-0.428947	152.249663	-38.435346	-33.077335	-38.435346	-33.077335	-0.428114	152.384322
7.300000	-0.434708	150.461310	-38.411003	-35.008573	-38.411003	-35.008573	-0.433864	150.598386
7.350000	-0.440487	148.658684	-38.391783	-36.938018	-38.391783	-36.938018	-0.439631	148.798199
7.400000	-0.446281	146.841607	-38.377822	-38.865141	-38.377822	-38.865141	-0.445414	146.983580
7.450000	-0.452086	145.009914	-38.369262	-40.789357	-38.369262	-40.789357	-0.451208	145.154363
7.500000	-0.457900	143.163449	-38.366254	-42.710023	-38.366254	-42.710023	-0.457011	143.310390
7.550000	-0.463719	141.301743	-38.369087	-44.626319	-38.369087	-44.626319	-0.462819	141.451191
7.600000	-0.469539	139.424989	-38.377808	-46.537533	-38.377808	-46.537533	-0.468629	139.576956
7.650000	-0.475357	137.533073	-38.392595	-48.442799	-38.392595	-48.442799	-0.474437	137.687568
7.700000	-0.481169	135.625896	-38.413637	-50.341159	-38.413637	-50.341159	-0.480240	135.782928
7.750000	-0.486971	133.703378	-38.441131	-52.231556	-38.441131	-52.231556	-0.486032	133.862951
7.800000	-0.492759	131.765453	-38.475288	-54.112825	-38.475288	-54.112825	-0.491812	131.927571
7.850000	-0.498530	129.812077	-38.516326	-55.983676	-38.516326	-55.983676	-0.497574	129.976740
7.900000	-0.504278	127.843222	-38.564479	-57.842685	-38.564479	-57.842685	-0.503315	128.010428
7.950000	-0.510001	125.858883	-38.619991	-59.688275	-38.619991	-59.688275	-0.509030	126.028627
8.000000	-0.515694	123.859078	-38.683119	-61.518699	-38.683119	-61.518699	-0.514716	124.031352
8.050000	-0.521353	121.843844	-38.754133	-63.332020	-38.754133	-63.332020	-0.520369	122.018638
8.100000	-0.526973	119.813246	-38.833317	-65.126088	-38.833317	-65.126088	-0.525983	119.990546
8.150000	-0.532551	117.767205	-38.921052	-66.898244	-38.921052	-66.898244	-0.531556	117.946996
8.200000	-0.538081	115.705841	-39.017653	-68.645726	-39.017653	-68.645726	-0.537081	115.888102
8.250000	-0.543560	113.629463	-39.123361	-70.365773	-39.123361	-70.365773	-0.542556	113.814172
8.300000	-0.548985	111.538240	-39.238511	-72.055041	-39.238511	-72.055041	-0.547978	111.725372
8.350000	-0.554350	109.432371	-39.363450	-73.709785	-39.363450	-73.709785	-0.553341	109.621898
8.400000	-0.559654	107.312084	-39.498536	-75.325807	-39.498536	-75.325807	-0.558642	107.503976
8.450000	-0.564891	105.177638	-39.644133	-76.898389	-39.644133	-76.898389	-0.563878	105.371860
8.500000	-0.570059	103.029321	-39.800608	-78.422225	-39.800608	-78.422225	-0.569045	103.225837
8.550000	-0.575154	100.867453	-39.968330	-79.891333	-39.968330	-79.891333	-0.574140	101.066224
8.600000	-0.580173	98.692386	-40.147655	-81.298959	-40.147655	-81.298959	-0.579160	98.893369
8.650000	-0.585114	96.504501	-40.338924	-82.637467	-40.338924	-82.637467	-0.584102	96.707653
8.700000	-0.589973	94.304215	-40.542443	-83.898211	-40.542443	-83.898211	-0.588964	94.509488
8.750000	-0.594749	92.091973	-40.758470	-85.071400	-40.758470	-85.071400	-0.593743	92.299320
8.800000	-0.599439	89.868017	-40.987324	-86.143497	-40.987324	-86.143497	-0.598435	90.077387
8.850000	-0.604041	87.633120	-41.228904	-87.103711	-41.228904	-87.103711	-0.603042	87.844459
8.900000	-0.608556	85.387824	-41.483116	-87.937684	-41.483116	-87.937684	-0.607561	85.601079
8.950000	-0.612982	83.132704	-41.749651	-88.629223	-41.749651	-88.629223	-0.611993	83.347819
9.000000	-0.617320	80.868362	-42.027907	-89.160147	-42.027907	-89.160147	-0.616336	81.085283
9.050000	-0.621568	78.595431	-42.316895	-89.510210	-42.316895	-89.510210	-0.620591	78.814100
9.100000	-0.625729	76.314570	-42.615110	-89.657119	-42.615110	-89.657119	-0.624758	76.534931
9.150000	-0.629803	74.026465	-42.920377	-89.576751	-42.920377	-89.576751	-0.628839	74.248461
9.200000	-0.633791	71.731828	-43.229671	-89.243663	-43.229671	-89.243663	-0.632835	71.955401
9.250000	-0.637696	69.431391	-43.538910	-88.632038	-43.538910	-88.632038	-0.636748	69.656488
9.300000	-0.641520	67.125913	-43.842740	-87.717254	-43.842740	-87.717254	-0.640580	67.352476
9.350000	-0.645266	64.816167	-44.134358	-86.478243	-44.134358	-86.478243	-0.644334	65.044144
9.400000	-0.648937	62.502920	-44.404997	-84.897048	-44.404997	-84.897048	-0.648014	62.732258
9.450000	-0.652537	60.187007	-44.644540	-82.970872	-44.644540	-82.970872	-0.651622	60.417657
9.500000	-0.656072	57.869292	-44.842366	-80.717165	-44.842366	-80.717165	-0.655164	58.101205
9.550000	-0.659545	55.550608	-44.987209	-78.169896	-44.987209	-78.169896	-0.658646	55.783739
9.600000	-0.662963	53.231799	-45.068580	-75.385492	-45.068580	-75.385492	-0.662072	53.466107
9.650000	-0.666331	50.913712	-45.078101	-72.441783	-45.078101	-72.441783	-0.665447	51.149160
9.700000	-0.669655	48.597203	-45.010763	-69.432793	-45.010763	-69.432793	-0.668779	48.833755
9.750000	-0.672943	46.283123	-44.865776	-66.459848	-44.865776	-66.459848	-0.672073	46.520749
9.800000	-0.676200	43.972326	-44.646700	-63.620868	-44.646700	-63.620868	-0.675337	44.211001
9.850000	-0.679434	41.665661	-44.360847	-61.000524	-44.360847	-61.000524	-0.678577	41.905362
9.900000	-0.682653	39.363969	-44.018124	-58.663528	-44.018124	-58.663528	-0.681800	39.604681
9.950000	-0.685863	37.068085	-43.629693	-56.652082	-43.629693	-56.652082	-0.685014	37.309794
10.000000	-0.689074	34.778829	-43.206755	-54.987056	-43.206755	-54.987056	-0.688228	35.021531
