! freq	dB(S11)	phase(S11)	dB(S12)	phase(S12)	
!     	dB(S21)	phase(S21)	dB(S22)	phase(S22)	
!S-par simulation data
#  GHz  S  DB  R 50
0.000000	-0.000000	-0.000000	-373.674928	180.000000	-373.674928	180.000000	-0.000000	-0.000000
0.050000	-0.000113	-0.971220	-111.982380	89.015836	-111.982380	89.015836	-0.000113	-0.971214
0.100000	-0.000450	-1.942176	-106.011939	88.042738	-106.011939	88.042738	-0.000450	-1.942164
0.150000	-0.000998	-2.912622	-102.573753	87.091936	-102.573753	87.091936	-0.000997	-2.912605
0.200000	-0.001738	-3.882345	-100.191549	86.174723	-100.191549	86.174723	-0.001737	-3.882324
0.250000	-0.002661	-4.851100	-98.409556	85.306869	-98.409556	85.306869	-0.002658	-4.851078
0.300000	-0.003724	-5.818826	-97.014287	84.498209	-97.014287	84.498209	-0.003721	-5.818803
0.350000	-0.004912	-6.785375	-95.901245	83.766695	-95.901245	83.766695	-0.004908	-6.785352
0.400000	-0.006199	-7.750671	-95.006884	83.131464	-95.006884	83.131464	-0.006195	-7.750650
0.450000	-0.007563	-8.714670	-94.291409	82.615669	-94.291409	82.615669	-0.007558	-8.714652
0.500000	-0.008981	-9.677354	-93.728958	82.247994	-93.728958	82.247994	-0.008976	-9.677338
0.550000	-0.010436	-10.638722	-93.302520	82.064770	-93.302520	82.064770	-0.010430	-10.638710
0.600000	-0.011911	-11.598789	-93.001054	82.112951	-93.001054	82.112951	-0.011906	-11.598781
0.650000	-0.013396	-12.557579	-92.817713	82.454356	-92.817713	82.454356	-0.013391	-12.557574
0.700000	-0.014878	-13.515119	-92.748551	83.171767	-92.748551	83.171767	-0.014874	-13.515116
0.750000	-0.016352	-14.471437	-92.791286	84.377653	-92.791286	84.377653	-0.016348	-14.471436
0.800000	-0.017811	-15.426559	-92.943601	86.226356	-92.943601	86.226356	-0.017807	-15.426560
0.850000	-0.019252	-16.380509	-93.200215	88.929871	-93.200215	88.929871	-0.019249	-16.380511
0.900000	-0.020673	-17.333305	-93.547337	92.774199	-93.547337	92.774199	-0.020670	-17.333307
0.950000	-0.022072	-18.284961	-93.952461	98.123236	-93.952461	98.123236	-0.022070	-18.284963
1.000000	-0.023449	-19.235484	-94.347907	105.373649	-94.347907	105.373649	-0.023447	-19.235486
1.050000	-0.024806	-20.184880	-94.612907	114.792104	-94.612907	114.792104	-0.024804	-20.184880
1.100000	-0.026141	-21.133146	-94.577984	126.188135	-94.577984	126.188135	-0.026140	-21.133145
1.150000	-0.027458	-22.080277	-94.090481	138.593507	-94.090481	138.593507	-0.027457	-22.080275
1.200000	-0.028757	-23.026264	-93.122546	150.462021	-93.122546	150.462021	-0.028757	-23.026261
1.250000	-0.030040	-23.971096	-91.796681	160.519740	-91.796681	160.519740	-0.030039	-23.971091
1.300000	-0.031307	-24.914704	-90.274650	168.244426	-90.274650	168.244426	-0.031307	-24.914698
1.350000	-0.032561	-25.857122	-88.712912	173.958766	-88.712912	173.958766	-0.032561	-25.857115
1.400000	-0.033804	-26.798329	-87.185631	178.072624	-87.185631	178.072624	-0.033804	-26.798322
1.450000	-0.035036	-27.738306	-85.726168	-179.031057	-85.726168	-179.031057	-0.035036	-27.738298
1.500000	-0.036260	-28.677029	-84.345655	-177.048984	-84.345655	-177.048984	-0.036260	-28.677021
1.550000	-0.037476	-29.614476	-83.044488	-175.755436	-83.044488	-175.755436	-0.037477	-29.614468
1.600000	-0.038687	-30.550623	-81.818401	-174.985869	-81.818401	-174.985869	-0.038687	-30.550615
1.650000	-0.039891	-31.485446	-80.661450	-174.620508	-80.661450	-174.620508	-0.039891	-31.485438
1.700000	-0.041092	-32.418920	-79.567388	-174.571488	-79.567388	-174.571488	-0.041092	-32.418914
1.750000	-0.042290	-33.351022	-78.530272	-174.773574	-78.530272	-174.773574	-0.042290	-33.351017
1.800000	-0.043485	-34.281727	-77.544691	-175.177671	-77.544691	-175.177671	-0.043485	-34.281723
1.850000	-0.044679	-35.211011	-76.605821	-175.746308	-76.605821	-175.746308	-0.044678	-35.211009
1.900000	-0.045872	-36.138850	-75.709406	-176.450499	-75.709406	-176.450499	-0.045871	-36.138850
1.950000	-0.047065	-37.065221	-74.851702	-177.267524	-74.851702	-177.267524	-0.047064	-37.065224
2.000000	-0.048258	-37.990101	-74.029418	-178.179361	-74.029418	-178.179361	-0.048257	-37.990107
2.050000	-0.049453	-38.913467	-73.239657	-179.171548	-73.239657	-179.171548	-0.049452	-38.913477
2.100000	-0.050649	-39.835299	-72.479864	179.767638	-72.479864	179.767638	-0.050648	-39.835312
2.150000	-0.051848	-40.755574	-71.747775	178.647799	-71.747775	178.647799	-0.051847	-40.755591
2.200000	-0.053049	-41.674272	-71.041380	177.476864	-71.041380	177.476864	-0.053048	-41.674294
2.250000	-0.054253	-42.591374	-70.358885	176.261443	-70.358885	176.261443	-0.054252	-42.591400
2.300000	-0.055461	-43.506859	-69.698686	175.007082	-69.698686	175.007082	-0.055460	-43.506890
2.350000	-0.056674	-44.420710	-69.059341	173.718474	-69.059341	173.718474	-0.056672	-44.420746
2.400000	-0.057890	-45.332908	-68.439549	172.399613	-68.439549	172.399613	-0.057889	-45.332950
2.450000	-0.059112	-46.243437	-67.838136	171.053922	-67.838136	171.053922	-0.059110	-46.243484
2.500000	-0.060339	-47.152281	-67.254032	169.684350	-67.254032	169.684350	-0.060337	-47.152333
2.550000	-0.061572	-48.059348	-66.685369	168.292629	-66.685369	168.292629	-0.061570	-48.059407
2.600000	-0.062811	-48.964699	-66.132253	166.881983	-66.132253	166.881983	-0.062810	-48.964763
2.650000	-0.064056	-49.868318	-65.593860	165.454327	-65.593860	165.454327	-0.064055	-49.868389
2.700000	-0.065309	-50.770192	-65.069435	164.011346	-65.069435	164.011346	-0.065308	-50.770270
2.750000	-0.066569	-51.670310	-64.558284	162.554532	-64.558284	162.554532	-0.066568	-51.670394
2.800000	-0.067837	-52.568660	-64.059765	161.085207	-64.059765	161.085207	-0.067836	-52.568751
2.850000	-0.069113	-53.465230	-63.573286	159.604551	-63.573286	159.604551	-0.069113	-53.465327
2.900000	-0.070398	-54.360010	-63.098298	158.113615	-63.098298	158.113615	-0.070397	-54.360115
2.950000	-0.071692	-55.252991	-62.634290	156.613346	-62.634290	156.613346	-0.071691	-55.253104
3.000000	-0.072995	-56.144165	-62.180789	155.104592	-62.180789	155.104592	-0.072995	-56.144285
3.050000	-0.074308	-57.033524	-61.737351	153.588120	-61.737351	153.588120	-0.074308	-57.033652
3.100000	-0.075632	-57.921060	-61.303563	152.064623	-61.303563	152.064623	-0.075632	-57.921196
3.150000	-0.076966	-58.806767	-60.879040	150.534731	-60.879040	150.534731	-0.076966	-58.806911
3.200000	-0.078312	-59.690640	-60.463418	148.999014	-60.463418	148.999014	-0.078312	-59.690791
3.250000	-0.079669	-60.572673	-60.056357	147.457995	-60.056357	147.457995	-0.079669	-60.572833
3.300000	-0.081038	-61.452863	-59.657538	145.912149	-59.657538	145.912149	-0.081039	-61.453031
3.350000	-0.082420	-62.331205	-59.266660	144.361913	-59.266660	144.361913	-0.082421	-62.331382
3.400000	-0.083815	-63.207698	-58.883438	142.807686	-58.883438	142.807686	-0.083816	-63.207883
3.450000	-0.085224	-64.082339	-58.507605	141.249836	-58.507605	141.249836	-0.085225	-64.082533
3.500000	-0.086646	-64.955127	-58.138907	139.688702	-58.138907	139.688702	-0.086647	-64.955330
3.550000	-0.088084	-65.826061	-57.777104	138.124596	-57.777104	138.124596	-0.088084	-65.826274
3.600000	-0.089536	-66.695142	-57.421971	136.557806	-57.421971	136.557806	-0.089537	-66.695364
3.650000	-0.091003	-67.562370	-57.073290	134.988601	-57.073290	134.988601	-0.091004	-67.562602
3.700000	-0.092487	-68.427747	-56.730857	133.417228	-56.730857	133.417228	-0.092488	-68.427989
3.750000	-0.093987	-69.291276	-56.394479	131.843917	-56.394479	131.843917	-0.093988	-69.291527
3.800000	-0.095504	-70.152878	-56.063680	130.268816	-56.063680	130.268816	-0.095506	-70.153139
3.850000	-0.097040	-71.012639	-55.738595	128.692207	-55.738595	128.692207	-0.097041	-71.012910
3.900000	-0.098593	-71.870562	-55.419055	127.114274	-55.419055	127.114274	-0.098594	-71.870844
3.950000	-0.100165	-72.726653	-55.104899	125.535189	-55.104899	125.535189	-0.100166	-72.726945
4.000000	-0.101755	-73.580917	-54.795972	123.955113	-54.795972	123.955113	-0.101757	-73.581220
4.050000	-0.103366	-74.433360	-54.492127	122.374195	-54.492127	122.374195	-0.103368	-74.433675
4.100000	-0.104996	-75.283991	-54.193223	120.792576	-54.193223	120.792576	-0.104998	-75.284317
4.150000	-0.106647	-76.132816	-53.899124	119.210390	-53.899124	119.210390	-0.106649	-76.133153
4.200000	-0.108319	-76.979844	-53.609702	117.627759	-53.609702	117.627759	-0.108321	-76.980193
4.250000	-0.110013	-77.825083	-53.324833	116.044802	-53.324833	116.044802	-0.110015	-77.825444
4.300000	-0.111728	-78.668545	-53.044398	114.461626	-53.044398	114.461626	-0.111730	-78.668918
4.350000	-0.113467	-79.510237	-52.768283	112.878336	-52.768283	112.878336	-0.113468	-79.510623
4.400000	-0.115228	-80.350173	-52.496379	111.295029	-52.496379	111.295029	-0.115230	-80.350571
4.450000	-0.117013	-81.188363	-52.228580	109.711796	-52.228580	109.711796	-0.117015	-81.188773
4.500000	-0.118822	-82.024819	-51.964787	108.128725	-51.964787	108.128725	-0.118824	-82.025243
4.550000	-0.120656	-82.859554	-51.704900	106.545897	-51.704900	106.545897	-0.120658	-82.859991
4.600000	-0.122514	-83.692582	-51.448828	104.963389	-51.448828	104.963389	-0.122516	-83.693032
4.650000	-0.124399	-84.523915	-51.196479	103.381275	-51.196479	103.381275	-0.124401	-84.524379
4.700000	-0.126310	-85.353570	-50.947767	101.799623	-50.947767	101.799623	-0.126311	-85.354048
4.750000	-0.128247	-86.181561	-50.702609	100.218499	-50.702609	100.218499	-0.128249	-86.182053
4.800000	-0.130211	-87.007904	-50.460923	98.637965	-50.460923	98.637965	-0.130213	-87.008410
4.850000	-0.132203	-87.832615	-50.222632	97.058081	-50.222632	97.058081	-0.132205	-87.833135
4.900000	-0.134223	-88.655711	-49.987660	95.478901	-49.987660	95.478901	-0.134225	-88.656246
4.950000	-0.136272	-89.477209	-49.755935	93.900478	-49.755935	93.900478	-0.136274	-89.477759
5.000000	-0.138350	-90.297128	-49.527387	92.322864	-49.527387	92.322864	-0.138352	-90.297693
5.050000	-0.140459	-91.115419	-49.301829	90.746144	-49.301829	90.746144	-0.140461	-91.116000
5.100000	-0.142598	-91.932170	-49.079323	89.170330	-49.079323	89.170330	-0.142600	-91.932766
5.150000	-0.144767	-92.747401	-48.859803	87.595463	-48.859803	87.595463	-0.144769	-92.748013
5.200000	-0.146968	-93.561132	-48.643210	86.021584	-48.643210	86.021584	-0.146970	-93.561760
5.250000	-0.149200	-94.373384	-48.429482	84.448732	-48.429482	84.448732	-0.149202	-94.374028
5.300000	-0.151464	-95.184179	-48.218562	82.876945	-48.218562	82.876945	-0.151466	-95.184839
5.350000	-0.153761	-95.993538	-48.010394	81.306256	-48.010394	81.306256	-0.153763	-95.994214
5.400000	-0.156091	-96.801483	-47.804923	79.736700	-47.804923	79.736700	-0.156093	-96.802176
5.450000	-0.158466	-97.607566	-47.601376	78.168726	-47.601376	78.168726	-0.158468	-97.608276
5.500000	-0.160859	-98.412932	-47.401424	76.601371	-47.401424	76.601371	-0.160861	-98.413659
5.550000	-0.163293	-99.216676	-47.203586	75.035518	-47.203586	75.035518	-0.163296	-99.217420
5.600000	-0.165758	-100.019261	-47.008488	73.470738	-47.008488	73.470738	-0.165761	-100.020022
5.650000	-0.168260	-100.820510	-46.815766	71.907304	-46.815766	71.907304	-0.168262	-100.821289
5.700000	-0.170799	-101.620423	-46.625359	70.345213	-46.625359	70.345213	-0.170801	-101.621220
5.750000	-0.173370	-102.419270	-46.437550	68.784287	-46.437550	68.784287	-0.173372	-102.420085
5.800000	-0.175985	-103.216625	-46.251679	67.224989	-46.251679	67.224989	-0.175987	-103.217458
5.850000	-0.178626	-104.013167	-46.068591	65.666653	-46.068591	65.666653	-0.178629	-104.014018
5.900000	-0.181319	-104.808083	-45.887108	64.110239	-45.887108	64.110239	-0.181322	-104.808953
5.950000	-0.184032	-105.602420	-45.708562	62.554568	-45.708562	62.554568	-0.184035	-105.603308
6.000000	-0.186804	-106.395019	-45.531327	61.001122	-45.531327	61.001122	-0.186808	-106.395926
6.050000	-0.189591	-107.187253	-45.357154	59.448182	-45.357154	59.448182	-0.189595	-107.188179
6.100000	-0.192446	-107.977663	-45.184036	57.897777	-45.184036	57.897777	-0.192449	-107.978608
6.150000	-0.195308	-108.767902	-45.014075	56.347631	-45.014075	56.347631	-0.195311	-108.768866
6.200000	-0.198246	-109.556254	-44.844947	54.800332	-44.844947	54.800332	-0.198249	-109.557238
6.250000	-0.201184	-110.344607	-44.679049	53.253033	-44.679049	53.253033	-0.201188	-110.345610
6.300000	-0.204208	-111.131038	-44.513790	51.708899	-44.513790	51.708899	-0.204212	-111.132061
6.350000	-0.207232	-111.917470	-44.351617	50.164765	-44.351617	50.164765	-0.207236	-111.918513
6.400000	-0.210335	-112.702269	-44.190309	48.623577	-44.190309	48.623577	-0.210340	-112.703332
6.450000	-0.213446	-113.486920	-44.031755	47.082658	-44.031755	47.082658	-0.213451	-113.488003
6.500000	-0.216631	-114.270208	-43.874262	45.544455	-43.874262	45.544455	-0.216636	-114.271312
6.550000	-0.219831	-115.053223	-43.719224	44.006794	-43.719224	44.006794	-0.219837	-115.054348
6.600000	-0.223099	-115.835124	-43.565416	42.471606	-43.565416	42.471606	-0.223104	-115.836269
6.650000	-0.226390	-116.616653	-43.413798	40.937241	-43.413798	40.937241	-0.226396	-116.617819
6.700000	-0.229742	-117.397293	-43.263554	39.405095	-43.263554	39.405095	-0.229748	-117.398481
6.750000	-0.233125	-118.177489	-43.115263	37.874057	-43.115263	37.874057	-0.233131	-118.178699
6.800000	-0.236563	-118.957000	-42.968469	36.344975	-42.968469	36.344975	-0.236569	-118.958231
6.850000	-0.240040	-119.736021	-42.823417	34.817289	-42.823417	34.817289	-0.240047	-119.737275
6.900000	-0.243565	-120.514536	-42.679962	33.291289	-42.679962	33.291289	-0.243572	-120.515812
6.950000	-0.247137	-121.292544	-42.538065	31.766974	-42.538065	31.766974	-0.247145	-121.293843
7.000000	-0.250751	-122.070200	-42.397847	30.244070	-42.397847	30.244070	-0.250759	-122.071521
7.050000	-0.254421	-122.847362	-42.259026	28.723140	-42.259026	28.723140	-0.254429	-122.848707
7.100000	-0.258124	-123.624300	-42.121946	27.203341	-42.121946	27.203341	-0.258133	-123.625668
7.150000	-0.261893	-124.400787	-41.986125	25.685804	-41.986125	25.685804	-0.261902	-124.402179
7.200000	-0.265687	-125.177149	-41.852091	24.169117	-41.852091	24.169117	-0.265696	-125.178565
7.250000	-0.269556	-125.953136	-41.719197	22.654976	-41.719197	22.654976	-0.269566	-125.954577
7.300000	-0.273443	-126.729070	-41.588122	21.141402	-41.588122	21.141402	-0.273453	-126.730535
7.350000	-0.277414	-127.504738	-41.458087	19.630657	-41.458087	19.630657	-0.277424	-127.506228
7.400000	-0.281395	-128.280394	-41.329886	18.120194	-41.329886	18.120194	-0.281405	-128.281910
7.450000	-0.285469	-129.055926	-41.202645	16.612837	-41.202645	16.612837	-0.285480	-129.057468
7.500000	-0.289545	-129.831458	-41.077241	15.105481	-41.077241	15.105481	-0.289556	-129.833026
7.550000	-0.293724	-130.607043	-40.952733	13.601502	-40.952733	13.601502	-0.293735	-130.608638
7.600000	-0.297904	-131.382628	-40.829983	12.097524	-40.829983	12.097524	-0.297916	-131.384251
7.650000	-0.302180	-132.158440	-40.708216	10.596629	-40.708216	10.596629	-0.302193	-132.160090
7.700000	-0.306467	-132.934272	-40.588067	9.096015	-40.588067	9.096015	-0.306480	-132.935951
7.750000	-0.310842	-133.710475	-40.468971	7.598188	-40.468971	7.598188	-0.310855	-133.712183
7.800000	-0.315237	-134.486752	-40.351370	6.100919	-40.351370	6.100919	-0.315250	-134.488490
7.850000	-0.319711	-135.263515	-40.234878	4.606142	-40.234878	4.606142	-0.319725	-135.265283
7.900000	-0.324214	-136.040440	-40.119777	3.112196	-40.119777	3.112196	-0.324228	-136.042240
7.950000	-0.328790	-136.817936	-40.005827	1.620449	-40.005827	1.620449	-0.328805	-136.819767
8.000000	-0.333403	-137.595717	-39.893180	0.129802	-39.893180	0.129802	-0.333418	-137.597581
8.050000	-0.338081	-138.374122	-39.781714	-1.358938	-39.781714	-1.358938	-0.338096	-138.376019
8.100000	-0.342805	-139.152972	-39.671478	-2.846314	-39.671478	-2.846314	-0.342821	-139.154903
8.150000	-0.347586	-139.932466	-39.562440	-4.332070	-39.562440	-4.332070	-0.347602	-139.934432
8.200000	-0.352423	-140.712603	-39.454575	-5.816206	-39.454575	-5.816206	-0.352439	-140.714605
8.250000	-0.357308	-141.493369	-39.347915	-7.299004	-39.347915	-7.299004	-0.357324	-141.495408
8.300000	-0.362258	-142.275016	-39.242384	-8.779930	-39.242384	-8.779930	-0.362275	-142.277092
8.350000	-0.367247	-143.057242	-39.138052	-10.259797	-39.138052	-10.259797	-0.367265	-143.059357
8.400000	-0.372312	-143.840627	-39.034823	-11.737547	-39.034823	-11.737547	-0.372330	-143.842783
8.450000	-0.377407	-144.624505	-38.932774	-13.214510	-38.932774	-13.214510	-0.377426	-144.626701
8.500000	-0.382588	-145.409862	-38.831815	-14.689116	-38.831815	-14.689116	-0.382607	-145.412101
8.550000	-0.387790	-146.195587	-38.732007	-16.163204	-38.732007	-16.163204	-0.387809	-146.197870
8.600000	-0.393086	-146.983156	-38.633290	-17.634700	-38.633290	-17.634700	-0.393106	-146.985484
8.650000	-0.398395	-147.770929	-38.535684	-19.105939	-38.535684	-19.105939	-0.398416	-147.773302
8.700000	-0.403809	-148.560953	-38.439184	-20.574358	-38.439184	-20.574358	-0.403830	-148.563375
8.750000	-0.409226	-149.350978	-38.343745	-22.042777	-38.343745	-22.042777	-0.409248	-149.353448
8.800000	-0.414758	-150.143709	-38.249439	-23.508149	-38.249439	-23.508149	-0.414780	-150.146232
8.850000	-0.420293	-150.936441	-38.156147	-24.973522	-38.156147	-24.973522	-0.420316	-150.939015
8.900000	-0.425934	-151.731889	-38.064003	-26.436129	-38.064003	-26.436129	-0.425958	-151.734518
8.950000	-0.431588	-152.527584	-37.972840	-27.898484	-37.972840	-27.898484	-0.431612	-152.530268
9.000000	-0.437338	-153.325967	-37.882827	-29.358347	-37.882827	-29.358347	-0.437363	-153.328710
9.050000	-0.443111	-154.124889	-37.793778	-30.817712	-37.793778	-30.817712	-0.443137	-154.127691
9.100000	-0.448972	-154.926431	-37.705871	-32.274850	-37.705871	-32.274850	-0.448998	-154.929295
9.150000	-0.454864	-155.728847	-37.618923	-33.731245	-37.618923	-33.731245	-0.454891	-155.731775
9.200000	-0.460835	-156.533777	-37.533097	-35.185673	-37.533097	-35.185673	-0.460863	-156.536771
9.250000	-0.466847	-157.339964	-37.448240	-36.639117	-37.448240	-36.639117	-0.466876	-157.343026
9.300000	-0.472928	-158.148514	-37.364475	-38.090846	-37.364475	-38.090846	-0.472958	-158.151647
9.350000	-0.479059	-158.958752	-37.281702	-39.541351	-37.281702	-39.541351	-0.479091	-158.961958
9.400000	-0.485251	-159.771160	-37.199978	-40.990388	-37.199978	-40.990388	-0.485284	-159.774442
9.450000	-0.491503	-160.585738	-37.119283	-42.437957	-37.119283	-42.437957	-0.491537	-160.589099
9.500000	-0.497805	-161.402248	-37.039584	-43.884303	-37.039584	-43.884303	-0.497840	-161.405689
9.550000	-0.504176	-162.221461	-36.960964	-45.328936	-36.960964	-45.328936	-0.504213	-162.224987
9.600000	-0.510588	-163.042319	-36.883277	-46.772586	-36.883277	-46.772586	-0.510626	-163.045932
9.650000	-0.517078	-163.866469	-36.806731	-48.214271	-36.806731	-48.214271	-0.517118	-163.870172
9.700000	-0.523600	-164.691930	-36.731044	-49.655214	-36.731044	-49.655214	-0.523642	-164.695726
9.750000	-0.530209	-165.521324	-36.656574	-51.093931	-36.656574	-51.093931	-0.530253	-165.525218
9.800000	-0.536840	-166.351646	-36.582876	-52.532147	-36.582876	-52.532147	-0.536886	-166.355638
9.850000	-0.543567	-167.186601	-36.510485	-53.967865	-36.510485	-53.967865	-0.543614	-167.190698
9.900000	-0.550307	-168.022046	-36.438769	-55.403329	-36.438769	-55.403329	-0.550357	-168.026249
9.950000	-0.557150	-168.862885	-36.368463	-56.836005	-36.368463	-56.836005	-0.557202	-168.867201
10.000000	-0.563998	-169.703724	-36.298721	-58.268682	-36.298721	-58.268682	-0.564053	-169.708153
