! freq	dB(S11)	phase(S11)	dB(S12)	phase(S12)	
!     	dB(S21)	phase(S21)	dB(S22)	phase(S22)	
!S-par simulation data
#  GHz  S  DB  R 50
0.000000	-0.000000	0.000000	-354.045175	180.000000	-354.045175	180.000000	-0.000000	0.000000
0.050000	-0.000119	-0.956236	-111.375665	89.096818	-111.375665	89.096818	-0.000123	-0.956372
0.100000	-0.000473	-1.912177	-105.398003	88.202500	-105.398003	88.202500	-0.000487	-1.912432
0.150000	-0.001047	-2.867549	-101.947779	87.326087	-101.947779	87.326087	-0.001077	-2.867893
0.200000	-0.001818	-3.822124	-99.548794	86.476736	-99.548794	86.476736	-0.001868	-3.822516
0.250000	-0.002773	-4.775640	-97.744302	85.667313	-97.744302	85.667313	-0.002843	-4.776037
0.300000	-0.003865	-5.728047	-96.321831	84.905950	-96.321831	84.905950	-0.003956	-5.728407
0.350000	-0.005076	-6.679201	-95.176020	84.207366	-95.176020	84.207366	-0.005184	-6.679489
0.400000	-0.006378	-7.629041	-94.242871	83.587181	-94.242871	83.587181	-0.006499	-7.629230
0.450000	-0.007745	-8.577539	-93.481987	83.064048	-93.481987	83.064048	-0.007875	-8.577613
0.500000	-0.009157	-9.524693	-92.866728	82.660648	-92.866728	82.660648	-0.009291	-9.524645
0.550000	-0.010596	-10.470521	-92.379093	82.405021	-92.379093	82.405021	-0.010729	-10.470351
0.600000	-0.012046	-11.415049	-92.006827	82.332373	-92.006827	82.332373	-0.012175	-11.414766
0.650000	-0.013496	-12.358311	-91.741648	82.487560	-91.741648	82.487560	-0.013618	-12.357927
0.700000	-0.014939	-13.300340	-91.578039	82.928516	-91.578039	82.928516	-0.015051	-13.299871
0.750000	-0.016368	-14.241166	-91.512252	83.730960	-91.512252	83.730960	-0.016468	-14.240630
0.800000	-0.017779	-15.180816	-91.541241	84.994760	-91.541241	84.994760	-0.017867	-15.180231
0.850000	-0.019171	-16.119311	-91.661152	86.852132	-91.661152	86.852132	-0.019246	-16.118694
0.900000	-0.020541	-17.056665	-91.864860	89.477021	-91.864860	89.477021	-0.020605	-17.056030
0.950000	-0.021891	-17.992886	-92.137721	93.092477	-92.137721	93.092477	-0.021943	-17.992247
1.000000	-0.023221	-18.927976	-92.450558	97.966541	-92.450558	97.966541	-0.023262	-18.927344
1.050000	-0.024532	-19.861932	-92.749575	104.375093	-92.749575	104.375093	-0.024563	-19.861316
1.100000	-0.025824	-20.794747	-92.946678	112.496761	-92.946678	112.496761	-0.025847	-20.794154
1.150000	-0.027100	-21.726409	-92.922605	122.219065	-92.922605	122.219065	-0.027116	-21.725843
1.200000	-0.028361	-22.656902	-92.562117	132.937491	-92.562117	132.937491	-0.028371	-22.656367
1.250000	-0.029609	-23.586209	-91.817317	143.603214	-91.817317	143.603214	-0.029613	-23.585705
1.300000	-0.030843	-24.514254	-90.725834	153.096481	-90.725834	153.096481	-0.030845	-24.513782
1.350000	-0.032068	-25.441068	-89.427948	160.905802	-89.427948	160.905802	-0.032066	-25.440626
1.400000	-0.033283	-26.366625	-88.038654	166.999303	-88.038654	166.999303	-0.033280	-26.366212
1.450000	-0.034490	-27.290902	-86.637091	171.594502	-86.637091	171.594502	-0.034486	-27.290515
1.500000	-0.035690	-28.213871	-85.268135	174.974833	-85.268135	174.974833	-0.035686	-28.213507
1.550000	-0.036884	-29.135507	-83.953427	177.402094	-83.953427	177.402094	-0.036880	-29.135162
1.600000	-0.038073	-30.055784	-82.701147	179.089681	-82.701147	179.089681	-0.038070	-30.055454
1.650000	-0.039257	-30.974674	-81.512376	-179.797439	-81.512376	-179.797439	-0.039256	-30.974355
1.700000	-0.040439	-31.892151	-80.384745	-179.134329	-80.384745	-179.134329	-0.040439	-31.891839
1.750000	-0.041617	-32.808188	-79.314393	-178.826773	-79.314393	-178.826773	-0.041619	-32.807880
1.800000	-0.042794	-33.722759	-78.296980	-178.803440	-78.296980	-178.803440	-0.042798	-33.722451
1.850000	-0.043969	-34.635838	-77.328183	-179.009881	-77.328183	-179.009881	-0.043975	-34.635527
1.900000	-0.045143	-35.547400	-76.403932	-179.404107	-76.403932	-179.404107	-0.045151	-35.547082
1.950000	-0.046317	-36.457419	-75.520494	-179.953384	-75.520494	-179.953384	-0.046326	-36.457092
2.000000	-0.047491	-37.365872	-74.674502	179.368088	-74.674502	179.368088	-0.047502	-37.365532
2.050000	-0.048666	-38.272734	-73.862934	178.580863	-73.862934	178.580863	-0.048678	-38.272379
2.100000	-0.049842	-39.177981	-73.083092	177.701485	-73.083092	177.701485	-0.049855	-39.177610
2.150000	-0.051019	-40.081592	-72.332567	176.743396	-72.332567	176.743396	-0.051033	-40.081202
2.200000	-0.052198	-40.983544	-71.609208	175.717619	-71.609208	175.717619	-0.052213	-40.983133
2.250000	-0.053380	-41.883815	-70.911086	174.633273	-70.911086	174.633273	-0.053395	-41.883382
2.300000	-0.054564	-42.782385	-70.236476	173.497956	-70.236476	173.497956	-0.054580	-42.781929
2.350000	-0.055752	-43.679234	-69.583821	172.318053	-69.583821	172.318053	-0.055768	-43.678753
2.400000	-0.056943	-44.574341	-68.951721	171.098959	-68.951721	171.098959	-0.056959	-44.573835
2.450000	-0.058138	-45.467689	-68.338908	169.845270	-68.338908	169.845270	-0.058154	-45.467157
2.500000	-0.059337	-46.359259	-67.744232	168.560919	-67.744232	168.560919	-0.059353	-46.358701
2.550000	-0.060542	-47.248955	-67.165725	167.248245	-67.165725	167.248245	-0.060557	-47.248370
2.600000	-0.061751	-48.136837	-66.603455	165.911458	-66.603455	165.911458	-0.061766	-48.136225
2.650000	-0.062967	-49.022889	-66.056538	164.553063	-66.056538	164.553063	-0.062980	-49.022251
2.700000	-0.064188	-49.907097	-65.524164	163.175258	-65.524164	163.175258	-0.064201	-49.906431
2.750000	-0.065416	-50.789445	-65.005589	161.779971	-65.005589	161.779971	-0.065428	-50.788753
2.800000	-0.066651	-51.669920	-64.500128	160.368908	-64.500128	160.368908	-0.066661	-51.669201
2.850000	-0.067893	-52.548509	-64.007148	158.943578	-64.007148	158.943578	-0.067902	-52.547763
2.900000	-0.069143	-53.425199	-63.526064	157.505325	-63.526064	157.505325	-0.069151	-53.424426
2.950000	-0.070401	-54.299978	-63.056334	156.055347	-63.056334	156.055347	-0.070408	-54.299179
3.000000	-0.071667	-55.172835	-62.597454	154.594717	-62.597454	154.594717	-0.071673	-55.172010
3.050000	-0.072943	-56.043759	-62.148954	153.124399	-62.148954	153.124399	-0.072948	-56.042909
3.100000	-0.074229	-56.912742	-61.710397	151.645260	-61.710397	151.645260	-0.074232	-56.911866
3.150000	-0.075524	-57.779774	-61.281375	150.158084	-61.281375	150.158084	-0.075526	-57.778872
3.200000	-0.076830	-58.644846	-60.861505	148.663580	-60.861505	148.663580	-0.076830	-58.643918
3.250000	-0.078147	-59.507951	-60.450428	147.162392	-60.450428	147.162392	-0.078146	-59.506998
3.300000	-0.079475	-60.369082	-60.047809	145.655106	-60.047809	145.655106	-0.079473	-60.368104
3.350000	-0.080815	-61.228232	-59.653330	144.142257	-59.653330	144.142257	-0.080812	-61.227229
3.400000	-0.082168	-62.085396	-59.266695	142.624333	-59.266695	142.624333	-0.082164	-62.084368
3.450000	-0.083533	-62.940570	-58.887622	141.101782	-58.887622	141.101782	-0.083528	-62.939516
3.500000	-0.084912	-63.793747	-58.515846	139.575013	-58.515846	139.575013	-0.084905	-63.792668
3.550000	-0.086304	-64.644926	-58.151118	138.044404	-58.151118	138.044404	-0.086297	-64.643822
3.600000	-0.087710	-65.494103	-57.793199	136.510304	-57.793199	136.510304	-0.087703	-65.492973
3.650000	-0.089132	-66.341275	-57.441866	134.973033	-57.441866	134.973033	-0.089123	-66.340119
3.700000	-0.090568	-67.186442	-57.096905	133.432887	-57.096905	133.432887	-0.090559	-67.185260
3.750000	-0.092020	-68.029601	-56.758115	131.890142	-56.758115	131.890142	-0.092010	-68.028393
3.800000	-0.093489	-68.870666	-56.425010	130.344961	-56.425010	130.344961	-0.093479	-68.869431
3.850000	-0.094975	-69.709724	-56.097723	128.797693	-56.097723	128.797693	-0.094964	-69.708462
3.900000	-0.096478	-70.546775	-55.776078	127.248554	-55.776078	127.248554	-0.096467	-70.545486
3.950000	-0.097998	-71.381823	-55.459908	125.697748	-55.459908	125.697748	-0.097987	-71.380506
4.000000	-0.099536	-72.214868	-55.149054	124.145464	-55.149054	124.145464	-0.099525	-72.213523
4.050000	-0.101093	-73.045914	-54.843363	122.591881	-54.843363	122.591881	-0.101082	-73.044540
4.100000	-0.102669	-73.874964	-54.542690	121.037164	-54.542690	121.037164	-0.102658	-73.873561
4.150000	-0.104265	-74.702022	-54.246896	119.481469	-54.246896	119.481469	-0.104253	-74.700590
4.200000	-0.105881	-75.527094	-53.955847	117.924941	-53.955847	117.924941	-0.105869	-75.525631
4.250000	-0.107517	-76.350183	-53.669417	116.367717	-53.669417	116.367717	-0.107505	-76.348690
4.300000	-0.109174	-77.171297	-53.387484	114.809926	-53.387484	114.809926	-0.109162	-77.169773
4.350000	-0.110852	-77.990442	-53.109930	113.251689	-53.109930	113.251689	-0.110841	-77.988886
4.400000	-0.112552	-78.807624	-52.836643	111.693120	-52.836643	111.693120	-0.112541	-78.806036
4.450000	-0.114275	-79.622851	-52.567516	110.134328	-52.567516	110.134328	-0.114264	-79.621230
4.500000	-0.116020	-80.436132	-52.302445	108.575413	-52.302445	108.575413	-0.116010	-80.434478
4.550000	-0.117789	-81.247476	-52.041330	107.016471	-52.041330	107.016471	-0.117779	-81.245787
4.600000	-0.119581	-82.056890	-51.784075	105.457595	-51.784075	105.457595	-0.119572	-82.055168
4.650000	-0.121398	-82.864386	-51.530589	103.898869	-51.530589	103.898869	-0.121389	-82.862629
4.700000	-0.123239	-83.669974	-51.280783	102.340374	-51.280783	102.340374	-0.123230	-83.668181
4.750000	-0.125105	-84.473664	-51.034570	100.782190	-51.034570	100.782190	-0.125097	-84.471836
4.800000	-0.126997	-85.275469	-50.791869	99.224387	-50.791869	99.224387	-0.126989	-85.273604
4.850000	-0.128915	-86.075399	-50.552600	97.667037	-50.552600	97.667037	-0.128907	-86.073497
4.900000	-0.130859	-86.873468	-50.316687	96.110206	-50.316687	96.110206	-0.130852	-86.871529
4.950000	-0.132830	-87.669688	-50.084055	94.553955	-50.084055	94.553955	-0.132823	-87.667712
5.000000	-0.134829	-88.464073	-49.854632	92.998346	-49.854632	92.998346	-0.134822	-88.462059
5.050000	-0.136871	-89.255617	-49.626801	91.443862	-49.626801	91.443862	-0.136864	-89.253564
5.100000	-0.138913	-90.047160	-49.404794	89.889378	-49.404794	89.889378	-0.138907	-90.045069
5.150000	-0.141010	-90.835280	-49.183384	88.336443	-49.183384	88.336443	-0.141005	-90.833150
5.200000	-0.143112	-91.623088	-48.967039	86.783649	-48.967039	86.783649	-0.143107	-91.620919
5.250000	-0.145266	-92.407842	-48.751760	85.232437	-48.751760	85.232437	-0.145261	-92.405633
5.300000	-0.147430	-93.191984	-48.540869	83.681540	-48.540869	83.681540	-0.147425	-93.189735
5.350000	-0.149642	-93.973431	-48.331451	82.132208	-48.331451	82.132208	-0.149637	-93.971142
5.400000	-0.151870	-94.753979	-48.125815	80.583397	-48.125815	80.583397	-0.151865	-94.751651
5.450000	-0.154141	-95.532183	-47.922007	79.036089	-47.922007	79.036089	-0.154137	-95.529814
5.500000	-0.156435	-96.309214	-47.721440	77.489534	-47.721440	77.489534	-0.156430	-96.306806
5.550000	-0.158767	-97.084241	-47.523006	75.944383	-47.523006	75.944383	-0.158763	-97.081792
5.600000	-0.161128	-97.857835	-47.327331	74.400237	-47.327331	74.400237	-0.161124	-97.855347
5.650000	-0.163523	-98.629754	-47.134049	72.857365	-47.134049	72.857365	-0.163519	-98.627225
5.700000	-0.165953	-99.399997	-46.943098	71.315767	-46.943098	71.315767	-0.165949	-99.397428
5.750000	-0.168413	-100.168880	-46.754762	69.775282	-46.754762	69.775282	-0.168408	-100.166271
5.800000	-0.170914	-100.935858	-46.568376	68.236358	-46.568376	68.236358	-0.170909	-100.933209
5.850000	-0.173439	-101.701779	-46.384789	66.698362	-46.384789	66.698362	-0.173434	-101.699090
5.900000	-0.176013	-102.465585	-46.202817	65.162223	-46.202817	65.162223	-0.176007	-102.462857
5.950000	-0.178606	-103.228622	-46.023797	63.626805	-46.023797	63.626805	-0.178600	-103.225854
6.000000	-0.181254	-103.989351	-45.846094	62.093553	-45.846094	62.093553	-0.181247	-103.986543
6.050000	-0.183915	-104.749583	-45.671467	60.560796	-45.671467	60.560796	-0.183908	-104.746735
6.100000	-0.186639	-105.507332	-45.497897	59.030519	-45.497897	59.030519	-0.186632	-105.504446
6.150000	-0.189371	-106.264842	-45.327501	57.500496	-45.327501	57.500496	-0.189363	-106.261916
6.200000	-0.192173	-107.019714	-45.157933	55.973273	-45.157933	55.973273	-0.192165	-107.016749
6.250000	-0.194976	-107.774586	-44.991612	54.446050	-44.991612	54.446050	-0.194967	-107.771582
6.300000	-0.197857	-108.526685	-44.825923	52.921950	-44.825923	52.921950	-0.197848	-108.523643
6.350000	-0.200740	-109.278784	-44.663335	51.397849	-44.663335	51.397849	-0.200730	-109.275704
6.400000	-0.203696	-110.028440	-44.501603	49.876664	-44.501603	49.876664	-0.203686	-110.025322
6.450000	-0.206659	-110.777874	-44.342637	48.355745	-44.342637	48.355745	-0.206649	-110.774718
6.500000	-0.209691	-111.525180	-44.184722	46.837517	-44.184722	46.837517	-0.209680	-111.521986
6.550000	-0.212738	-112.272060	-44.029272	45.319827	-44.029272	45.319827	-0.212726	-112.268829
6.600000	-0.215847	-113.017109	-43.875042	43.804590	-43.875042	43.804590	-0.215835	-113.013841
6.650000	-0.218978	-113.761549	-43.723008	42.290170	-43.723008	42.290170	-0.218965	-113.758243
6.700000	-0.222166	-114.504439	-43.572338	40.777951	-43.572338	40.777951	-0.222152	-114.501096
6.750000	-0.225382	-115.246555	-43.423623	39.266833	-43.423623	39.266833	-0.225368	-115.243175
6.800000	-0.228650	-115.987384	-43.276394	37.757654	-43.276394	37.757654	-0.228635	-115.983967
6.850000	-0.231954	-116.727296	-43.130906	36.249860	-43.130906	36.249860	-0.231938	-116.723841
6.900000	-0.235302	-117.466165	-42.987007	34.743736	-42.987007	34.743736	-0.235286	-117.462674
6.950000	-0.238695	-118.203994	-42.844658	33.239280	-42.844658	33.239280	-0.238678	-118.200465
7.000000	-0.242126	-118.941007	-42.703981	31.736219	-42.703981	31.736219	-0.242108	-118.937441
7.050000	-0.245609	-119.676877	-42.564689	30.235110	-42.564689	30.235110	-0.245591	-119.673274
7.100000	-0.249123	-120.412138	-42.427135	28.735116	-42.427135	28.735116	-0.249105	-120.408497
7.150000	-0.252698	-121.146178	-42.290819	27.237351	-42.290819	27.237351	-0.252679	-121.142499
7.200000	-0.256297	-121.879793	-42.156292	25.740421	-42.156292	25.740421	-0.256277	-121.876076
7.250000	-0.259965	-122.612133	-42.022877	24.245994	-42.022877	24.245994	-0.259945	-122.608376
7.300000	-0.263650	-123.344211	-41.891287	22.752120	-41.891287	22.752120	-0.263629	-123.340416
7.350000	-0.267412	-124.074983	-41.760703	21.261015	-41.760703	21.261015	-0.267391	-124.071147
7.400000	-0.271184	-124.805635	-41.631963	19.770185	-41.631963	19.770185	-0.271162	-124.801759
7.450000	-0.275041	-125.534973	-41.504141	18.282380	-41.504141	18.282380	-0.275020	-125.531056
7.500000	-0.278901	-126.264312	-41.378173	16.794575	-41.378173	16.794575	-0.278879	-126.260353
7.550000	-0.282856	-126.992355	-41.253048	15.310043	-41.253048	15.310043	-0.282833	-126.988352
7.600000	-0.286812	-127.720398	-41.129701	13.825511	-41.129701	13.825511	-0.286789	-127.716351
7.650000	-0.290857	-128.447381	-41.007288	12.343949	-41.007288	12.343949	-0.290834	-128.443289
7.700000	-0.294912	-129.174269	-40.886505	10.862656	-40.886505	10.862656	-0.294888	-129.170131
7.750000	-0.299047	-129.900312	-40.766730	9.384032	-40.766730	9.384032	-0.299024	-129.896125
7.800000	-0.303201	-130.626186	-40.648458	7.905940	-40.648458	7.905940	-0.303178	-130.621950
7.850000	-0.307429	-131.351409	-40.531255	6.430218	-40.531255	6.430218	-0.307405	-131.347122
7.900000	-0.311683	-132.076414	-40.415443	4.955284	-40.415443	4.955284	-0.311659	-132.072075
7.950000	-0.316003	-132.800940	-40.300749	3.482424	-40.300749	3.482424	-0.315980	-132.796545
8.000000	-0.320359	-133.525225	-40.187351	2.010602	-40.187351	2.010602	-0.320335	-133.520774
8.050000	-0.324773	-134.249177	-40.075106	0.540564	-40.075106	0.540564	-0.324749	-134.244667
8.100000	-0.329230	-134.972891	-39.964077	-0.928200	-39.964077	-0.928200	-0.329206	-134.968320
8.150000	-0.333739	-135.696395	-39.854227	-2.395460	-39.854227	-2.395460	-0.333715	-135.691761
8.200000	-0.338299	-136.419691	-39.745528	-3.861217	-39.745528	-3.861217	-0.338275	-136.414989
8.250000	-0.342903	-137.142876	-39.638020	-5.325745	-39.638020	-5.325745	-0.342879	-137.138106
8.300000	-0.347567	-137.865908	-39.531614	-6.788552	-39.531614	-6.788552	-0.347543	-137.861065
8.350000	-0.352266	-138.588904	-39.426400	-8.250394	-39.426400	-8.250394	-0.352242	-138.583986
8.400000	-0.357035	-139.311829	-39.322255	-9.710308	-39.322255	-9.710308	-0.357011	-139.306831
8.450000	-0.361831	-140.034768	-39.219290	-11.169512	-39.219290	-11.169512	-0.361806	-140.029688
8.500000	-0.366704	-140.757746	-39.117374	-12.626590	-39.117374	-12.626590	-0.366680	-140.752580
8.550000	-0.371597	-141.480761	-39.016618	-14.083205	-39.016618	-14.083205	-0.371572	-141.475505
8.600000	-0.376576	-142.203956	-38.916905	-15.537504	-38.916905	-15.537504	-0.376551	-142.198604
8.650000	-0.381566	-142.927182	-38.818319	-16.991577	-38.818319	-16.991577	-0.381541	-142.921733
8.700000	-0.386651	-143.650758	-38.720786	-18.443153	-38.720786	-18.443153	-0.386625	-143.645203
8.750000	-0.391738	-144.374334	-38.624336	-19.894730	-38.624336	-19.894730	-0.391713	-144.368673
8.800000	-0.396930	-145.098458	-38.528963	-21.343638	-38.528963	-21.343638	-0.396903	-145.092681
8.850000	-0.402124	-145.822583	-38.434625	-22.792545	-38.434625	-22.792545	-0.402097	-145.816689
8.900000	-0.407413	-146.547366	-38.341385	-24.239052	-38.341385	-24.239052	-0.407385	-146.541345
8.950000	-0.412714	-147.272210	-38.249144	-25.685341	-38.249144	-25.685341	-0.412685	-147.266060
9.000000	-0.418101	-147.997797	-38.158012	-27.129486	-38.158012	-27.129486	-0.418071	-147.991508
9.050000	-0.423508	-148.723533	-38.067855	-28.573203	-38.067855	-28.573203	-0.423477	-148.717103
9.100000	-0.428994	-149.450071	-37.978807	-30.015020	-37.978807	-30.015020	-0.428961	-149.443488
9.150000	-0.434508	-150.176875	-37.890723	-31.456204	-37.890723	-31.456204	-0.434473	-150.170137
9.200000	-0.440091	-150.904510	-37.803738	-32.895722	-37.803738	-32.895722	-0.440055	-150.897606
9.250000	-0.445712	-151.632561	-37.717722	-34.334408	-37.717722	-34.334408	-0.445673	-151.625486
9.300000	-0.451393	-152.361445	-37.632782	-35.771652	-37.632782	-35.771652	-0.451352	-152.354189
9.350000	-0.457119	-153.090925	-37.548829	-37.207866	-37.548829	-37.207866	-0.457076	-153.083481
9.400000	-0.462898	-153.821211	-37.465918	-38.642853	-37.465918	-38.642853	-0.462851	-153.813569
9.450000	-0.468730	-154.552303	-37.384028	-40.076613	-37.384028	-40.076613	-0.468680	-154.544455
9.500000	-0.474606	-155.284145	-37.303133	-41.509353	-37.303133	-41.509353	-0.474552	-155.276083
9.550000	-0.480543	-156.017037	-37.223306	-42.940666	-37.223306	-42.940666	-0.480484	-156.008749
9.600000	-0.486516	-156.750593	-37.144417	-44.371163	-37.144417	-44.371163	-0.486452	-156.742072
9.650000	-0.492556	-157.485476	-37.066657	-45.800026	-37.066657	-45.800026	-0.492488	-157.476708
9.700000	-0.498625	-158.220905	-36.989766	-47.228273	-36.989766	-47.228273	-0.498551	-158.211884
9.750000	-0.504768	-158.957972	-36.914079	-48.654670	-36.914079	-48.654670	-0.504688	-158.948680
9.800000	-0.510932	-159.695436	-36.839179	-50.080652	-36.839179	-50.080652	-0.510845	-159.685870
9.850000	-0.517177	-160.434883	-36.765575	-51.504554	-36.765575	-51.504554	-0.517082	-160.425022
9.900000	-0.523434	-161.174545	-36.692662	-52.928245	-36.692662	-52.928245	-0.523332	-161.164387
9.950000	-0.529780	-161.916573	-36.621149	-54.349610	-36.621149	-54.349610	-0.529669	-161.906094
10.000000	-0.536130	-162.658601	-36.550221	-55.770974	-36.550221	-55.770974	-0.536010	-162.647800
