! freq	dB(S11)	phase(S11)	dB(S12)	phase(S12)	
!     	dB(S21)	phase(S21)	dB(S22)	phase(S22)	
!S-par simulation data
#  GHz  S  DB  R 50
0.000000	-0.000000	0.000000	-363.254704	0.000000	-363.254704	0.000000	-0.000000	0.000000
0.050000	-0.002749	-0.929557	-108.808828	88.822244	-108.808828	88.822244	-0.000337	-1.158912
0.100000	-0.004904	-1.836069	-102.811226	87.856651	-102.811226	87.856651	-0.001289	-2.316655
0.150000	-0.005915	-2.740975	-99.347296	86.898550	-99.347296	86.898550	-0.002709	-3.472414
0.200000	-0.006608	-3.646755	-96.933050	85.952365	-96.933050	85.952365	-0.004412	-4.625965
0.250000	-0.007238	-4.553036	-95.109527	85.034318	-95.109527	85.034318	-0.006250	-5.777294
0.300000	-0.007891	-5.459361	-93.664352	84.154547	-93.664352	84.154547	-0.008104	-6.926916
0.350000	-0.008596	-6.365473	-92.491416	83.326475	-92.491416	83.326475	-0.009916	-8.075058
0.400000	-0.009362	-7.271168	-91.526287	82.563418	-91.526287	82.563418	-0.011656	-9.221987
0.450000	-0.010194	-8.176296	-90.728076	81.880372	-90.728076	81.880372	-0.013316	-10.367886
0.500000	-0.011090	-9.080729	-90.069569	81.294813	-90.069569	81.294813	-0.014899	-11.512857
0.550000	-0.012048	-9.984360	-89.532084	80.827624	-89.532084	80.827624	-0.016415	-12.656941
0.600000	-0.013067	-10.887082	-89.102582	80.504233	-89.102582	80.504233	-0.017878	-13.800134
0.650000	-0.014152	-11.788785	-88.771908	80.356094	-88.771908	80.356094	-0.019300	-14.942402
0.700000	-0.015315	-12.689346	-88.533651	80.422651	-88.533651	80.422651	-0.020692	-16.083696
0.750000	-0.016591	-13.588642	-88.383307	80.753939	-88.383307	80.753939	-0.022064	-17.223953
0.800000	-0.018070	-14.486691	-88.317539	81.414035	-88.317539	81.414035	-0.023424	-18.363105
0.850000	-0.019916	-15.384427	-88.333357	82.485534	-88.333357	82.485534	-0.024778	-19.501082
0.900000	-0.022079	-16.285036	-88.426980	84.075042	-88.426980	84.075042	-0.026132	-20.637814
0.950000	-0.023756	-17.190399	-88.592067	86.319155	-88.592067	86.319155	-0.027490	-21.773233
1.000000	-0.024226	-18.093389	-88.816832	89.388845	-88.816832	89.388845	-0.028855	-22.907270
1.050000	-0.024589	-18.989246	-89.079513	93.486902	-89.079513	93.486902	-0.030228	-24.039861
1.100000	-0.025305	-19.881982	-89.341991	98.826880	-89.341991	98.826880	-0.031610	-25.170942
1.150000	-0.026240	-20.773417	-89.543073	105.574446	-89.543073	105.574446	-0.033004	-26.300455
1.200000	-0.027287	-21.663891	-89.597174	113.733560	-89.597174	113.733560	-0.034408	-27.428340
1.250000	-0.028390	-22.553413	-89.409260	122.999038	-89.409260	122.999038	-0.035822	-28.554544
1.300000	-0.029524	-23.441892	-88.895931	132.673157	-88.895931	132.673157	-0.037247	-29.678936
1.350000	-0.030674	-24.329321	-88.072910	141.853720	-88.072910	141.853720	-0.038682	-30.801541
1.400000	-0.031832	-25.215658	-87.009667	149.894930	-87.009667	149.894930	-0.040125	-31.922312
1.450000	-0.032994	-26.100870	-85.800048	156.517824	-85.800048	156.517824	-0.041575	-33.041206
1.500000	-0.034157	-26.984927	-84.526188	161.739867	-84.526188	161.739867	-0.043032	-34.158181
1.550000	-0.035319	-27.867802	-83.244974	165.730949	-83.244974	165.730949	-0.044494	-35.273198
1.600000	-0.036479	-28.749471	-81.990138	168.704146	-81.990138	168.704146	-0.045960	-36.386220
1.650000	-0.037636	-29.629912	-80.779170	170.859926	-80.779170	170.859926	-0.047429	-37.497214
1.700000	-0.038791	-30.509103	-79.619590	172.366523	-79.619590	172.366523	-0.048900	-38.606146
1.750000	-0.039942	-31.387023	-78.513283	173.357966	-78.513283	173.357966	-0.050372	-39.712987
1.800000	-0.041091	-32.263651	-77.459148	173.938653	-77.459148	173.938653	-0.051844	-40.817709
1.850000	-0.042237	-33.138967	-76.454628	174.189312	-76.454628	174.189312	-0.053315	-41.920287
1.900000	-0.043381	-34.012952	-75.496559	174.172425	-75.496559	174.172425	-0.054784	-43.020696
1.950000	-0.044524	-34.885585	-74.581621	173.936613	-74.581621	173.936613	-0.056251	-44.118914
2.000000	-0.045664	-35.756848	-73.706579	173.520003	-73.706579	173.520003	-0.057715	-45.214921
2.050000	-0.046804	-36.626722	-72.868388	172.952759	-72.868388	172.952759	-0.059176	-46.308699
2.100000	-0.047943	-37.495187	-72.064247	172.258957	-72.064247	172.258957	-0.060633	-47.400231
2.150000	-0.049083	-38.362225	-71.291598	171.457997	-71.291598	171.457997	-0.062086	-48.489501
2.200000	-0.050223	-39.227818	-70.548128	170.565646	-70.548128	170.565646	-0.063535	-49.576495
2.250000	-0.051364	-40.091948	-69.831748	169.594830	-69.831748	169.594830	-0.064980	-50.661203
2.300000	-0.052507	-40.954597	-69.140570	168.556230	-69.140570	168.556230	-0.066421	-51.743611
2.350000	-0.053652	-41.815747	-68.472892	167.458742	-68.472892	167.458742	-0.067859	-52.823711
2.400000	-0.054800	-42.675383	-67.827176	166.309826	-67.827176	166.309826	-0.069294	-53.901495
2.450000	-0.055951	-43.533486	-67.202029	165.115783	-67.202029	165.115783	-0.070726	-54.976955
2.500000	-0.057106	-44.390042	-66.596187	163.881966	-66.596187	163.881966	-0.072156	-56.050085
2.550000	-0.058265	-45.244965	-66.007567	162.611605	-66.007567	162.611605	-0.073584	-57.120779
2.600000	-0.059430	-46.098308	-65.436163	161.310285	-65.436163	161.310285	-0.075012	-58.189134
2.650000	-0.060600	-46.950056	-64.881006	159.981343	-64.881006	159.981343	-0.076440	-59.255148
2.700000	-0.061776	-47.800196	-64.341210	158.627685	-64.341210	158.627685	-0.077870	-60.318818
2.750000	-0.062958	-48.648712	-63.815963	157.251848	-63.815963	157.251848	-0.079302	-61.380145
2.800000	-0.064147	-49.495593	-63.304517	155.856060	-63.304517	155.856060	-0.080737	-62.439127
2.850000	-0.065344	-50.340826	-62.806184	154.442285	-62.806184	154.442285	-0.082176	-63.495767
2.900000	-0.066548	-51.184399	-62.320330	153.012258	-62.320330	153.012258	-0.083622	-64.550065
2.950000	-0.067761	-52.026300	-61.846367	151.567521	-61.846367	151.567521	-0.085074	-65.602026
3.000000	-0.068982	-52.866518	-61.383749	150.109448	-61.383749	150.109448	-0.086534	-66.651651
3.050000	-0.070213	-53.705044	-60.931971	148.639264	-60.931971	148.639264	-0.088003	-67.698945
3.100000	-0.071454	-54.541867	-60.490562	147.158071	-60.490562	147.158071	-0.089483	-68.743914
3.150000	-0.072705	-55.376979	-60.059082	145.666858	-60.059082	145.666858	-0.090975	-69.786564
3.200000	-0.073966	-56.210370	-59.637123	144.166516	-59.637123	144.166516	-0.092480	-70.826901
3.250000	-0.075239	-57.042034	-59.224299	142.657852	-59.224299	142.657852	-0.093999	-71.864933
3.300000	-0.076523	-57.871962	-58.820253	141.141597	-58.820253	141.141597	-0.095534	-72.900669
3.350000	-0.077818	-58.700149	-58.424646	139.618416	-58.424646	139.618416	-0.097085	-73.934118
3.400000	-0.079127	-59.526587	-58.037163	138.088915	-58.037163	138.088915	-0.098654	-74.965289
3.450000	-0.080448	-60.351272	-57.657504	136.553647	-57.657504	136.553647	-0.100242	-75.994195
3.500000	-0.081782	-61.174198	-57.285390	135.013118	-57.285390	135.013118	-0.101851	-77.020847
3.550000	-0.083130	-61.995361	-56.920555	133.467794	-56.920555	133.467794	-0.103480	-78.045258
3.600000	-0.084493	-62.814758	-56.562748	131.918101	-56.562748	131.918101	-0.105131	-79.067443
3.650000	-0.085869	-63.632385	-56.211734	130.364433	-56.211734	130.364433	-0.106806	-80.087415
3.700000	-0.087261	-64.448240	-55.867288	128.807153	-55.867288	128.807153	-0.108505	-81.105191
3.750000	-0.088669	-65.262321	-55.529197	127.246598	-55.529197	127.246598	-0.110228	-82.120788
3.800000	-0.090092	-66.074550	-55.196978	125.682965	-55.196978	125.682965	-0.111978	-83.134131
3.850000	-0.091533	-66.885002	-54.870743	124.116681	-54.870743	124.116681	-0.113755	-84.145333
3.900000	-0.092990	-67.693678	-54.550310	122.548015	-54.550310	122.548015	-0.115559	-85.154416
3.950000	-0.094464	-68.500579	-54.235503	120.977213	-54.235503	120.977213	-0.117391	-86.161400
4.000000	-0.095956	-69.305704	-53.926156	119.404509	-53.926156	119.404509	-0.119251	-87.166308
4.050000	-0.097466	-70.109057	-53.622110	117.830120	-53.622110	117.830120	-0.121139	-88.169163
4.100000	-0.098994	-70.910640	-53.323214	116.254249	-53.323214	116.254249	-0.123057	-89.169992
4.150000	-0.100542	-71.710454	-53.029323	114.677087	-53.029323	114.677087	-0.125005	-90.168819
4.200000	-0.102108	-72.508504	-52.740298	113.098813	-52.740298	113.098813	-0.126983	-91.165672
4.250000	-0.103695	-73.304793	-52.456008	111.519596	-52.456008	111.519596	-0.128992	-92.160580
4.300000	-0.105302	-74.099326	-52.176326	109.939595	-52.176326	109.939595	-0.131031	-93.153573
4.350000	-0.106930	-74.892107	-51.901130	108.358959	-51.901130	108.358959	-0.133101	-94.144680
4.400000	-0.108579	-75.683143	-51.630305	106.777829	-51.630305	106.777829	-0.135203	-95.133936
4.450000	-0.110250	-76.472440	-51.363737	105.196340	-51.363737	105.196340	-0.137336	-96.121372
4.500000	-0.111943	-77.260004	-51.101322	103.614618	-51.101322	103.614618	-0.139501	-97.107025
4.550000	-0.113658	-78.045841	-50.842954	102.032782	-50.842954	102.032782	-0.141698	-98.090929
4.600000	-0.115397	-78.829961	-50.588536	100.450945	-50.588536	100.450945	-0.143927	-99.073122
4.650000	-0.117159	-79.612371	-50.337971	98.869215	-50.337971	98.869215	-0.146188	-100.053643
4.700000	-0.118944	-80.393080	-50.091169	97.287693	-50.091169	97.287693	-0.148482	-101.032531
4.750000	-0.120755	-81.172097	-49.848040	95.706476	-49.848040	95.706476	-0.150808	-102.009827
4.800000	-0.122589	-81.949433	-49.608500	94.125655	-49.608500	94.125655	-0.153167	-102.985572
4.850000	-0.124450	-82.725096	-49.372465	92.545318	-49.372465	92.545318	-0.155559	-103.959810
4.900000	-0.126336	-83.499099	-49.139858	90.965547	-49.139858	90.965547	-0.157984	-104.932586
4.950000	-0.128248	-84.271453	-48.910601	89.386421	-48.910601	89.386421	-0.160442	-105.903945
5.000000	-0.130186	-85.042169	-48.684621	87.808013	-48.684621	87.808013	-0.162933	-106.873933
5.050000	-0.132153	-85.811191	-48.461736	86.230431	-48.461736	86.230431	-0.165460	-107.842542
5.100000	-0.134148	-86.578602	-48.241995	84.653712	-48.241995	84.653712	-0.168020	-108.809882
5.150000	-0.136170	-87.344415	-48.025330	83.077917	-48.025330	83.077917	-0.170614	-109.776002
5.200000	-0.138221	-88.108647	-47.811676	81.503106	-47.811676	81.503106	-0.173243	-110.740953
5.250000	-0.140301	-88.871310	-47.600969	79.929336	-47.600969	79.929336	-0.175907	-111.704786
5.300000	-0.142410	-89.632420	-47.393149	78.356659	-47.393149	78.356659	-0.178606	-112.667556
5.350000	-0.144549	-90.391994	-47.188155	76.785126	-47.188155	76.785126	-0.181340	-113.629315
5.400000	-0.146718	-91.150048	-46.985931	75.214784	-46.985931	75.214784	-0.184109	-114.590119
5.450000	-0.148918	-91.906599	-46.786420	73.645678	-46.786420	73.645678	-0.186915	-115.550024
5.500000	-0.151150	-92.661665	-46.589569	72.077848	-46.589569	72.077848	-0.189758	-116.509085
5.550000	-0.153412	-93.415265	-46.395324	70.511334	-46.395324	70.511334	-0.192638	-117.467360
5.600000	-0.155707	-94.167418	-46.203634	68.946171	-46.203634	68.946171	-0.195555	-118.424908
5.650000	-0.158035	-94.918145	-46.014449	67.382393	-46.014449	67.382393	-0.198510	-119.381788
5.700000	-0.160395	-95.667467	-45.827720	65.820029	-45.827720	65.820029	-0.201504	-120.338060
5.750000	-0.162789	-96.415406	-45.643401	64.259109	-45.643401	64.259109	-0.204537	-121.293785
5.800000	-0.165217	-97.161985	-45.461444	62.699657	-45.461444	62.699657	-0.207610	-122.249025
5.850000	-0.167679	-97.907229	-45.281804	61.141695	-45.281804	61.141695	-0.210723	-123.203842
5.900000	-0.170176	-98.651164	-45.104437	59.585243	-45.104437	59.585243	-0.213877	-124.158299
5.950000	-0.172709	-99.393818	-44.929299	58.030317	-44.929299	58.030317	-0.217072	-125.112462
6.000000	-0.175278	-100.135220	-44.756347	56.476930	-44.756347	56.476930	-0.220310	-126.066395
6.050000	-0.177883	-100.875403	-44.585538	54.925093	-44.585538	54.925093	-0.223590	-127.020164
6.100000	-0.180525	-101.614401	-44.416829	53.374811	-44.416829	53.374811	-0.226914	-127.973836
6.150000	-0.183205	-102.352252	-44.250180	51.826087	-44.250180	51.826087	-0.230282	-128.927479
6.200000	-0.185924	-103.088998	-44.085545	50.278918	-44.085545	50.278918	-0.233694	-129.881161
6.250000	-0.188683	-103.824687	-43.922883	48.733298	-43.922883	48.733298	-0.237151	-130.834953
6.300000	-0.191505	-104.558846	-43.761547	47.190067	-43.761547	47.190067	-0.240680	-131.789071
6.350000	-0.194327	-105.293004	-43.603154	45.646836	-43.603154	45.646836	-0.244210	-132.743189
6.400000	-0.197233	-106.025536	-43.445630	44.106424	-43.445630	44.106424	-0.247829	-133.697949
6.450000	-0.200148	-106.757920	-43.290737	42.566269	-43.290737	42.566269	-0.251456	-134.652768
6.500000	-0.203147	-107.489213	-43.136767	41.028470	-43.136767	41.028470	-0.255167	-135.608444
6.550000	-0.206165	-108.220289	-42.985128	39.491143	-42.985128	39.491143	-0.258895	-136.564292
6.600000	-0.209280	-108.950975	-42.834364	37.955547	-42.834364	37.955547	-0.262698	-137.521170
6.650000	-0.212427	-109.681532	-42.685606	36.420528	-42.685606	36.420528	-0.266528	-138.478391
6.700000	-0.215665	-110.412403	-42.538031	34.886219	-42.538031	34.886219	-0.270408	-139.436451
6.750000	-0.219030	-111.144133	-42.391252	33.352245	-42.391252	33.352245	-0.274346	-140.395535
6.800000	-0.222564	-111.877554	-42.245102	31.817562	-42.245102	31.817562	-0.278333	-141.355610
6.850000	-0.226374	-112.614037	-42.098979	30.280418	-42.098979	30.280418	-0.282364	-142.316793
6.900000	-0.230575	-113.354765	-41.952504	28.738692	-41.952504	28.738692	-0.286428	-143.279048
6.950000	-0.235863	-114.105674	-41.802719	27.181460	-41.802719	27.181460	-0.290453	-144.242950
7.000000	-0.243796	-114.874135	-41.646300	25.582066	-41.646300	25.582066	-0.294579	-145.205471
7.050000	-0.260421	-115.670254	-41.477402	23.834311	-41.477402	23.834311	-0.299020	-146.172052
7.100000	-0.305129	-116.415301	-41.322483	21.569788	-41.322483	21.569788	-0.303335	-147.140199
7.150000	-0.329222	-116.655887	-41.383469	19.494997	-41.383469	19.494997	-0.307679	-148.109878
7.200000	-0.284691	-117.255207	-41.323330	18.796089	-41.323330	18.796089	-0.312069	-149.081326
7.250000	-0.269555	-118.030611	-41.179156	17.620758	-41.179156	17.620758	-0.316506	-150.054776
7.300000	-0.265973	-118.791917	-41.038912	16.220617	-41.038912	16.220617	-0.320988	-151.030343
7.350000	-0.266475	-119.535175	-40.907379	14.729157	-40.907379	14.729157	-0.325521	-152.008550
7.400000	-0.268367	-120.268865	-40.782296	13.196800	-40.782296	13.196800	-0.330098	-152.989263
7.450000	-0.271052	-120.995624	-40.663628	11.628594	-40.663628	11.628594	-0.334726	-153.973082
7.500000	-0.274186	-121.717657	-40.552126	10.021998	-40.552126	10.021998	-0.339420	-154.960635
7.550000	-0.277626	-122.435952	-40.451825	8.357915	-40.451825	8.357915	-0.344241	-155.953587
7.600000	-0.281267	-123.151487	-40.370831	6.613555	-40.370831	6.613555	-0.349354	-156.953837
7.650000	-0.285051	-123.864301	-40.333591	4.765134	-40.333591	4.765134	-0.355407	-157.965734
7.700000	-0.288872	-124.574057	-40.387442	2.891509	-40.387442	2.891509	-0.364049	-158.993388
7.750000	-0.291963	-125.279610	-40.672081	2.575983	-40.672081	2.575983	-0.384041	-160.011102
7.800000	-0.294232	-125.996217	-40.408528	5.420195	-40.408528	5.420195	-0.399592	-160.872139
7.850000	-0.298601	-126.714130	-39.869240	3.850649	-39.869240	3.850649	-0.393151	-161.807856
7.900000	-0.303177	-127.425323	-39.623656	1.541021	-39.623656	1.541021	-0.391545	-162.812281
7.950000	-0.307620	-128.134276	-39.471493	-0.457933	-39.471493	-0.457933	-0.393633	-163.826824
8.000000	-0.312018	-128.842259	-39.347150	-2.249438	-39.347150	-2.249438	-0.397282	-164.843574
8.050000	-0.316418	-129.549675	-39.233042	-3.932739	-39.233042	-3.932739	-0.401628	-165.862070
8.100000	-0.320849	-130.256530	-39.124814	-5.533422	-39.124814	-5.533422	-0.406471	-166.883535
8.150000	-0.325312	-130.963087	-39.019159	-7.100418	-39.019159	-7.100418	-0.411516	-167.907430
8.200000	-0.329810	-131.669354	-38.915757	-8.636947	-38.915757	-8.636947	-0.416744	-168.934006
8.250000	-0.334364	-132.375278	-38.814233	-10.143309	-38.814233	-10.143309	-0.422164	-169.964958
8.300000	-0.338966	-133.080992	-38.714132	-11.632428	-38.714132	-11.632428	-0.427704	-170.999839
8.350000	-0.343609	-133.786562	-38.615318	-13.109493	-38.615318	-13.109493	-0.433333	-172.037934
8.400000	-0.348307	-134.491979	-38.517745	-14.572302	-38.517745	-14.572302	-0.439075	-173.080790
8.450000	-0.353056	-135.197306	-38.421327	-16.024221	-38.421327	-16.024221	-0.444912	-174.128144
8.500000	-0.357858	-135.902585	-38.326017	-17.466371	-38.326017	-17.466371	-0.450839	-175.180194
8.550000	-0.362711	-136.607856	-38.231774	-18.899530	-38.231774	-18.899530	-0.456855	-176.237133
8.600000	-0.367616	-137.313162	-38.138568	-20.324232	-38.138568	-20.324232	-0.462960	-177.299155
8.650000	-0.372574	-138.018540	-38.046367	-21.740833	-38.046367	-21.740833	-0.469153	-178.366453
8.700000	-0.377585	-138.724033	-37.955144	-23.149552	-37.955144	-23.149552	-0.475437	-179.439221
8.750000	-0.382649	-139.429679	-37.864873	-24.550507	-37.864873	-24.550507	-0.481813	179.482344
8.800000	-0.387768	-140.135528	-37.775526	-25.943391	-37.775526	-25.943391	-0.488289	178.397780
8.850000	-0.392941	-140.841614	-37.687076	-27.328498	-37.687076	-27.328498	-0.494862	177.307128
8.900000	-0.398166	-141.547975	-37.599497	-28.705729	-37.599497	-28.705729	-0.501539	176.210183
8.950000	-0.403446	-142.254652	-37.512762	-30.074934	-37.512762	-30.074934	-0.508322	175.106734
9.000000	-0.408779	-142.961685	-37.426843	-31.435921	-37.426843	-31.435921	-0.515218	173.996566
9.050000	-0.414166	-143.669113	-37.341713	-32.788454	-37.341713	-32.788454	-0.522231	172.879460
9.100000	-0.419607	-144.376976	-37.257343	-34.132263	-37.257343	-34.132263	-0.529368	171.755191
9.150000	-0.425102	-145.085315	-37.173706	-35.467037	-37.173706	-35.467037	-0.536636	170.623531
9.200000	-0.430651	-145.794171	-37.090773	-36.792431	-37.090773	-36.792431	-0.544043	169.484245
9.250000	-0.436254	-146.503584	-37.008517	-38.108059	-37.008517	-38.108059	-0.551597	168.337096
9.300000	-0.441911	-147.213595	-36.926908	-39.413504	-36.926908	-39.413504	-0.559306	167.181839
9.350000	-0.447622	-147.924245	-36.845921	-40.708304	-36.845921	-40.708304	-0.567181	166.018226
9.400000	-0.453388	-148.635576	-36.765528	-41.991962	-36.765528	-41.991962	-0.575232	164.846002
9.450000	-0.459207	-149.347630	-36.685704	-43.263939	-36.685704	-43.263939	-0.583471	163.664909
9.500000	-0.465081	-150.060448	-36.606425	-44.523651	-36.606425	-44.523651	-0.591910	162.474681
9.550000	-0.471010	-150.774075	-36.527669	-45.770469	-36.527669	-45.770469	-0.600563	161.275050
9.600000	-0.476992	-151.488551	-36.449417	-47.003717	-36.449417	-47.003717	-0.609443	160.065740
9.650000	-0.483029	-152.203920	-36.371652	-48.222670	-36.371652	-48.222670	-0.618567	158.846472
9.700000	-0.489120	-152.920227	-36.294364	-49.426548	-36.294364	-49.426548	-0.627951	157.616962
9.750000	-0.495265	-153.637513	-36.217544	-50.614517	-36.217544	-50.614517	-0.637613	156.376920
9.800000	-0.501464	-154.355825	-36.141192	-51.785685	-36.141192	-51.785685	-0.647572	155.126051
9.850000	-0.507717	-155.075205	-36.065315	-52.939101	-36.065315	-52.939101	-0.657848	153.864058
9.900000	-0.514024	-155.795700	-35.989927	-54.073752	-35.989927	-54.073752	-0.668462	152.590637
9.950000	-0.520385	-156.517354	-35.915054	-55.188561	-35.915054	-55.188561	-0.679439	151.305481
10.000000	-0.526799	-157.240213	-35.840732	-56.282390	-35.840732	-56.282390	-0.690803	150.008280
