! freq	dB(S11)	phase(S11)	dB(S12)	phase(S12)	
!     	dB(S21)	phase(S21)	dB(S22)	phase(S22)	
!S-par simulation data
#  GHz  S  DB  R 50
0.000000	-0.000000	0.000000	-356.097975	0.000000	-356.097975	0.000000	0.000000	0.000000
0.050000	-0.000083	-0.764848	-95.060849	4.061881	-95.060849	4.061881	-0.000124	-0.763178
0.100000	-0.000330	-1.529521	-95.085881	4.067670	-95.085881	4.067670	-0.000487	-1.525999
0.150000	-0.000737	-2.293842	-95.140667	4.942720	-95.140667	4.942720	-0.001073	-2.288121
0.200000	-0.001284	-3.057696	-95.220712	5.989474	-95.220712	5.989474	-0.001836	-3.049365
0.250000	-0.001962	-3.820945	-95.329464	7.069519	-95.329464	7.069519	-0.002744	-3.809547
0.300000	-0.002766	-4.583409	-95.474548	8.119361	-95.474548	8.119361	-0.003770	-4.568463
0.350000	-0.003660	-5.345133	-95.656143	9.113942	-95.656143	9.113942	-0.004863	-5.326294
0.400000	-0.004642	-6.105942	-95.886914	10.023859	-95.886914	10.023859	-0.006004	-6.082898
0.450000	-0.005689	-6.865872	-96.172444	10.839076	-96.172444	10.839076	-0.007164	-6.838439
0.500000	-0.006787	-7.624867	-96.526503	11.540276	-96.526503	11.540276	-0.008329	-7.592942
0.550000	-0.007922	-8.382927	-96.964170	12.111541	-96.964170	12.111541	-0.009486	-8.346495
0.600000	-0.009082	-9.140056	-97.505992	12.532415	-97.505992	12.532415	-0.010626	-9.099172
0.650000	-0.010256	-9.896271	-98.180236	12.774091	-98.180236	12.774091	-0.011746	-9.851037
0.700000	-0.011436	-10.651589	-99.027513	12.790823	-99.027513	12.790823	-0.012844	-10.602145
0.750000	-0.012614	-11.406034	-100.109492	12.501355	-100.109492	12.501355	-0.013920	-11.352539
0.800000	-0.013785	-12.159629	-101.526869	11.742289	-101.526869	11.742289	-0.014975	-12.102249
0.850000	-0.014942	-12.912259	-103.503150	9.443334	-103.503150	9.443334	-0.016008	-12.851187
0.900000	-0.016084	-13.664049	-106.421296	4.877099	-106.421296	4.877099	-0.017024	-13.599449
0.950000	-0.017218	-14.415434	-109.886560	-14.588837	-109.886560	-14.588837	-0.018033	-14.347375
1.000000	-0.018326	-15.165605	-111.567162	-78.753874	-111.567162	-78.753874	-0.019021	-15.094294
1.050000	-0.019428	-15.915513	-111.515277	-133.942086	-111.515277	-133.942086	-0.020006	-15.840986
1.100000	-0.020499	-16.664113	-105.084376	-144.246180	-105.084376	-144.246180	-0.020976	-16.586539
1.150000	-0.021568	-17.412583	-101.369457	-153.852296	-101.369457	-153.852296	-0.021945	-17.331974
1.200000	-0.022607	-18.159629	-98.296989	-155.780663	-98.296989	-155.780663	-0.022904	-18.076106
1.250000	-0.023646	-18.906676	-96.031922	-157.709030	-96.031922	-157.709030	-0.023863	-18.820239
1.300000	-0.024662	-19.652555	-94.004482	-158.849198	-94.004482	-158.849198	-0.024816	-19.563265
1.350000	-0.025667	-20.397681	-92.234285	-159.816479	-92.234285	-159.816479	-0.025768	-20.305559
1.400000	-0.026660	-21.142047	-90.653517	-160.693351	-90.653517	-160.693351	-0.026718	-21.047105
1.450000	-0.027643	-21.885643	-89.218503	-161.525215	-89.218503	-161.525215	-0.027668	-21.787885
1.500000	-0.028618	-22.628458	-87.899465	-162.338594	-87.899465	-162.338594	-0.028617	-22.527880
1.550000	-0.029586	-23.370481	-86.675188	-163.149659	-86.675188	-163.149659	-0.029567	-23.267072
1.600000	-0.030547	-24.111698	-85.530019	-163.968571	-85.530019	-163.968571	-0.030518	-24.005444
1.650000	-0.031504	-24.852095	-84.452073	-164.801827	-84.452073	-164.801827	-0.031469	-24.742978
1.700000	-0.032455	-25.591360	-83.409909	-165.661250	-83.409909	-165.661250	-0.032422	-25.479350
1.750000	-0.033405	-26.330184	-82.450378	-166.531336	-82.450378	-166.531336	-0.033375	-26.215270
1.800000	-0.034352	-27.067946	-81.521479	-167.429674	-81.521479	-167.429674	-0.034330	-26.950099
1.850000	-0.035298	-27.804950	-80.640559	-168.348192	-80.640559	-168.348192	-0.035286	-27.684148
1.900000	-0.036244	-28.541008	-79.792156	-169.292097	-79.792156	-169.292097	-0.036243	-28.417227
1.950000	-0.037190	-29.276120	-78.975021	-170.261388	-78.975021	-170.261388	-0.037203	-29.149335
2.000000	-0.038137	-30.010415	-78.192370	-171.251678	-78.192370	-171.251678	-0.038164	-29.880607
2.050000	-0.039085	-30.743564	-77.428495	-172.271365	-77.428495	-172.271365	-0.039127	-30.610706
2.100000	-0.040035	-31.476035	-76.700890	-173.307284	-76.700890	-173.307284	-0.040091	-31.340115
2.150000	-0.040989	-32.207149	-75.982519	-174.375669	-75.982519	-174.375669	-0.041059	-32.068141
2.200000	-0.041944	-32.937737	-75.301915	-175.455642	-75.301915	-175.455642	-0.042027	-32.795634
2.250000	-0.042904	-33.666746	-74.623163	-176.570381	-74.623163	-176.570381	-0.042999	-33.521525
2.300000	-0.043867	-34.395394	-73.983352	-177.692403	-73.983352	-177.692403	-0.043972	-34.247051
2.350000	-0.044836	-35.122230	-73.339637	-178.850846	-73.339637	-178.850846	-0.044949	-34.970750
2.400000	-0.045807	-35.848880	-72.735716	179.987302	-72.735716	179.987302	-0.045927	-35.694260
2.450000	-0.046787	-36.573477	-72.123398	178.787943	-72.123398	178.787943	-0.046911	-36.415709
2.500000	-0.047767	-37.298075	-71.551418	177.588584	-71.551418	177.588584	-0.047895	-37.137157
2.550000	-0.048758	-38.020372	-70.967552	176.351142	-70.967552	176.351142	-0.048886	-37.856303
2.600000	-0.049750	-38.742668	-70.420473	175.113701	-70.420473	175.113701	-0.049877	-38.575448
2.650000	-0.050753	-39.462800	-69.866442	173.843953	-69.866442	173.843953	-0.050875	-39.292436
2.700000	-0.051758	-40.182736	-69.342279	172.571269	-69.342279	172.571269	-0.051875	-40.009227
2.750000	-0.052774	-40.900657	-68.815361	171.271568	-68.815361	171.271568	-0.052882	-40.724016
2.800000	-0.053792	-41.618175	-68.312445	169.966465	-68.312445	169.966465	-0.053892	-41.438404
2.850000	-0.054821	-42.333841	-67.810332	168.639143	-67.810332	168.639143	-0.054909	-42.150956
2.900000	-0.055854	-43.048890	-67.327245	167.304415	-67.327245	167.304415	-0.055930	-42.862895
2.950000	-0.056898	-43.762259	-66.847953	165.951778	-66.847953	165.951778	-0.056959	-43.573173
3.000000	-0.057947	-44.474788	-66.383470	164.590186	-66.383470	164.590186	-0.057992	-44.282619
3.050000	-0.059005	-45.185820	-65.925280	163.214508	-65.925280	163.214508	-0.059033	-44.990587
3.100000	-0.060071	-45.895784	-65.478327	161.828770	-65.478327	161.828770	-0.060080	-45.697498
3.150000	-0.061145	-46.604445	-65.039730	160.432291	-65.039730	160.432291	-0.061136	-46.403122
3.200000	-0.062229	-47.311801	-64.609352	159.025071	-64.609352	159.025071	-0.062199	-47.107460
3.250000	-0.063320	-48.018055	-64.189011	157.609985	-64.189011	157.609985	-0.063270	-47.810709
3.300000	-0.064422	-48.722765	-63.774345	156.183887	-63.774345	156.183887	-0.064351	-48.512435
3.350000	-0.065530	-49.426581	-63.371063	154.752339	-63.371063	154.752339	-0.065439	-49.213280
3.400000	-0.066652	-50.128609	-62.971320	153.309889	-62.971320	153.309889	-0.066540	-49.912360
3.450000	-0.067779	-50.829959	-62.584018	151.863960	-62.584018	151.863960	-0.067646	-50.610771
3.500000	-0.068921	-51.529273	-62.198464	150.407593	-62.198464	150.407593	-0.068768	-51.307173
3.550000	-0.070068	-52.228129	-61.826158	148.949294	-61.826158	148.949294	-0.069894	-52.003124
3.600000	-0.071232	-52.924700	-61.454104	147.481336	-61.454104	147.481336	-0.071039	-52.696818
3.650000	-0.072399	-53.621040	-61.095895	146.012596	-61.095895	146.012596	-0.072187	-53.390285
3.700000	-0.073586	-54.314842	-60.736683	144.535249	-60.736683	144.535249	-0.073357	-54.081244
3.750000	-0.074774	-55.008644	-60.391738	143.057903	-60.391738	143.057903	-0.074528	-54.772203
3.800000	-0.075987	-55.699654	-60.044739	141.573227	-60.044739	141.573227	-0.075725	-55.460402
3.850000	-0.077200	-56.390664	-59.711073	140.088552	-59.711073	140.088552	-0.076923	-56.148600
3.900000	-0.078436	-57.079097	-59.376894	138.598904	-59.376894	138.598904	-0.078147	-56.834248
3.950000	-0.079675	-57.767296	-59.053972	137.108805	-59.053972	137.108805	-0.079373	-57.519664
4.000000	-0.080937	-58.453138	-58.731835	135.615630	-58.731835	135.615630	-0.080625	-58.202745
4.050000	-0.082203	-59.138509	-58.419139	134.121840	-58.419139	134.121840	-0.081883	-58.885358
4.100000	-0.083491	-59.821748	-58.108313	132.626447	-58.108313	132.626447	-0.083164	-59.565856
4.150000	-0.084787	-60.504276	-57.805333	131.130521	-57.805333	131.130521	-0.084454	-60.245650
4.200000	-0.086103	-61.184902	-57.505134	129.634082	-57.505134	129.634082	-0.085766	-60.923553
4.250000	-0.087430	-61.864577	-57.211372	128.137386	-57.211372	128.137386	-0.087090	-61.600512
4.300000	-0.088776	-62.542582	-56.921153	126.640926	-56.921153	126.640926	-0.088435	-62.275810
4.350000	-0.090135	-63.219394	-56.636123	125.144634	-56.636123	125.144634	-0.089795	-62.949921
4.400000	-0.091512	-63.894772	-56.355275	123.649034	-56.355275	123.649034	-0.091174	-63.622605
4.450000	-0.092906	-64.568716	-56.078503	122.154126	-56.078503	122.154126	-0.092572	-64.293860
4.500000	-0.094315	-65.241463	-55.806455	120.660122	-55.806455	120.660122	-0.093987	-64.963922
4.550000	-0.095745	-65.912534	-55.537478	119.167384	-55.537478	119.167384	-0.095424	-65.632314
4.600000	-0.097188	-66.582647	-55.273690	117.675569	-55.273690	117.675569	-0.096875	-66.299749
4.650000	-0.098657	-67.250844	-55.012063	116.185601	-55.012063	116.185601	-0.098354	-66.965273
4.700000	-0.100136	-67.918323	-54.756028	114.696430	-54.756028	114.696430	-0.099843	-67.630079
4.750000	-0.101645	-68.583646	-54.501321	113.209650	-54.501321	113.209650	-0.101364	-68.292733
4.800000	-0.103162	-69.248491	-54.252562	111.723442	-54.252562	111.723442	-0.102893	-68.954909
4.850000	-0.104713	-69.910945	-54.004365	110.240098	-54.004365	110.240098	-0.104459	-69.614693
4.900000	-0.106269	-70.573159	-53.762436	108.757047	-53.762436	108.757047	-0.106029	-70.274239
4.950000	-0.107865	-71.232747	-53.520356	107.277225	-53.520356	107.277225	-0.107640	-70.931159
5.000000	-0.109461	-71.892334	-53.284841	105.797404	-53.284841	105.797404	-0.109252	-71.588078
5.050000	-0.111104	-72.549063	-53.048509	104.321046	-53.048509	104.321046	-0.110912	-72.242137
5.100000	-0.112747	-73.205792	-52.818438	102.844687	-52.818438	102.844687	-0.112571	-72.896196
5.150000	-0.114434	-73.859909	-52.588087	101.371328	-52.588087	101.371328	-0.114275	-73.547641
5.200000	-0.116125	-74.513789	-52.363138	99.898241	-52.363138	99.898241	-0.115983	-74.198849
5.250000	-0.117859	-75.165303	-52.138406	98.427621	-52.138406	98.427621	-0.117734	-74.847689
5.300000	-0.119601	-75.816344	-51.918278	96.957496	-51.918278	96.957496	-0.119492	-75.496056
5.350000	-0.121383	-76.465266	-51.698832	95.489282	-51.698832	95.489282	-0.121290	-76.142302
5.400000	-0.123178	-77.113481	-51.483248	94.021706	-51.483248	94.021706	-0.123100	-76.787842
5.450000	-0.125009	-77.759822	-51.268786	92.555498	-51.268786	92.555498	-0.124946	-77.431507
5.500000	-0.126859	-78.405226	-51.057491	91.089974	-51.057491	91.089974	-0.126810	-78.074235
5.550000	-0.128742	-79.048999	-50.847735	89.625317	-50.847735	89.625317	-0.128706	-78.715333
5.600000	-0.130648	-79.691608	-50.640500	88.161278	-50.640500	88.161278	-0.130624	-79.355268
5.650000	-0.132584	-80.332829	-50.435203	86.697671	-50.435203	86.697671	-0.132570	-79.993816
5.700000	-0.134549	-80.972662	-50.231822	85.234497	-50.231822	85.234497	-0.134544	-80.630977
5.750000	-0.136540	-81.611346	-50.030759	83.771409	-50.030759	83.771409	-0.136542	-81.266993
5.800000	-0.138566	-82.248423	-49.831051	82.308443	-49.831051	82.308443	-0.138574	-81.901404
5.850000	-0.140613	-82.884588	-49.634025	80.845319	-49.634025	80.845319	-0.140625	-82.534907
5.900000	-0.142702	-83.518929	-49.437834	79.381883	-49.437834	79.381883	-0.142715	-83.166594
5.950000	-0.144806	-84.152593	-49.244669	77.918158	-49.244669	77.918158	-0.144820	-83.797606
6.000000	-0.146959	-84.784224	-49.051864	76.453569	-49.051864	76.453569	-0.146970	-84.426594
6.050000	-0.149123	-85.415407	-48.862405	74.988676	-48.862405	74.988676	-0.149130	-85.055138
6.100000	-0.151342	-86.044352	-48.672878	73.522263	-48.672878	73.522263	-0.151341	-85.681459
6.150000	-0.153567	-86.673076	-48.486996	72.055645	-48.486996	72.055645	-0.153557	-86.307560
6.200000	-0.155854	-87.299363	-48.300662	70.586766	-48.300662	70.586766	-0.155831	-86.931244
6.250000	-0.158141	-87.925650	-48.118243	69.117886	-48.118243	69.117886	-0.158104	-87.554928
6.300000	-0.160497	-88.549308	-47.935042	67.645938	-47.935042	67.645938	-0.160441	-88.176009
6.350000	-0.162853	-89.172965	-47.755625	66.173990	-47.755625	66.173990	-0.162779	-88.797090
6.400000	-0.165274	-89.794241	-47.575882	64.698729	-47.575882	64.698729	-0.165175	-89.415818
6.450000	-0.167701	-90.415301	-47.399431	63.223168	-47.399431	63.223168	-0.167577	-90.034333
6.500000	-0.170188	-91.034222	-47.223086	61.744202	-47.223086	61.744202	-0.170035	-90.650739
6.550000	-0.172687	-91.652717	-47.049582	60.264555	-47.049582	60.264555	-0.172503	-91.266724
6.600000	-0.175242	-92.269313	-46.876590	58.781553	-46.876590	58.781553	-0.175022	-91.880843
6.650000	-0.177814	-92.885276	-46.706034	57.297432	-46.706034	57.297432	-0.177558	-92.494338
6.700000	-0.180437	-93.499577	-46.536363	55.810137	-46.536363	55.810137	-0.180140	-93.106202
6.750000	-0.183084	-94.113047	-46.368768	54.321255	-46.368768	54.321255	-0.182745	-93.717250
6.800000	-0.185776	-94.725085	-46.202399	52.829491	-46.202399	52.829491	-0.185390	-94.326896
6.850000	-0.188499	-95.336100	-46.037792	51.335668	-46.037792	51.335668	-0.188066	-94.935539
6.900000	-0.191261	-95.945909	-45.874714	49.839346	-45.874714	49.839346	-0.190776	-95.543003
6.950000	-0.194061	-96.554510	-45.713136	48.340524	-45.713136	48.340524	-0.193523	-96.149288
7.000000	-0.196894	-97.162124	-45.553344	46.839650	-45.553344	46.839650	-0.196300	-96.754609
7.050000	-0.199772	-97.768355	-45.394840	45.335901	-45.394840	45.335901	-0.199120	-97.358582
7.100000	-0.202677	-98.373812	-45.238338	43.830580	-45.238338	43.830580	-0.201964	-97.961800
7.150000	-0.205634	-98.977718	-45.082960	42.322112	-45.082960	42.322112	-0.204858	-98.563509
7.200000	-0.208612	-99.581056	-44.929753	40.812551	-44.929753	40.812551	-0.207772	-99.164665
7.250000	-0.211648	-100.182686	-44.777553	39.299713	-44.777553	39.299713	-0.210741	-99.764161
7.300000	-0.214699	-100.783944	-44.627647	37.786228	-44.627647	37.786228	-0.213725	-100.363297
7.350000	-0.217816	-101.383348	-44.478677	36.269511	-44.478677	36.269511	-0.216772	-100.960631
7.400000	-0.220941	-101.982571	-44.332077	34.752523	-44.332077	34.752523	-0.219826	-101.557791
7.450000	-0.224140	-102.579801	-44.186382	33.232560	-44.186382	33.232560	-0.222952	-102.153018
7.500000	-0.227340	-103.177031	-44.043090	31.712596	-44.043090	31.712596	-0.226079	-102.748245
7.550000	-0.230620	-103.772144	-43.900705	30.190157	-43.900705	30.190157	-0.229286	-103.341419
7.600000	-0.233902	-104.367257	-43.760617	28.667718	-43.760617	28.667718	-0.232493	-103.934593
7.650000	-0.237259	-104.960482	-43.621666	27.143835	-43.621666	27.143835	-0.235776	-104.525937
7.700000	-0.240624	-105.553535	-43.484805	25.619820	-43.484805	25.619820	-0.239066	-105.117115
7.750000	-0.244058	-106.144924	-43.349258	24.095340	-43.349258	24.095340	-0.242425	-105.706676
7.800000	-0.247506	-106.735979	-43.215633	22.570768	-43.215633	22.570768	-0.245799	-106.295915
7.850000	-0.251017	-107.325584	-43.083445	21.046621	-43.083445	21.046621	-0.249236	-106.883744
7.900000	-0.254550	-107.914705	-42.953045	19.522614	-42.953045	19.522614	-0.252696	-107.471102
7.950000	-0.258140	-108.502582	-42.824155	17.999792	-42.824155	17.999792	-0.256214	-108.057248
8.000000	-0.261758	-109.089836	-42.696945	16.477561	-42.696945	16.477561	-0.259762	-108.642787
8.050000	-0.265427	-109.676042	-42.571277	14.957111	-42.571277	14.957111	-0.263362	-109.227300
8.100000	-0.269132	-110.261500	-42.447196	13.437933	-42.447196	13.437933	-0.266999	-109.811080
8.150000	-0.272881	-110.846096	-42.324654	11.920942	-42.324654	11.920942	-0.270683	-110.394013
8.200000	-0.276673	-111.429830	-42.203613	10.406137	-42.203613	10.406137	-0.274412	-110.976098
8.250000	-0.280503	-112.012878	-42.084083	8.893714	-42.084083	8.893714	-0.278181	-111.557503
8.300000	-0.284385	-112.594966	-41.965965	7.384624	-41.965965	7.384624	-0.282004	-112.137956
8.350000	-0.288297	-113.176532	-41.849310	5.877885	-41.849310	5.877885	-0.285860	-112.717886
8.400000	-0.292268	-113.757053	-41.733964	4.375848	-41.733964	4.375848	-0.289780	-113.296772
8.450000	-0.296264	-114.337203	-41.620030	2.875900	-41.620030	2.875900	-0.293725	-113.875282
8.500000	-0.300327	-114.916241	-41.507275	1.382221	-41.507275	1.382221	-0.297744	-114.452666
8.550000	-0.304408	-115.495046	-41.395884	-0.109856	-41.395884	-0.109856	-0.301780	-115.029811
8.600000	-0.308565	-116.072687	-41.285506	-1.593925	-41.285506	-1.593925	-0.305900	-115.605760
8.650000	-0.312732	-116.650220	-41.176462	-3.077096	-41.176462	-3.077096	-0.310030	-116.181595
8.700000	-0.316985	-117.226556	-41.068215	-4.550384	-41.068215	-4.550384	-0.314254	-116.756177
8.750000	-0.321241	-117.802892	-40.961300	-6.023673	-40.961300	-6.023673	-0.318479	-117.330758
8.800000	-0.325593	-118.378017	-40.854906	-7.485111	-40.854906	-7.485111	-0.322810	-117.904041
8.850000	-0.329947	-118.953141	-40.749800	-8.946550	-40.749800	-8.946550	-0.327142	-118.477324
8.900000	-0.334393	-119.527245	-40.645035	-10.396260	-40.645035	-10.396260	-0.331573	-119.049479
8.950000	-0.338849	-120.101256	-40.541438	-11.844904	-40.541438	-11.844904	-0.336015	-119.621532
9.000000	-0.343391	-120.674423	-40.438010	-13.282216	-40.438010	-13.282216	-0.340549	-120.192619
9.050000	-0.347952	-121.247422	-40.335592	-14.717263	-40.335592	-14.717263	-0.345103	-120.763512
9.100000	-0.352594	-121.819741	-40.233192	-16.141627	-40.233192	-16.141627	-0.349744	-121.333588
9.150000	-0.357265	-122.391833	-40.131598	-17.562432	-40.131598	-17.562432	-0.354414	-121.903392
9.200000	-0.362010	-122.963393	-40.029899	-18.973428	-40.029899	-18.973428	-0.359162	-122.472517
9.250000	-0.366794	-123.534687	-39.928745	-20.379520	-39.928745	-20.379520	-0.363952	-123.041302
9.300000	-0.371647	-124.105581	-39.827406	-21.776863	-39.827406	-21.776863	-0.368812	-123.609536
9.350000	-0.376549	-124.676190	-39.726285	-23.167958	-39.726285	-23.167958	-0.373724	-124.177375
9.400000	-0.381515	-125.246514	-39.624952	-24.551509	-39.624952	-24.551509	-0.378699	-124.744777
9.450000	-0.386542	-125.816554	-39.523430	-25.927517	-39.523430	-25.927517	-0.383736	-125.311742
9.500000	-0.391625	-126.386407	-39.421736	-27.297288	-39.421736	-27.297288	-0.388829	-125.878373
9.550000	-0.396783	-126.955997	-39.319357	-28.658328	-39.319357	-28.658328	-0.393997	-126.444536
9.600000	-0.401989	-127.525479	-39.216920	-30.014490	-39.216920	-30.014490	-0.399210	-127.010457
9.650000	-0.407287	-128.094744	-39.113203	-31.360894	-39.113203	-31.360894	-0.404511	-127.575892
9.700000	-0.412622	-128.663959	-39.009629	-32.703780	-39.009629	-32.703780	-0.409849	-128.141163
9.750000	-0.418067	-129.233024	-38.904070	-34.036109	-38.904070	-34.036109	-0.415288	-128.705943
9.800000	-0.423539	-129.802078	-38.798954	-35.366224	-38.798954	-35.366224	-0.420754	-129.270626
9.850000	-0.429140	-130.371073	-38.691020	-36.685273	-38.691020	-36.685273	-0.426335	-129.834824
9.900000	-0.434758	-130.940075	-38.583943	-38.003303	-38.583943	-38.003303	-0.431932	-130.398980
9.950000	-0.440525	-131.509134	-38.473076	-39.310120	-38.473076	-39.310120	-0.437660	-130.962671
10.000000	-0.446297	-132.078193	-38.363606	-40.616936	-38.363606	-40.616936	-0.443392	-131.526362
