! freq	dB(S11)	phase(S11)	dB(S12)	phase(S12)	
!     	dB(S21)	phase(S21)	dB(S22)	phase(S22)	
!S-par simulation data
#  GHz  S  DB  R 50
0.000000	-0.000000	0.000000	-379.546632	0.000000	-379.546632	0.000000	-0.000000	0.000000
0.050000	-0.000113	-1.018638	-113.714514	84.164744	-113.714514	84.164744	-0.000100	-0.760815
0.100000	-0.000448	-2.037016	-108.317162	81.751110	-108.317162	81.751110	-0.000394	-1.521384
0.150000	-0.000995	-3.054889	-105.285179	81.219656	-105.285179	81.219656	-0.000871	-2.281483
0.200000	-0.001736	-4.072042	-103.153340	81.183347	-103.153340	81.183347	-0.001509	-3.040929
0.250000	-0.002664	-5.088223	-101.531057	81.199443	-101.531057	81.199443	-0.002293	-3.799520
0.300000	-0.003738	-6.103357	-100.247174	81.181978	-100.247174	81.181978	-0.003187	-4.557231
0.350000	-0.004945	-7.117284	-99.220436	81.147108	-99.220436	81.147108	-0.004170	-5.313967
0.400000	-0.006258	-8.129908	-98.400417	81.135439	-98.400417	81.135439	-0.005220	-6.069700
0.450000	-0.007658	-9.141165	-97.755313	81.196111	-97.755313	81.196111	-0.006318	-6.824433
0.500000	-0.009121	-10.151015	-97.264640	81.384154	-97.264640	81.384154	-0.007444	-7.578185
0.550000	-0.010629	-11.159441	-96.915429	81.763547	-96.915429	81.763547	-0.008586	-8.330992
0.600000	-0.012166	-12.166438	-96.700003	82.413028	-96.700003	82.413028	-0.009733	-9.082894
0.650000	-0.013719	-13.172015	-96.614433	83.434600	-96.614433	83.434600	-0.010877	-9.833932
0.700000	-0.015275	-14.176186	-96.657103	84.965770	-96.657103	84.965770	-0.012013	-10.584146
0.750000	-0.016826	-15.178967	-96.826665	87.197047	-96.826665	87.197047	-0.013136	-11.333572
0.800000	-0.018366	-16.180376	-97.118221	90.395600	-97.118221	90.395600	-0.014245	-12.082239
0.850000	-0.019889	-17.180429	-97.515530	94.931065	-97.515530	94.931065	-0.015338	-12.830171
0.900000	-0.021392	-18.179139	-97.975646	101.281734	-97.975646	101.281734	-0.016417	-13.577385
0.950000	-0.022874	-19.176515	-98.403389	109.954441	-98.403389	109.954441	-0.017480	-14.323896
1.000000	-0.024332	-20.172561	-98.626876	121.198264	-98.626876	121.198264	-0.018530	-15.069709
1.050000	-0.025768	-21.167277	-98.422453	134.489461	-98.422453	134.489461	-0.019566	-15.814827
1.100000	-0.027180	-22.160661	-97.642453	148.235319	-97.642453	148.235319	-0.020591	-16.559250
1.150000	-0.028571	-23.152703	-96.348279	160.484592	-96.348279	160.484592	-0.021605	-17.302974
1.200000	-0.029941	-24.143392	-94.753246	170.158097	-94.753246	170.158097	-0.022609	-18.045992
1.250000	-0.031292	-25.132712	-93.059314	177.262839	-93.059314	177.262839	-0.023606	-18.788295
1.300000	-0.032625	-26.120584	-91.376578	-177.769988	-91.376578	-177.769988	-0.024594	-19.529840
1.350000	-0.033941	-27.107047	-89.773121	-174.305987	-89.773121	-174.305987	-0.025576	-20.270646
1.400000	-0.035243	-28.092077	-88.264520	-171.940376	-88.264520	-171.940376	-0.026553	-21.010699
1.450000	-0.036532	-29.075650	-86.850788	-170.381097	-86.850788	-170.381097	-0.027525	-21.749985
1.500000	-0.037809	-30.057739	-85.525763	-169.421702	-85.525763	-169.421702	-0.028494	-22.488491
1.550000	-0.039077	-31.038318	-84.281372	-168.916096	-84.281372	-168.916096	-0.029459	-23.226199
1.600000	-0.040336	-32.017359	-83.109448	-168.759749	-83.109448	-168.759749	-0.030421	-23.963096
1.650000	-0.041588	-32.994833	-82.002440	-168.876731	-82.002440	-168.876731	-0.031381	-24.699165
1.700000	-0.042834	-33.970712	-80.953626	-169.210968	-80.953626	-169.210968	-0.032340	-25.434391
1.750000	-0.044075	-34.944966	-79.957127	-169.720359	-79.957127	-169.720359	-0.033297	-26.168757
1.800000	-0.045312	-35.917568	-79.007835	-170.372795	-79.007835	-170.372795	-0.034254	-26.902249
1.850000	-0.046546	-36.888489	-78.101320	-171.143422	-78.101320	-171.143422	-0.035210	-27.634850
1.900000	-0.047778	-37.857700	-77.233730	-172.012733	-77.233730	-172.012733	-0.036166	-28.366545
1.950000	-0.049010	-38.825173	-76.401710	-172.965226	-76.401710	-172.965226	-0.037122	-29.097318
2.000000	-0.050241	-39.790882	-75.602325	-173.988435	-75.602325	-173.988435	-0.038079	-29.827154
2.050000	-0.051472	-40.754800	-74.832996	-175.072229	-74.832996	-175.072229	-0.039037	-30.556038
2.100000	-0.052704	-41.716900	-74.091445	-176.208292	-74.091445	-176.208292	-0.039996	-31.283955
2.150000	-0.053939	-42.677157	-73.375655	-177.389735	-73.375655	-177.389735	-0.040957	-32.010890
2.200000	-0.055175	-43.635546	-72.683828	-178.610805	-72.683828	-178.610805	-0.041919	-32.736829
2.250000	-0.056414	-44.592045	-72.014359	-179.866659	-72.014359	-179.866659	-0.042884	-33.461758
2.300000	-0.057657	-45.546629	-71.365804	178.846811	-71.365804	178.846811	-0.043851	-34.185662
2.350000	-0.058904	-46.499276	-70.736864	177.533109	-70.736864	177.533109	-0.044820	-34.908527
2.400000	-0.060155	-47.449966	-70.126364	176.195248	-70.126364	176.195248	-0.045793	-35.630341
2.450000	-0.061411	-48.398677	-69.533236	174.835826	-69.533236	174.835826	-0.046769	-36.351089
2.500000	-0.062673	-49.345391	-68.956510	173.457105	-68.956510	173.457105	-0.047748	-37.070758
2.550000	-0.063940	-50.290000	-68.394400	172.060384	-68.394400	172.060384	-0.048732	-37.789288
2.600000	-0.065214	-51.232574	-67.847083	170.648202	-67.847083	170.648202	-0.049720	-38.506713
2.650000	-0.066494	-52.173096	-67.313802	169.222058	-67.313802	169.222058	-0.050713	-39.223021
2.700000	-0.067781	-53.111550	-66.793860	167.783282	-66.793860	167.783282	-0.051710	-39.938199
2.750000	-0.069076	-54.047921	-66.286617	166.333056	-66.286617	166.333056	-0.052713	-40.652236
2.800000	-0.070379	-54.982197	-65.791478	164.872436	-65.791478	164.872436	-0.053721	-41.365120
2.850000	-0.071690	-55.914363	-65.307892	163.402366	-65.307892	163.402366	-0.054735	-42.076840
2.900000	-0.073009	-56.844408	-64.835348	161.923695	-64.835348	161.923695	-0.055755	-42.787384
2.950000	-0.074338	-57.772322	-64.373369	160.437190	-64.373369	160.437190	-0.056782	-43.496743
3.000000	-0.075676	-58.698093	-63.921512	158.943543	-63.921512	158.943543	-0.057816	-44.204906
3.050000	-0.077025	-59.621712	-63.479362	157.443379	-63.479362	157.443379	-0.058857	-44.911862
3.100000	-0.078383	-60.543172	-63.046529	155.937269	-63.046529	155.937269	-0.059906	-45.617602
3.150000	-0.079753	-61.462464	-62.622651	154.425732	-62.622651	154.425732	-0.060962	-46.322116
3.200000	-0.081133	-62.379583	-62.207384	152.909242	-62.207384	152.909242	-0.062027	-47.025395
3.250000	-0.082526	-63.294523	-61.800408	151.388232	-61.800408	151.388232	-0.063101	-47.727429
3.300000	-0.083930	-64.207278	-61.401419	149.863100	-61.401419	149.863100	-0.064183	-48.428211
3.350000	-0.085347	-65.117846	-61.010132	148.334210	-61.010132	148.334210	-0.065275	-49.127731
3.400000	-0.086777	-66.026222	-60.626277	146.801900	-60.626277	146.801900	-0.066376	-49.825981
3.450000	-0.088220	-66.932405	-60.249598	145.266478	-60.249598	145.266478	-0.067488	-50.522954
3.500000	-0.089678	-67.836394	-59.879854	143.728232	-59.879854	143.728232	-0.068610	-51.218642
3.550000	-0.091150	-68.738187	-59.516816	142.187426	-59.516816	142.187426	-0.069743	-51.913038
3.600000	-0.092636	-69.637785	-59.160268	140.644306	-59.160268	140.644306	-0.070887	-52.606134
3.650000	-0.094138	-70.535190	-58.810002	139.099098	-58.810002	139.099098	-0.072042	-53.297925
3.700000	-0.095656	-71.430403	-58.465822	137.552015	-58.465822	137.552015	-0.073210	-53.988403
3.750000	-0.097190	-72.323426	-58.127542	136.003254	-58.127542	136.003254	-0.074390	-54.677563
3.800000	-0.098742	-73.214169	-57.794680	134.452940	-57.794680	134.452940	-0.075582	-55.365342
3.850000	-0.100311	-74.102731	-57.467393	132.901316	-57.467393	132.901316	-0.076788	-56.051790
3.900000	-0.101898	-74.989117	-57.145516	131.348540	-57.145516	131.348540	-0.078008	-56.736904
3.950000	-0.103504	-75.873333	-56.828894	129.794760	-56.828894	129.794760	-0.079241	-57.420678
4.000000	-0.105128	-76.755385	-56.517377	128.240114	-56.517377	128.240114	-0.080488	-58.103108
4.050000	-0.106772	-77.635282	-56.210824	126.684731	-56.210824	126.684731	-0.081749	-58.784189
4.100000	-0.108435	-78.513030	-55.909097	125.128734	-55.909097	125.128734	-0.083026	-59.463918
4.150000	-0.110119	-79.388639	-55.612066	123.572235	-55.612066	123.572235	-0.084318	-60.142292
4.200000	-0.111824	-80.262118	-55.319606	122.015342	-55.319606	122.015342	-0.085625	-60.819306
4.250000	-0.113550	-81.133478	-55.031597	120.458156	-55.031597	120.458156	-0.086949	-61.494959
4.300000	-0.115298	-82.002729	-54.747924	118.900771	-54.747924	118.900771	-0.088289	-62.169247
4.350000	-0.117068	-82.869883	-54.468475	117.343276	-54.468475	117.343276	-0.089645	-62.842168
4.400000	-0.118861	-83.734952	-54.193145	115.785755	-54.193145	115.785755	-0.091019	-63.513720
4.450000	-0.120678	-84.597948	-53.921831	114.228287	-53.921831	114.228287	-0.092410	-64.183902
4.500000	-0.122518	-85.458887	-53.654436	112.670946	-53.654436	112.670946	-0.093819	-64.852711
4.550000	-0.124383	-86.317780	-53.390864	111.113802	-53.390864	111.113802	-0.095247	-65.520147
4.600000	-0.126273	-87.174645	-53.131024	109.556923	-53.131024	109.556923	-0.096693	-66.186209
4.650000	-0.128189	-88.029495	-52.874828	108.000371	-52.874828	108.000371	-0.098158	-66.850896
4.700000	-0.130130	-88.882347	-52.622193	106.444205	-52.622193	106.444205	-0.099642	-67.514208
4.750000	-0.132097	-89.733217	-52.373035	104.888481	-52.373035	104.888481	-0.101147	-68.176145
4.800000	-0.134092	-90.582124	-52.127277	103.333252	-52.127277	103.333252	-0.102671	-68.836708
4.850000	-0.136114	-91.429084	-51.884843	101.778569	-51.884843	101.778569	-0.104216	-69.495896
4.900000	-0.138163	-92.274116	-51.645659	100.224480	-51.645659	100.224480	-0.105782	-70.153711
4.950000	-0.140241	-93.117239	-51.409653	98.671029	-51.409653	98.671029	-0.107369	-70.810154
5.000000	-0.142348	-93.958473	-51.176759	97.118260	-51.176759	97.118260	-0.108978	-71.465227
5.050000	-0.144485	-94.797758	-50.946777	95.566246	-50.946777	95.566246	-0.110611	-72.118871
5.100000	-0.146652	-95.635196	-50.719784	94.014997	-50.719784	94.014997	-0.112265	-72.771148
5.150000	-0.148849	-96.470808	-50.495717	92.464548	-50.495717	92.464548	-0.113943	-73.422060
5.200000	-0.151077	-97.304618	-50.274516	90.914936	-50.274516	90.914936	-0.115644	-74.071611
5.250000	-0.153336	-98.136647	-50.056121	89.366193	-50.056121	89.366193	-0.117368	-74.719802
5.300000	-0.155627	-98.966917	-49.840478	87.818351	-49.840478	87.818351	-0.119117	-75.366637
5.350000	-0.157949	-99.795453	-49.627529	86.271440	-49.627529	86.271440	-0.120890	-76.012120
5.400000	-0.160304	-100.622279	-49.417223	84.725489	-49.417223	84.725489	-0.122688	-76.656253
5.450000	-0.162703	-101.446844	-49.208687	83.180882	-49.208687	83.180882	-0.124520	-77.298574
5.500000	-0.165120	-102.270537	-49.003833	81.636798	-49.003833	81.636798	-0.126365	-77.940195
5.550000	-0.167578	-103.092253	-48.800977	80.093992	-48.800977	80.093992	-0.128242	-78.580191
5.600000	-0.170065	-103.912555	-48.600850	78.552098	-48.600850	78.552098	-0.130142	-79.219025
5.650000	-0.172588	-104.731219	-48.403034	77.011350	-48.403034	77.011350	-0.132071	-79.856477
5.700000	-0.175148	-105.548246	-48.207476	75.471746	-48.207476	75.471746	-0.134027	-80.492546
5.750000	-0.177738	-106.363956	-48.014500	73.933136	-48.014500	73.933136	-0.136008	-81.127472
5.800000	-0.180372	-107.177826	-47.823359	72.395915	-47.823359	72.395915	-0.138022	-81.760798
5.850000	-0.183031	-107.990685	-47.635036	70.859518	-47.635036	70.859518	-0.140057	-82.393219
5.900000	-0.185740	-108.801522	-47.448170	69.324766	-47.448170	69.324766	-0.142131	-83.023827
5.950000	-0.188469	-109.611632	-47.264322	67.790651	-47.264322	67.790651	-0.144220	-83.653764
6.000000	-0.191256	-110.419565	-47.081593	66.258447	-47.081593	66.258447	-0.146356	-84.281683
6.050000	-0.194056	-111.227035	-46.902054	64.726679	-46.902054	64.726679	-0.148502	-84.909158
6.100000	-0.196921	-112.032195	-46.723334	63.197094	-46.723334	63.197094	-0.150701	-85.534416
6.150000	-0.199794	-112.837135	-46.547946	61.667732	-46.547946	61.667732	-0.152906	-86.159455
6.200000	-0.202739	-113.639658	-46.373111	60.140833	-46.373111	60.140833	-0.155169	-86.782083
6.250000	-0.205686	-114.442181	-46.201725	58.613934	-46.201725	58.613934	-0.157433	-87.404712
6.300000	-0.208713	-115.242209	-46.030657	57.089783	-46.030657	57.089783	-0.159763	-88.024744
6.350000	-0.211741	-116.042236	-45.862894	55.565632	-45.862894	55.565632	-0.162094	-88.644775
6.400000	-0.214844	-116.840107	-45.695720	54.044051	-45.695720	54.044051	-0.164486	-89.262459
6.450000	-0.217955	-117.637781	-45.531473	52.522703	-45.531473	52.522703	-0.166885	-89.879929
6.500000	-0.221136	-118.433619	-45.368059	51.003736	-45.368059	51.003736	-0.169342	-90.495295
6.550000	-0.224331	-119.229090	-45.207228	49.485245	-45.207228	49.485245	-0.171810	-91.110240
6.600000	-0.227590	-120.023021	-45.047444	47.968931	-45.047444	47.968931	-0.174332	-91.723321
6.650000	-0.230871	-120.816439	-44.889933	46.453342	-44.889933	46.453342	-0.176873	-92.335780
6.700000	-0.234209	-121.608592	-44.733658	44.939718	-44.733658	44.939718	-0.179462	-92.946608
6.750000	-0.237576	-122.400112	-44.579374	43.427074	-44.579374	43.427074	-0.182075	-93.556620
6.800000	-0.240995	-123.190619	-44.426491	41.916171	-44.426491	41.916171	-0.184732	-94.165230
6.850000	-0.244450	-123.980401	-44.275347	40.406511	-44.275347	40.406511	-0.187420	-94.772838
6.900000	-0.247950	-124.769396	-44.125746	38.898358	-44.125746	38.898358	-0.190147	-95.379266
6.950000	-0.251494	-125.557603	-43.977655	37.391713	-43.977655	37.391713	-0.192912	-95.984513
7.000000	-0.255076	-126.345223	-43.831231	35.886337	-43.831231	35.886337	-0.195710	-96.588796
7.050000	-0.258710	-127.132022	-43.686112	34.382735	-43.686112	34.382735	-0.198553	-97.191727
7.100000	-0.262375	-127.918408	-43.542765	32.880155	-43.542765	32.880155	-0.201422	-97.793902
7.150000	-0.266099	-128.703968	-43.400540	31.379619	-43.400540	31.379619	-0.204345	-98.394564
7.200000	-0.269848	-129.489262	-43.260175	29.879853	-43.260175	29.879853	-0.207289	-98.994671
7.250000	-0.273664	-130.273758	-43.120767	28.382399	-43.120767	28.382399	-0.210293	-99.593112
7.300000	-0.277497	-131.058106	-42.983292	26.885460	-42.983292	26.885460	-0.213311	-100.191191
7.350000	-0.281406	-131.841716	-42.846630	25.391099	-42.846630	25.391099	-0.216398	-100.787460
7.400000	-0.285324	-132.625267	-42.711958	23.896997	-42.711958	23.896997	-0.219492	-101.383553
7.450000	-0.289326	-133.408171	-42.577970	22.405734	-42.577970	22.405734	-0.222664	-101.977702
7.500000	-0.293330	-134.191076	-42.446019	20.914471	-42.446019	20.914471	-0.225836	-102.571850
7.550000	-0.297426	-134.973461	-42.314639	19.426304	-42.314639	19.426304	-0.229093	-103.163931
7.600000	-0.301523	-135.755846	-42.185217	17.938137	-42.185217	17.938137	-0.232351	-103.756011
7.650000	-0.305706	-136.537928	-42.056491	16.452800	-42.056491	16.452800	-0.235688	-104.346246
7.700000	-0.309898	-137.319982	-41.929537	14.967721	-41.929537	14.967721	-0.239034	-104.936312
7.750000	-0.314168	-138.101921	-41.803388	13.485201	-41.803388	13.485201	-0.242452	-105.524745
7.800000	-0.318456	-138.883838	-41.678843	12.003193	-41.678843	12.003193	-0.245887	-106.112852
7.850000	-0.322814	-139.665798	-41.555198	10.523472	-41.555198	10.523472	-0.249388	-106.699532
7.900000	-0.327197	-140.447774	-41.433006	9.044513	-41.433006	9.044513	-0.252913	-107.285737
7.950000	-0.331643	-141.229922	-41.311795	7.567565	-41.311795	7.567565	-0.256498	-107.870711
8.000000	-0.336122	-142.012158	-41.191900	6.091624	-41.191900	6.091624	-0.260114	-108.455071
8.050000	-0.340657	-142.794664	-41.073056	4.617420	-41.073056	4.617420	-0.263784	-109.038389
8.100000	-0.345232	-143.577363	-40.955407	3.144457	-40.955407	3.144457	-0.267493	-109.620963
8.150000	-0.349856	-144.360399	-40.838867	1.672959	-40.838867	1.672959	-0.271249	-110.202675
8.200000	-0.354528	-145.143772	-40.723413	0.202928	-40.723413	0.202928	-0.275052	-110.783524
8.250000	-0.359241	-145.927513	-40.609116	-1.265906	-40.609116	-1.265906	-0.278895	-111.363680
8.300000	-0.364010	-146.711772	-40.495810	-2.733062	-40.495810	-2.733062	-0.282793	-111.942865
8.350000	-0.368812	-147.496398	-40.383699	-4.199280	-40.383699	-4.199280	-0.286724	-112.521518
8.400000	-0.373678	-148.281759	-40.272495	-5.663624	-40.272495	-5.663624	-0.290719	-113.099103
8.450000	-0.378569	-149.067451	-40.162515	-7.127283	-40.162515	-7.127283	-0.294740	-113.676305
8.500000	-0.383532	-149.854136	-40.053372	-8.588888	-40.053372	-8.588888	-0.298832	-114.252354
8.550000	-0.388513	-150.641080	-39.945472	-10.050050	-39.945472	-10.050050	-0.302943	-114.828159
8.600000	-0.393573	-151.429314	-39.838348	-11.508996	-39.838348	-11.508996	-0.307134	-115.402738
8.650000	-0.398643	-152.217697	-39.732479	-12.967729	-39.732479	-12.967729	-0.311335	-115.977201
8.700000	-0.403800	-153.007711	-39.627338	-14.424107	-39.627338	-14.424107	-0.315626	-116.550377
8.750000	-0.408960	-153.797725	-39.523454	-15.880485	-39.523454	-15.880485	-0.319919	-117.123553
8.800000	-0.414213	-154.589753	-39.420259	-17.334391	-39.420259	-17.334391	-0.324311	-117.695394
8.850000	-0.419469	-155.381781	-39.318277	-18.788298	-39.318277	-18.788298	-0.328705	-118.267236
8.900000	-0.424811	-156.175873	-39.217038	-20.240036	-39.217038	-20.240036	-0.333190	-118.837917
8.950000	-0.430164	-156.970154	-39.116927	-21.691576	-39.116927	-21.691576	-0.337686	-119.408493
9.000000	-0.435595	-157.766514	-39.017605	-23.141240	-39.017605	-23.141240	-0.342265	-119.978073
9.050000	-0.441043	-158.563290	-38.919337	-24.590528	-38.919337	-24.590528	-0.346863	-120.547455
9.100000	-0.446562	-159.362125	-38.821897	-26.038216	-38.821897	-26.038216	-0.351537	-121.115994
9.150000	-0.452106	-160.161646	-38.725447	-27.485370	-38.725447	-27.485370	-0.356239	-121.684253
9.200000	-0.457711	-160.963165	-38.629855	-28.931187	-38.629855	-28.931187	-0.361008	-122.251813
9.250000	-0.463350	-161.765683	-38.535203	-30.376335	-38.535203	-30.376335	-0.365813	-122.819024
9.300000	-0.469043	-162.570099	-38.441428	-31.820389	-38.441428	-31.820389	-0.370678	-123.385666
9.350000	-0.474775	-163.375873	-38.348555	-33.263662	-38.348555	-33.263662	-0.375588	-123.951903
9.400000	-0.480554	-164.183404	-38.256572	-34.706066	-38.256572	-34.706066	-0.380550	-124.517691
9.450000	-0.486379	-164.992695	-38.165463	-36.147600	-38.165463	-36.147600	-0.385564	-125.083031
9.500000	-0.492243	-165.803563	-38.075248	-37.588468	-38.075248	-37.588468	-0.390622	-125.648029
9.550000	-0.498160	-166.616640	-37.985890	-39.028404	-37.985890	-39.028404	-0.395742	-126.212549
9.600000	-0.504109	-167.431069	-37.897423	-40.467855	-37.897423	-40.467855	-0.400897	-126.776823
9.650000	-0.510116	-168.248203	-37.809808	-41.906335	-37.809808	-41.906335	-0.406122	-127.340603
9.700000	-0.516148	-169.066421	-37.723071	-43.344488	-37.723071	-43.344488	-0.411375	-127.904219
9.750000	-0.522244	-169.887892	-37.637196	-44.781657	-37.637196	-44.781657	-0.416706	-128.467340
9.800000	-0.528358	-170.710132	-37.552174	-46.218631	-37.552174	-46.218631	-0.422056	-129.030364
9.850000	-0.534541	-171.536221	-37.468038	-47.654633	-37.468038	-47.654633	-0.427492	-129.592908
9.900000	-0.540736	-172.362719	-37.384721	-49.090550	-37.384721	-49.090550	-0.432940	-130.155411
9.950000	-0.547005	-173.193715	-37.302326	-50.525527	-37.302326	-50.525527	-0.438482	-130.717463
10.000000	-0.553279	-174.024711	-37.220706	-51.960505	-37.220706	-51.960505	-0.444028	-131.279514
