! freq	dB(S11)	phase(S11)	dB(S12)	phase(S12)	
!     	dB(S21)	phase(S21)	dB(S22)	phase(S22)	
!S-par simulation data
#  GHz  S  DB  R 50
0.000000	-82.469693	0.000000	-0.000654	0.000000	-0.000654	0.000000	-82.469693	0.000000
0.050000	-35.384984	-92.800739	-0.007705	-3.412886	-0.007705	-3.412886	-35.384470	-93.018997
0.100000	-29.417822	-96.290969	-0.018167	-6.775154	-0.018167	-6.775154	-29.418060	-96.742304
0.150000	-25.936752	-99.740893	-0.029193	-10.124219	-0.029193	-10.124219	-25.936869	-100.420578
0.200000	-23.475009	-103.127586	-0.042110	-13.467800	-0.042110	-13.467800	-23.474913	-104.033005
0.250000	-21.572660	-106.464173	-0.057205	-16.806056	-0.057205	-16.806056	-21.572335	-107.595217
0.300000	-20.025761	-109.762404	-0.074574	-20.138295	-0.074574	-20.138295	-20.025188	-111.119902
0.350000	-18.724936	-113.033524	-0.094116	-23.464451	-0.094116	-23.464451	-18.724110	-114.618581
0.400000	-17.604918	-116.284803	-0.115725	-26.784642	-0.115725	-26.784642	-17.603844	-118.098510
0.450000	-16.624303	-119.520158	-0.139414	-30.098663	-0.139414	-30.098663	-16.622990	-121.563553
0.500000	-15.753860	-122.743136	-0.165019	-33.406825	-0.165019	-33.406825	-15.752318	-125.017103
0.550000	-14.973684	-125.954918	-0.192554	-36.708824	-0.192554	-36.708824	-14.971919	-128.460296
0.600000	-14.268756	-129.156528	-0.221957	-40.004525	-0.221957	-40.004525	-14.266769	-131.894102
0.650000	-13.626878	-132.349145	-0.253052	-43.294205	-0.253052	-43.294205	-13.624672	-135.319631
0.700000	-13.039289	-135.533004	-0.285789	-46.577678	-0.285789	-46.577678	-13.036865	-138.737129
0.750000	-12.499420	-138.707888	-0.320164	-49.854521	-0.320164	-49.854521	-12.496773	-142.146438
0.800000	-12.000247	-141.875009	-0.355928	-53.125451	-0.355928	-53.125451	-11.997377	-145.548711
0.850000	-11.538726	-145.033153	-0.393207	-56.389392	-0.393207	-56.389392	-11.535627	-148.942914
0.900000	-11.108919	-148.184105	-0.431678	-59.647640	-0.431678	-59.647640	-11.105591	-152.330713
0.950000	-10.709092	-151.326769	-0.471435	-62.899255	-0.471435	-62.899255	-10.705531	-155.711215
1.000000	-10.335064	-154.462464	-0.512255	-66.145249	-0.512255	-66.145249	-10.331270	-159.085656
1.050000	-9.985018	-157.590975	-0.554120	-69.385426	-0.554120	-69.385426	-9.980987	-162.453939
1.100000	-9.656574	-160.712829	-0.596933	-72.620203	-0.596933	-72.620203	-9.652306	-165.816606
1.150000	-9.347499	-163.828712	-0.640592	-75.850150	-0.640592	-75.850150	-9.342995	-169.174331
1.200000	-9.056815	-166.938550	-0.685087	-79.075233	-0.685087	-79.075233	-9.052075	-172.527167
1.250000	-8.781869	-170.043708	-0.730274	-82.296591	-0.730274	-82.296591	-8.776895	-175.876321
1.300000	-8.522762	-173.143770	-0.776197	-85.513963	-0.776197	-85.513963	-8.517555	-179.221615
1.350000	-8.276835	-176.240292	-0.822720	-88.728645	-0.822720	-88.728645	-8.271401	177.435634
1.400000	-8.043945	-179.333390	-0.869864	-91.940839	-0.869864	-91.940839	-8.038287	174.095161
1.450000	-7.822492	177.575933	-0.917568	-95.151413	-0.917568	-95.151413	-7.816618	170.756091
1.500000	-7.611763	174.487007	-0.965823	-98.361018	-0.965823	-98.361018	-7.605679	167.417749
1.550000	-7.410989	171.399065	-1.014625	-101.570384	-1.014625	-101.570384	-7.404706	164.079392
1.600000	-7.219016	168.311252	-1.063950	-104.780259	-1.063950	-104.780259	-7.212544	160.740291
1.650000	-7.035701	165.222666	-1.113844	-107.991577	-1.113844	-107.991577	-7.029051	157.399485
1.700000	-6.860208	162.132259	-1.164320	-111.205305	-1.164320	-111.205305	-6.853394	154.056025
1.750000	-6.691304	159.039492	-1.215363	-114.421841	-1.215363	-114.421841	-6.684341	150.709566
1.800000	-6.528731	155.943420	-1.267027	-117.642116	-1.267027	-117.642116	-6.521633	147.359173
1.850000	-6.371958	152.843191	-1.319357	-120.866926	-1.319357	-120.866926	-6.364741	144.004066
1.900000	-6.220489	149.737942	-1.372405	-124.097076	-1.372405	-124.097076	-6.213170	140.643457
1.950000	-6.074128	146.625783	-1.426310	-127.334422	-1.426310	-127.334422	-6.066728	137.275487
2.000000	-5.932141	143.506181	-1.481118	-130.579395	-1.481118	-130.579395	-5.924678	133.899757
2.050000	-5.794018	140.378517	-1.536899	-133.832546	-1.536899	-133.832546	-5.786513	130.515728
2.100000	-5.659375	137.241903	-1.593748	-137.094705	-1.593748	-137.094705	-5.651847	127.122574
2.150000	-5.527846	134.095453	-1.651776	-140.366706	-1.651776	-140.366706	-5.520317	123.719458
2.200000	-5.399088	130.938279	-1.711100	-143.649386	-1.711100	-143.649386	-5.391580	120.305533
2.250000	-5.272775	127.769496	-1.771853	-146.943585	-1.771853	-146.943585	-5.265311	116.879942
2.300000	-5.148601	124.587172	-1.834277	-150.251186	-1.834277	-150.251186	-5.141208	113.440759
2.350000	-5.026203	121.389694	-1.898621	-153.573756	-1.898621	-153.573756	-5.018910	109.986349
2.400000	-4.905278	118.177572	-1.964938	-156.910787	-1.964938	-156.910787	-4.898114	106.517180
2.450000	-4.785571	114.949938	-2.033422	-160.263144	-2.033422	-160.263144	-4.778569	103.032305
2.500000	-4.666845	111.705926	-2.104287	-163.631700	-2.104287	-163.631700	-4.660037	99.530753
2.550000	-4.548874	108.444673	-2.177762	-167.017339	-2.177762	-167.017339	-4.542298	96.011519
2.600000	-4.431449	105.165320	-2.254098	-170.420958	-2.254098	-170.420958	-4.425146	92.473562
2.650000	-4.314359	101.866784	-2.333597	-173.843689	-2.333597	-173.843689	-4.308374	88.915566
2.700000	-4.197140	98.544690	-2.417068	-177.290002	-2.417068	-177.290002	-4.191537	85.332603
2.750000	-4.079850	95.201501	-2.504424	179.242456	-2.504424	179.242456	-4.074687	81.726913
2.800000	-3.962342	91.836332	-2.596037	175.752681	-2.596037	175.752681	-3.957685	78.097177
2.850000	-3.844481	88.448281	-2.692317	172.239637	-2.692317	172.239637	-3.840404	74.441990
2.900000	-3.726150	85.036425	-2.793716	168.702246	-2.793716	168.702246	-3.722732	70.759849
2.950000	-3.607241	81.599814	-2.900733	165.139386	-2.900733	165.139386	-3.604573	67.049141
3.000000	-3.487663	78.137459	-3.013922	161.549881	-3.013922	161.549881	-3.485844	63.308127
3.050000	-3.367003	74.644596	-3.134675	157.928572	-3.134675	157.928572	-3.366161	59.530293
3.100000	-3.245545	71.123936	-3.262995	154.278080	-3.262995	154.278080	-3.245805	55.717995
3.150000	-3.123117	67.572811	-3.399992	150.595433	-3.399992	150.595433	-3.124623	51.867077
3.200000	-2.999748	63.990519	-3.546486	146.879706	-3.546486	146.879706	-3.002656	47.975582
3.250000	-2.875261	60.373593	-3.704049	143.127058	-3.704049	143.127058	-2.879757	44.037818
3.300000	-2.749977	56.724247	-3.872971	139.339739	-3.872971	139.339739	-2.756239	40.055603
3.350000	-2.623480	53.034936	-4.056219	135.509623	-4.056219	135.509623	-2.631750	36.017163
3.400000	-2.496136	49.307677	-4.254422	131.638904	-4.254422	131.638904	-2.506650	31.923876
3.450000	-2.367968	45.539614	-4.469700	127.724679	-4.469700	127.724679	-2.380991	27.770262
3.500000	-2.238841	41.724062	-4.705727	123.760205	-4.705727	123.760205	-2.254706	23.544711
3.550000	-2.109063	37.860443	-4.964663	119.745528	-4.964663	119.745528	-2.128119	19.244655
3.600000	-1.978808	33.945358	-5.249955	115.678053	-5.249955	115.678053	-2.001444	14.863283
3.650000	-1.848221	29.973108	-5.566485	111.553390	-5.566485	111.553390	-1.874891	10.390001
3.700000	-1.717467	25.934141	-5.921589	107.364563	-5.921589	107.364563	-1.748734	5.807632
3.750000	-1.587047	21.826014	-6.321053	103.112806	-6.321053	103.112806	-1.623515	1.110575
3.800000	-1.457391	17.641026	-6.774288	98.796022	-6.774288	98.796022	-1.499757	-3.715357
3.850000	-1.329070	13.365232	-7.296058	94.410623	-7.296058	94.410623	-1.378207	-8.695048
3.900000	-1.203001	8.986239	-7.904536	89.961221	-7.904536	89.961221	-1.259951	-13.851030
3.950000	-1.080297	4.494469	-8.622297	85.462910	-8.622297	85.462910	-1.146244	-19.201080
4.000000	-0.962396	-0.125709	-9.484410	80.942326	-9.484410	80.942326	-1.038759	-24.773565
4.050000	-0.851933	-4.906425	-10.553589	76.467771	-10.553589	76.467771	-0.940621	-30.626364
4.100000	-0.751765	-9.862629	-11.914450	72.194730	-11.914450	72.194730	-0.854999	-36.788732
4.150000	-0.665401	-15.013049	-13.716531	68.443535	-13.716531	68.443535	-0.785821	-43.298020
4.200000	-0.599715	-20.402274	-16.282472	66.252938	-16.282472	66.252938	-0.740918	-50.242017
4.250000	-0.563152	-26.061385	-20.326440	69.682850	-20.326440	69.682850	-0.729744	-57.692381
4.300000	-0.567182	-32.019295	-26.518386	104.900028	-26.518386	104.900028	-0.765148	-65.730112
4.350000	-0.625928	-38.290455	-22.883622	172.320439	-22.883622	172.320439	-0.863020	-74.429947
4.400000	-0.761614	-44.887817	-16.578557	-175.787305	-16.578557	-175.787305	-1.048619	-83.907876
4.450000	-1.002017	-51.778609	-12.469029	-178.383540	-12.469029	-178.383540	-1.354045	-94.266164
4.500000	-1.375947	-58.858442	-9.509612	175.135660	-9.509612	175.135660	-1.814050	-105.562047
4.550000	-1.918872	-65.939602	-7.245934	166.803472	-7.245934	166.803472	-2.473922	-117.868063
4.600000	-2.662884	-72.702498	-5.482928	157.413425	-5.482928	157.413425	-3.381069	-131.242757
4.650000	-3.627287	-78.671589	-4.121826	147.443867	-4.121826	147.443867	-4.579027	-145.785655
4.700000	-4.804117	-83.236116	-3.097271	137.277452	-3.097271	137.277452	-6.096731	-161.733874
4.750000	-6.141427	-85.644914	-2.357753	127.232100	-2.357753	127.232100	-7.932170	-179.707040
4.800000	-7.522836	-85.259128	-1.848022	117.541583	-1.848022	117.541583	-10.003687	159.179336
4.850000	-8.747975	-81.752582	-1.521010	108.358008	-1.521010	108.358008	-12.013497	133.343316
4.900000	-9.574148	-75.741433	-1.332802	99.751731	-1.332802	99.751731	-13.306717	102.762754
4.950000	-9.857133	-68.921005	-1.246307	91.730623	-1.246307	91.730623	-13.325708	72.012715
5.000000	-9.664206	-63.144144	-1.231923	84.262377	-1.231923	84.262377	-12.406292	46.602400
5.050000	-9.191238	-59.364617	-1.267439	77.299867	-1.267439	77.299867	-11.223101	27.399384
5.100000	-8.620719	-57.519100	-1.335148	70.773592	-1.335148	70.773592	-10.123138	12.600525
5.150000	-8.054306	-57.194072	-1.422817	64.622289	-1.422817	64.622289	-9.191217	0.673231
5.200000	-7.537514	-57.961092	-1.521499	58.788604	-1.521499	58.788604	-8.425060	-9.367410
5.250000	-7.085581	-59.485903	-1.624619	53.220510	-1.624619	53.220510	-7.801333	-18.125104
5.300000	-6.702154	-61.548253	-1.727059	47.879263	-1.727059	47.879263	-7.299049	-25.950869
5.350000	-6.377699	-63.941198	-1.825684	42.700829	-1.825684	42.700829	-6.889034	-33.177859
5.400000	-6.114744	-66.607693	-1.916568	37.673347	-1.916568	37.673347	-6.567203	-39.885819
5.450000	-5.900443	-69.435856	-1.998941	32.740805	-1.998941	32.740805	-6.311063	-46.275577
5.500000	-5.739951	-72.404898	-2.068608	27.886763	-2.068608	27.886763	-6.124357	-52.388613
5.550000	-5.623082	-75.459861	-2.126014	23.068746	-2.126014	23.068746	-5.992296	-58.344565
5.600000	-5.552327	-78.583962	-2.168589	18.258743	-2.168589	18.258743	-5.916975	-64.197905
5.650000	-5.529571	-81.758775	-2.194429	13.421687	-2.194429	13.421687	-5.900239	-70.014400
5.700000	-5.557066	-84.965729	-2.202302	8.519213	-2.202302	8.519213	-5.944987	-75.862972
5.750000	-5.639036	-88.185332	-2.191298	3.510834	-2.191298	3.510834	-6.057247	-81.812774
5.800000	-5.783360	-91.391917	-2.160491	-1.650668	-2.160491	-1.650668	-6.248595	-87.941704
5.850000	-6.001651	-94.544777	-2.109444	-7.020911	-2.109444	-7.020911	-6.537089	-94.343594
5.900000	-6.310454	-97.574153	-2.038560	-12.666439	-2.038560	-12.666439	-6.950565	-101.138227
5.950000	-6.733747	-100.351359	-1.949551	-18.671417	-1.949551	-18.671417	-7.534092	-108.495212
6.000000	-7.304820	-102.622519	-1.846699	-25.144930	-1.846699	-25.144930	-8.363634	-116.682557
6.050000	-8.056599	-103.935077	-1.739087	-32.193750	-1.739087	-32.193750	-9.558181	-126.103276
6.100000	-9.011870	-103.417569	-1.641673	-39.949214	-1.641673	-39.949214	-11.344784	-137.604247
6.150000	-10.115350	-99.617698	-1.577601	-48.530165	-1.577601	-48.530165	-14.185376	-153.334778
6.200000	-11.025150	-90.381599	-1.586027	-58.089690	-1.586027	-58.089690	-19.103433	176.281849
6.250000	-10.962536	-76.485025	-1.716917	-68.645297	-1.716917	-68.645297	-21.698853	92.082026
6.300000	-9.518501	-64.698397	-2.034775	-80.107429	-2.034775	-80.107429	-14.726783	39.202272
6.350000	-7.477230	-60.015411	-2.594354	-92.157304	-2.594354	-92.157304	-10.010505	15.905471
6.400000	-5.586722	-61.289251	-3.430188	-104.323589	-3.430188	-104.323589	-6.976529	-1.233359
6.450000	-4.101867	-65.917583	-4.542463	-116.071480	-4.542463	-116.071480	-4.947848	-15.883323
6.500000	-3.019702	-71.954998	-5.893439	-126.982801	-5.893439	-126.982801	-3.576526	-28.812377
6.550000	-2.260126	-78.340141	-7.434400	-136.833490	-7.434400	-136.833490	-2.649361	-40.232730
6.600000	-1.739890	-84.543225	-9.116350	-145.552859	-9.116350	-145.552859	-2.025982	-50.278856
6.650000	-1.384523	-90.354293	-10.909733	-153.218976	-10.909733	-153.218976	-1.603607	-59.151721
6.700000	-1.141224	-95.726481	-12.803761	-159.943864	-12.803761	-159.943864	-1.315103	-67.044380
6.750000	-0.973808	-100.683519	-14.806049	-165.835964	-14.806049	-165.835964	-1.116391	-74.132970
6.800000	-0.858581	-105.268410	-16.935753	-170.961528	-16.935753	-170.961528	-0.979269	-80.558393
6.850000	-0.779009	-109.534374	-19.235762	-175.343254	-19.235762	-175.343254	-0.884334	-86.445464
6.900000	-0.724194	-113.528937	-21.774375	-178.903201	-21.774375	-178.903201	-0.818899	-91.891706
6.950000	-0.686515	-117.296897	-24.676534	178.626244	-24.676534	178.626244	-0.774118	-96.980851
7.000000	-0.660752	-120.877451	-28.182786	178.014808	-28.182786	178.014808	-0.743933	-101.782267
7.050000	-0.643487	-124.300726	-32.790028	-178.034003	-32.790028	-178.034003	-0.724383	-106.348221
7.100000	-0.632701	-127.582224	-38.499560	-148.572366	-38.499560	-148.572366	-0.713192	-110.708108
7.150000	-0.625862	-130.763817	-40.847299	-92.697404	-40.847299	-92.697404	-0.707285	-114.927197
7.200000	-0.622320	-133.850142	-36.041923	-56.039488	-36.041923	-56.039488	-0.705986	-119.016611
7.250000	-0.621200	-136.855580	-32.567114	-48.998596	-32.567114	-48.998596	-0.708293	-123.001085
7.300000	-0.621874	-139.792195	-30.360040	-47.997151	-30.360040	-47.997151	-0.713491	-126.901692
7.350000	-0.623882	-142.670188	-28.852088	-48.897677	-28.852088	-48.897677	-0.721069	-130.736643
7.400000	-0.626885	-145.498255	-27.773935	-50.604750	-27.773935	-50.604750	-0.730665	-134.521906
7.450000	-0.630635	-148.283867	-26.986042	-52.712413	-26.986042	-52.712413	-0.742028	-138.271706
7.500000	-0.634945	-151.033504	-26.408756	-55.037412	-26.408756	-55.037412	-0.754990	-141.998913
7.550000	-0.639689	-153.751754	-25.998453	-57.488208	-25.998453	-57.488208	-0.769508	-145.715418
7.600000	-0.644742	-156.445105	-25.718078	-60.004978	-25.718078	-60.004978	-0.785464	-149.433184
7.650000	-0.650030	-159.117955	-25.548082	-62.554867	-25.548082	-62.554867	-0.802852	-153.162672
7.700000	-0.655495	-161.774272	-25.476130	-65.113829	-25.476130	-65.113829	-0.821699	-156.914004
7.750000	-0.661096	-164.417666	-25.495164	-67.661473	-25.495164	-67.661473	-0.842060	-160.697123
7.800000	-0.666805	-167.051453	-25.602364	-70.177404	-25.602364	-70.177404	-0.864023	-164.521925
7.850000	-0.672603	-169.678711	-25.798704	-72.637925	-25.798704	-72.637925	-0.887700	-168.398386
7.900000	-0.678481	-172.302321	-26.088950	-75.012198	-26.088950	-75.012198	-0.913234	-172.336681
7.950000	-0.684441	-174.925006	-26.482109	-77.256801	-26.482109	-77.256801	-0.940795	-176.347291
8.000000	-0.690494	-177.549365	-26.992378	-79.306914	-26.992378	-79.306914	-0.970585	179.558893
8.050000	-0.696659	179.822104	-27.640789	-81.060744	-27.640789	-81.060744	-1.002838	175.370470
8.100000	-0.702972	177.186978	-28.457826	-82.349742	-28.457826	-82.349742	-1.037826	171.075430
8.150000	-0.709447	174.544373	-29.471566	-83.038319	-29.471566	-83.038319	-1.075439	166.678411
8.200000	-0.716206	171.889174	-30.777435	-82.359389	-30.777435	-82.359389	-1.116861	162.131591
8.250000	-0.723309	169.220361	-32.439746	-79.323930	-32.439746	-79.323930	-1.162088	157.437393
8.300000	-0.730863	166.535685	-34.505424	-71.537494	-34.505424	-71.537494	-1.211573	152.580513
8.350000	-0.739006	163.832940	-36.645079	-54.227333	-36.645079	-54.227333	-1.265823	147.544674
8.400000	-0.747909	161.109970	-37.238614	-25.456764	-37.238614	-25.456764	-1.325399	142.312611
8.450000	-0.757781	158.364695	-35.107833	0.647209	-35.107833	0.647209	-1.390915	136.866093
8.500000	-0.768875	155.595154	-32.035871	14.406342	-32.035871	14.406342	-1.463032	131.186011
8.550000	-0.781494	152.799553	-29.214549	19.935098	-29.214549	19.935098	-1.542448	125.252530
8.600000	-0.795993	149.976340	-26.795989	21.318125	-26.795989	21.318125	-1.629877	119.045352
8.650000	-0.812782	147.124293	-24.711505	20.483240	-24.711505	20.483240	-1.726020	112.544097
8.700000	-0.832325	144.242631	-22.884787	18.322050	-22.884787	18.322050	-1.831519	105.728850
8.750000	-0.855133	141.331139	-21.258995	15.282504	-21.258995	15.282504	-1.946902	98.580895
8.800000	-0.881848	138.389692	-19.792374	11.599812	-19.792374	11.599812	-2.072676	91.075765
8.850000	-0.912962	135.420315	-18.460015	7.434411	-18.460015	7.434411	-2.208666	83.207777
8.900000	-0.949022	132.425326	-17.242362	2.878551	-17.242362	2.878551	-2.354466	74.968936
8.950000	-0.990522	129.408035	-16.125584	-2.002352	-16.125584	-2.002352	-2.509143	66.357794
9.000000	-1.037858	126.372715	-15.099761	-7.157497	-15.099761	-7.157497	-2.671143	57.381163
9.050000	-1.091282	123.324479	-14.157613	-12.543774	-14.157613	-12.543774	-2.838230	48.055749
9.100000	-1.150862	120.269023	-13.293582	-18.121866	-13.293582	-18.121866	-3.007509	38.409474
9.150000	-1.216447	117.212271	-12.503147	-23.854208	-12.503147	-23.854208	-3.175529	28.482197
9.200000	-1.287559	114.159695	-11.782027	-29.702408	-11.782027	-29.702408	-3.338790	18.329204
9.250000	-1.363863	111.116813	-11.126998	-35.635729	-11.126998	-35.635729	-3.492847	8.002443
9.300000	-1.444412	108.087267	-10.533912	-41.616272	-10.533912	-41.616272	-3.634573	-2.420268
9.350000	-1.528325	105.073349	-9.998534	-47.612538	-9.998534	-47.612538	-3.761309	-12.864964
9.400000	-1.614695	102.075680	-9.516356	-53.596413	-9.516356	-53.596413	-3.871432	-23.258320
9.450000	-1.702680	99.093248	-9.082632	-59.543931	-9.082632	-59.543931	-3.964501	-33.532233
9.500000	-1.791573	96.123642	-8.692463	-65.435801	-8.692463	-65.435801	-4.041234	-43.627822
9.550000	-1.880871	93.163428	-8.340905	-71.257632	-8.340905	-71.257632	-4.103351	-53.498323
9.600000	-1.970303	90.208642	-8.023171	-76.999473	-8.023171	-76.999473	-4.153279	-63.109264
9.650000	-2.059852	87.255222	-7.734589	-82.655935	-7.734589	-82.655935	-4.193984	-72.439899
9.700000	-2.149757	84.299617	-7.470496	-88.227141	-7.470496	-88.227141	-4.228753	-81.486952
9.750000	-2.240459	81.339091	-7.227007	-93.714168	-7.227007	-93.714168	-4.260760	-90.249440
9.800000	-2.332561	78.372558	-6.999758	-99.126815	-6.999758	-99.126815	-4.293232	-98.754791
9.850000	-2.426736	75.400022	-6.785677	-104.471603	-6.785677	-104.471603	-4.328984	-107.018223
9.900000	-2.523655	72.423356	-6.581459	-109.761802	-6.581459	-109.761802	-4.370648	-115.076628
9.950000	-2.624230	69.445667	-6.384723	-115.005656	-6.384723	-115.005656	-4.421709	-122.944462
10.000000	-2.728666	66.471402	-6.192860	-120.223094	-6.192860	-120.223094	-4.483342	-130.682375
