! freq	dB(S11)	phase(S11)	dB(S12)	phase(S12)	
!     	dB(S21)	phase(S21)	dB(S22)	phase(S22)	
!S-par simulation data
#  GHz  S  DB  R 50
0.000000	-0.000000	0.000000	-365.578597	180.000000	-365.578597	180.000000	-0.000000	0.000000
0.050000	-0.000100	-0.770499	-117.478709	85.748078	-117.478709	85.748078	-0.000100	-0.770493
0.100000	-0.000396	-1.540753	-111.912276	84.702232	-111.912276	84.702232	-0.000394	-1.540742
0.150000	-0.000879	-2.310517	-108.698364	84.595785	-108.698364	84.595785	-0.000876	-2.310503
0.200000	-0.001518	-3.079647	-106.439156	84.541887	-106.439156	84.541887	-0.001515	-3.079634
0.250000	-0.002298	-3.847981	-104.732644	84.430071	-104.732644	84.430071	-0.002293	-3.847971
0.300000	-0.003204	-4.615318	-103.409445	84.288503	-103.409445	84.288503	-0.003197	-4.615316
0.350000	-0.004192	-5.381754	-102.354806	84.168399	-102.354806	84.168399	-0.004184	-5.381761
0.400000	-0.005254	-6.147119	-101.527674	84.121302	-101.527674	84.121302	-0.005244	-6.147138
0.450000	-0.006361	-6.911503	-100.882074	84.191749	-100.882074	84.191749	-0.006351	-6.911536
0.500000	-0.007499	-7.674883	-100.400456	84.439559	-100.400456	84.439559	-0.007489	-7.674929
0.550000	-0.008654	-8.437299	-100.067922	84.932007	-100.067922	84.932007	-0.008644	-8.437358
0.600000	-0.009814	-9.198790	-99.876361	85.756627	-99.876361	85.756627	-0.009804	-9.198862
0.650000	-0.010971	-9.959398	-99.821617	87.031048	-99.821617	87.031048	-0.010961	-9.959481
0.700000	-0.012119	-10.719161	-99.901564	88.918270	-99.901564	88.918270	-0.012111	-10.719255
0.750000	-0.013255	-11.478114	-100.113156	91.648357	-100.113156	91.648357	-0.013247	-11.478218
0.800000	-0.014376	-12.236290	-100.446681	95.546061	-100.446681	95.546061	-0.014369	-12.236401
0.850000	-0.015479	-12.993584	-100.860552	101.496170	-100.860552	101.496170	-0.015473	-12.993702
0.900000	-0.016565	-13.750112	-101.294966	109.700564	-101.294966	109.700564	-0.016559	-13.750235
0.950000	-0.017643	-14.506265	-101.598098	119.166731	-101.598098	119.166731	-0.017638	-14.506393
1.000000	-0.018698	-15.261295	-101.449467	132.418215	-101.449467	132.418215	-0.018694	-15.261426
1.050000	-0.019748	-16.016077	-101.080571	145.543648	-101.080571	145.543648	-0.019745	-16.016211
1.100000	-0.020776	-16.769619	-99.730336	158.038821	-99.730336	158.038821	-0.020774	-16.769755
1.150000	-0.021803	-17.523035	-98.477584	170.092470	-98.477584	170.092470	-0.021801	-17.523173
1.200000	-0.022810	-18.275065	-96.603981	177.289369	-96.603981	177.289369	-0.022808	-18.275205
1.250000	-0.023817	-19.027096	-95.063689	-175.513732	-95.063689	-175.513732	-0.023816	-19.027238
1.300000	-0.024812	-19.777968	-93.391461	-171.392463	-93.391461	-171.392463	-0.024811	-19.778110
1.350000	-0.025800	-20.528081	-91.814450	-168.538990	-91.814450	-168.538990	-0.025799	-20.528225
1.400000	-0.026782	-21.277423	-90.336819	-166.608620	-90.336819	-166.608620	-0.026782	-21.277568
1.450000	-0.027759	-22.025979	-88.953525	-165.358313	-88.953525	-165.358313	-0.027759	-22.026125
1.500000	-0.028733	-22.773733	-87.656395	-164.617345	-87.656395	-164.617345	-0.028733	-22.773881
1.550000	-0.029703	-23.520669	-86.436731	-164.264698	-86.436731	-164.264698	-0.029703	-23.520819
1.600000	-0.030671	-24.266772	-85.286350	-164.213319	-85.286350	-164.213319	-0.030671	-24.266924
1.650000	-0.031636	-25.012025	-84.197926	-164.399532	-84.197926	-164.399532	-0.031636	-25.012178
1.700000	-0.032600	-25.756102	-83.141659	-164.825561	-83.141659	-164.825561	-0.032600	-25.756258
1.750000	-0.033563	-26.499722	-82.169083	-165.337773	-82.169083	-165.337773	-0.033562	-26.499879
1.800000	-0.034525	-27.242238	-81.227285	-165.993877	-81.227285	-165.993877	-0.034525	-27.242398
1.850000	-0.035486	-27.983967	-80.334412	-166.752760	-80.334412	-166.752760	-0.035486	-27.984129
1.900000	-0.036448	-28.724715	-79.475760	-167.596946	-79.475760	-167.596946	-0.036448	-28.724880
1.950000	-0.037411	-29.464482	-78.649803	-168.526436	-78.649803	-168.526436	-0.037410	-29.464649
2.000000	-0.038374	-30.203402	-77.860297	-169.507026	-77.860297	-169.507026	-0.038373	-30.203573
2.050000	-0.039338	-30.941138	-77.091334	-170.559157	-77.091334	-170.559157	-0.039338	-30.941311
2.100000	-0.040304	-31.678174	-76.360267	-171.641610	-76.360267	-171.641610	-0.040303	-31.678350
2.150000	-0.041271	-32.413811	-75.640496	-172.784705	-75.640496	-172.784705	-0.041271	-32.413990
2.200000	-0.042240	-33.148907	-74.959515	-173.945107	-74.959515	-173.945107	-0.042239	-33.149089
2.250000	-0.043212	-33.882380	-74.282703	-175.157424	-74.282703	-175.157424	-0.043212	-33.882565
2.300000	-0.044186	-34.615482	-73.645172	-176.378708	-73.645172	-176.378708	-0.044185	-34.615670
2.350000	-0.045164	-35.346728	-73.006263	-177.644825	-73.006263	-177.644825	-0.045163	-35.346919
2.400000	-0.046143	-36.077784	-72.406826	-178.914489	-72.406826	-178.914489	-0.046142	-36.077977
2.450000	-0.047128	-36.806742	-71.801660	179.776839	-71.801660	179.776839	-0.047127	-36.806938
2.500000	-0.048114	-37.535700	-71.235925	178.468168	-71.235925	178.468168	-0.048113	-37.535900
2.550000	-0.049108	-38.262313	-70.661035	177.125344	-70.661035	177.125344	-0.049107	-38.262515
2.600000	-0.050102	-38.988926	-70.121845	175.782520	-70.121845	175.782520	-0.050101	-38.989130
2.650000	-0.051105	-39.713337	-69.577821	174.414264	-69.577821	174.414264	-0.051104	-39.713544
2.700000	-0.052109	-40.437548	-69.062762	173.043697	-69.062762	173.043697	-0.052108	-40.437758
2.750000	-0.053122	-41.159714	-68.546464	171.654160	-68.546464	171.654160	-0.053121	-41.159926
2.800000	-0.054137	-41.881471	-68.053464	170.260829	-68.053464	170.260829	-0.054136	-41.881685
2.850000	-0.055162	-42.601350	-67.562224	168.853374	-67.562224	168.853374	-0.055161	-42.601566
2.900000	-0.056190	-43.320602	-67.089488	167.441211	-67.089488	167.441211	-0.056189	-43.320820
2.950000	-0.057227	-44.038152	-66.621019	166.018593	-66.621019	166.018593	-0.057226	-44.038372
3.000000	-0.058269	-44.754851	-66.166977	164.590747	-66.166977	164.590747	-0.058268	-44.755074
3.050000	-0.059320	-45.470035	-65.719302	163.155244	-65.719302	163.155244	-0.059319	-45.470259
3.100000	-0.060377	-46.184137	-65.282577	161.714271	-65.282577	161.714271	-0.060377	-46.184363
3.150000	-0.061444	-46.896919	-64.853974	160.267783	-64.853974	160.267783	-0.061443	-46.897146
3.200000	-0.062518	-47.608381	-64.433344	158.815780	-64.433344	158.815780	-0.062518	-47.608610
3.250000	-0.063601	-48.318726	-64.022303	157.359906	-64.022303	157.359906	-0.063601	-48.318957
3.300000	-0.064695	-49.027509	-63.616683	155.898611	-63.616683	155.898611	-0.064694	-49.027740
3.350000	-0.065795	-49.735386	-63.221873	154.434705	-63.221873	154.434705	-0.065795	-49.735619
3.400000	-0.066909	-50.441452	-62.830289	152.965574	-62.830289	152.965574	-0.066909	-50.441686
3.450000	-0.068028	-51.146831	-62.450529	151.494791	-62.450529	151.494791	-0.068028	-51.147066
3.500000	-0.069163	-51.850147	-62.072108	150.019052	-62.072108	150.019052	-0.069164	-51.850383
3.550000	-0.070303	-52.553000	-61.706347	148.542385	-61.706347	148.542385	-0.070303	-52.553237
3.600000	-0.071462	-53.253536	-61.340298	147.061082	-61.340298	147.061082	-0.071462	-53.253773
3.650000	-0.072623	-53.953837	-60.987593	145.579389	-60.987593	145.579389	-0.072624	-53.954075
3.700000	-0.073808	-54.651563	-60.633201	144.093416	-60.633201	144.093416	-0.073808	-54.651802
3.750000	-0.074992	-55.349289	-60.292703	142.607442	-60.292703	142.607442	-0.074992	-55.349529
3.800000	-0.076203	-56.044181	-59.949316	141.117568	-59.949316	141.117568	-0.076203	-56.044421
3.850000	-0.077414	-56.739073	-59.618989	139.627695	-59.618989	139.627695	-0.077414	-56.739314
3.900000	-0.078651	-57.431347	-59.287283	138.134858	-59.287283	138.134858	-0.078651	-57.431587
3.950000	-0.079890	-58.123382	-58.966600	136.641751	-58.966600	136.641751	-0.079890	-58.123623
4.000000	-0.081154	-58.813021	-58.645864	135.146436	-58.645864	135.146436	-0.081155	-58.813262
4.050000	-0.082424	-59.502180	-58.334338	133.650678	-58.334338	133.650678	-0.082424	-59.502422
4.100000	-0.083717	-60.189170	-58.023925	132.153313	-58.023925	132.153313	-0.083717	-60.189412
4.150000	-0.085018	-60.875437	-57.721111	130.655413	-57.721111	130.655413	-0.085018	-60.875679
4.200000	-0.086341	-61.559767	-57.420431	129.156383	-57.420431	129.156383	-0.086342	-61.560009
4.250000	-0.087676	-62.243128	-57.125915	127.656788	-57.125915	127.656788	-0.087676	-62.243370
4.300000	-0.089031	-62.924787	-56.834429	126.156434	-56.834429	126.156434	-0.089031	-62.925029
4.350000	-0.090400	-63.605231	-56.547827	124.655539	-56.547827	124.655539	-0.090400	-63.605473
4.400000	-0.091788	-64.284213	-56.265039	123.154169	-56.265039	123.154169	-0.091788	-64.284455
4.450000	-0.093194	-64.961732	-55.985997	121.652325	-55.985997	121.652325	-0.093194	-64.961974
4.500000	-0.094616	-65.638031	-55.711453	120.150214	-55.711453	120.150214	-0.094616	-65.638273
4.550000	-0.096061	-66.312620	-55.439639	118.647732	-55.439639	118.647732	-0.096061	-66.312862
4.600000	-0.097519	-66.986232	-55.172919	117.145131	-55.172919	117.145131	-0.097519	-66.986474
4.650000	-0.099003	-67.657890	-54.908025	115.642290	-54.908025	115.642290	-0.099003	-67.658131
4.700000	-0.100498	-68.328814	-54.648742	114.139422	-54.648742	114.139422	-0.100498	-68.329055
4.750000	-0.102025	-68.997540	-54.390480	112.636472	-54.390480	112.636472	-0.102025	-68.997781
4.800000	-0.103558	-69.665777	-54.138275	111.133542	-54.138275	111.133542	-0.103558	-69.666018
4.850000	-0.105128	-70.331575	-53.886376	109.630710	-53.886376	109.630710	-0.105128	-70.331815
4.900000	-0.106702	-70.997128	-53.640916	108.127904	-53.640916	108.127904	-0.106702	-70.997368
4.950000	-0.108316	-71.660003	-53.395127	106.625391	-53.395127	106.625391	-0.108316	-71.660242
5.000000	-0.109932	-72.322877	-53.156103	105.122878	-53.156103	105.122878	-0.109931	-72.323117
5.050000	-0.111593	-72.982838	-52.916187	103.620870	-52.916187	103.620870	-0.111593	-72.983076
5.100000	-0.113255	-73.642798	-52.682721	102.118863	-52.682721	102.118863	-0.113255	-73.643036
5.150000	-0.114961	-74.300097	-52.449046	100.617472	-52.449046	100.617472	-0.114961	-74.300335
5.200000	-0.116672	-74.957154	-52.220934	99.116138	-52.220934	99.116138	-0.116671	-74.957391
5.250000	-0.118424	-75.611803	-51.993225	97.615493	-51.993225	97.615493	-0.118423	-75.612040
5.300000	-0.120184	-76.265970	-51.770275	96.114985	-51.770275	96.114985	-0.120184	-76.266206
5.350000	-0.121984	-76.917982	-51.548277	94.615204	-51.548277	94.615204	-0.121983	-76.918218
5.400000	-0.123796	-77.569276	-51.330307	93.115666	-51.330307	93.115666	-0.123796	-77.569511
5.450000	-0.125644	-78.218666	-51.113779	91.616859	-51.113779	91.616859	-0.125644	-78.218900
5.500000	-0.127510	-78.867104	-50.900618	90.118419	-50.900618	90.118419	-0.127510	-78.867338
5.550000	-0.129409	-79.513889	-50.689336	88.620690	-50.689336	88.620690	-0.129408	-79.514122
5.600000	-0.131330	-80.159492	-50.480821	87.123470	-50.480821	87.123470	-0.131330	-80.159725
5.650000	-0.133280	-80.803690	-50.274574	85.626915	-50.274574	85.626915	-0.133280	-80.803922
5.700000	-0.135259	-81.446482	-50.070551	84.131025	-50.070551	84.131025	-0.135258	-81.446714
5.750000	-0.137262	-82.088114	-49.869142	82.635734	-49.869142	82.635734	-0.137261	-82.088344
5.800000	-0.139299	-82.728120	-49.669465	81.141280	-49.669465	81.141280	-0.139298	-82.728350
5.850000	-0.141356	-83.367206	-49.472706	79.647337	-49.472706	79.647337	-0.141356	-83.367436
5.900000	-0.143454	-84.004454	-49.277236	78.154415	-49.277236	78.154415	-0.143453	-84.004682
5.950000	-0.145567	-84.641019	-49.084952	76.661900	-49.084952	76.661900	-0.145567	-84.641247
6.000000	-0.147726	-85.275538	-48.893557	75.170602	-48.893557	75.170602	-0.147726	-85.275764
6.050000	-0.149897	-85.909607	-48.705583	73.679589	-48.705583	73.679589	-0.149897	-85.909832
6.100000	-0.152120	-86.541428	-48.518136	72.190001	-48.518136	72.190001	-0.152120	-86.541653
6.150000	-0.154350	-87.173027	-48.334315	70.700561	-48.334315	70.700561	-0.154349	-87.173251
6.200000	-0.156638	-87.802185	-48.150696	69.212762	-48.150696	69.212762	-0.156638	-87.802408
6.250000	-0.158928	-88.431343	-47.970879	67.724962	-47.970879	67.724962	-0.158927	-88.431565
6.300000	-0.161284	-89.057873	-47.790974	66.239026	-47.790974	66.239026	-0.161283	-89.058094
6.350000	-0.163640	-89.684403	-47.614720	64.753090	-47.614720	64.753090	-0.163640	-89.684624
6.400000	-0.166059	-90.308559	-47.438719	63.268927	-47.438719	63.268927	-0.166059	-90.308779
6.450000	-0.168484	-90.932500	-47.265925	61.784925	-47.265925	61.784925	-0.168484	-90.932718
6.500000	-0.170968	-91.554314	-47.093694	60.302588	-47.093694	60.302588	-0.170968	-91.554532
6.550000	-0.173463	-92.175704	-46.924261	58.820585	-46.924261	58.820585	-0.173463	-92.175920
6.600000	-0.176013	-92.795212	-46.755669	57.340126	-46.755669	57.340126	-0.176013	-92.795427
6.650000	-0.178581	-93.414093	-46.589503	55.860181	-46.589503	55.860181	-0.178581	-93.414307
6.700000	-0.181197	-94.031330	-46.424428	54.381647	-46.424428	54.381647	-0.181197	-94.031543
6.750000	-0.183839	-94.647745	-46.261437	52.903817	-46.261437	52.903817	-0.183839	-94.647957
6.800000	-0.186524	-95.262748	-46.099763	51.427250	-46.099763	51.427250	-0.186524	-95.262959
6.850000	-0.189241	-95.876742	-45.939860	49.951585	-45.939860	49.951585	-0.189241	-95.876952
6.900000	-0.191996	-96.489549	-45.781474	48.477024	-45.781474	48.477024	-0.191996	-96.489758
6.950000	-0.194790	-97.101169	-45.624575	47.003569	-45.624575	47.003569	-0.194790	-97.101376
7.000000	-0.197617	-97.711819	-45.469370	45.531051	-45.469370	45.531051	-0.197617	-97.712026
7.050000	-0.200489	-98.321113	-45.315393	44.059844	-45.315393	44.059844	-0.200489	-98.321319
7.100000	-0.203389	-98.929648	-45.163269	42.589399	-45.163269	42.589399	-0.203389	-98.929853
7.150000	-0.206341	-99.536666	-45.012135	41.120475	-45.012135	41.120475	-0.206341	-99.536870
7.200000	-0.209314	-100.143128	-44.862994	39.652128	-44.862994	39.652128	-0.209314	-100.143331
7.250000	-0.212348	-100.747921	-44.714626	38.185513	-44.714626	38.185513	-0.212348	-100.748123
7.300000	-0.215397	-101.352352	-44.568375	36.719287	-44.568375	36.719287	-0.215397	-101.352553
7.350000	-0.218514	-101.954974	-44.422700	35.255002	-44.422700	35.255002	-0.218514	-101.955174
7.400000	-0.221639	-102.557419	-44.279250	33.790913	-44.279250	33.790913	-0.221639	-102.557619
7.450000	-0.224841	-103.157924	-44.136196	32.328970	-44.136196	32.328970	-0.224841	-103.158123
7.500000	-0.228044	-103.758429	-43.995461	30.867028	-43.995461	30.867028	-0.228044	-103.758627
7.550000	-0.231332	-104.356873	-43.854960	29.407433	-43.854960	29.407433	-0.231332	-104.357070
7.600000	-0.234622	-104.955317	-43.716696	27.947839	-43.716696	27.947839	-0.234622	-104.955513
7.650000	-0.237990	-105.551925	-43.578843	26.490394	-43.578843	26.490394	-0.237990	-105.552120
7.700000	-0.241367	-106.148365	-43.442986	25.033145	-43.442986	25.033145	-0.241367	-106.148560
7.750000	-0.244817	-106.743186	-43.307700	23.577840	-43.307700	23.577840	-0.244817	-106.743380
7.800000	-0.248283	-107.337682	-43.174189	22.122923	-43.174189	22.122923	-0.248283	-107.337876
7.850000	-0.251816	-107.930766	-43.041393	20.669741	-43.041393	20.669741	-0.251816	-107.930960
7.900000	-0.255372	-108.523378	-42.910169	19.217137	-42.910169	19.217137	-0.255372	-108.523572
7.950000	-0.258989	-109.114776	-42.779790	17.766054	-42.779790	17.766054	-0.258989	-109.114969
8.000000	-0.262637	-109.705567	-42.650794	16.315731	-42.650794	16.315731	-0.262637	-109.705760
8.050000	-0.266340	-110.295331	-42.522762	14.866716	-42.522762	14.866716	-0.266339	-110.295524
8.100000	-0.270081	-110.884363	-42.395939	13.418634	-42.395939	13.418634	-0.270081	-110.884556
8.150000	-0.273869	-111.472548	-42.270185	11.971646	-42.270185	11.971646	-0.273869	-111.472741
8.200000	-0.277705	-112.059885	-42.145481	10.525753	-42.145481	10.525753	-0.277704	-112.060079
8.250000	-0.281580	-112.646545	-42.021941	9.080746	-42.021941	9.080746	-0.281580	-112.646739
8.300000	-0.285511	-113.232254	-41.899304	7.636980	-41.899304	7.636980	-0.285511	-113.232449
8.350000	-0.289475	-113.817443	-41.777917	6.193897	-41.777917	6.193897	-0.289475	-113.817638
8.400000	-0.293503	-114.401592	-41.657297	4.752182	-41.657297	4.752182	-0.293503	-114.401788
8.450000	-0.297557	-114.985368	-41.538002	3.310959	-41.538002	3.310959	-0.297556	-114.985565
8.500000	-0.301682	-115.568025	-41.419353	1.871211	-41.419353	1.871211	-0.301682	-115.568223
8.550000	-0.305826	-116.150445	-41.302094	0.431773	-41.302094	0.431773	-0.305826	-116.150644
8.600000	-0.310051	-116.731680	-41.185370	-1.006107	-41.185370	-1.006107	-0.310050	-116.731880
8.650000	-0.314285	-117.312803	-41.070094	-2.443841	-41.070094	-2.443841	-0.314285	-117.313004
8.700000	-0.318610	-117.892688	-40.955251	-3.879963	-40.955251	-3.879963	-0.318610	-117.892891
8.750000	-0.322937	-118.472573	-40.841906	-5.316086	-40.841906	-5.316086	-0.322937	-118.472778
8.800000	-0.327363	-119.051181	-40.728905	-6.750573	-40.728905	-6.750573	-0.327363	-119.051388
8.850000	-0.331791	-119.629789	-40.617354	-8.185061	-40.617354	-8.185061	-0.331791	-119.629998
8.900000	-0.336310	-120.207294	-40.506246	-9.618172	-40.506246	-9.618172	-0.336310	-120.207505
8.950000	-0.340840	-120.784699	-40.396453	-11.051159	-40.396453	-11.051159	-0.340840	-120.784913
9.000000	-0.345454	-121.361164	-40.287193	-12.483019	-40.287193	-12.483019	-0.345454	-121.361381
9.050000	-0.350086	-121.937442	-40.179125	-13.914652	-40.179125	-13.914652	-0.350087	-121.937662
9.100000	-0.354796	-122.512933	-40.071672	-15.345391	-40.071672	-15.345391	-0.354796	-122.513156
9.150000	-0.359532	-123.088161	-39.965298	-16.775830	-39.965298	-16.775830	-0.359532	-123.088387
9.200000	-0.364337	-123.662742	-39.859614	-18.205588	-39.859614	-18.205588	-0.364337	-123.662972
9.250000	-0.369177	-124.236999	-39.754906	-19.635006	-39.754906	-19.635006	-0.369178	-124.237233
9.300000	-0.374078	-124.810736	-39.650956	-21.063933	-39.650956	-21.063933	-0.374080	-124.810974
9.350000	-0.379024	-125.384102	-39.547890	-22.492509	-39.547890	-22.492509	-0.379025	-125.384344
9.400000	-0.384022	-125.957064	-39.445642	-23.920763	-39.445642	-23.920763	-0.384024	-125.957310
9.450000	-0.389073	-126.529621	-39.344197	-25.348692	-39.344197	-25.348692	-0.389075	-126.529872
9.500000	-0.394168	-127.101875	-39.243622	-26.776437	-39.243622	-26.776437	-0.394171	-127.102132
9.550000	-0.399325	-127.673706	-39.143782	-28.203923	-39.143782	-28.203923	-0.399328	-127.673968
9.600000	-0.404518	-128.245323	-39.044855	-29.631332	-39.044855	-29.631332	-0.404521	-128.245591
9.650000	-0.409781	-128.816513	-38.946605	-31.058587	-38.946605	-31.058587	-0.409785	-128.816787
9.700000	-0.415073	-129.387564	-38.849304	-32.485839	-38.849304	-32.485839	-0.415076	-129.387844
9.750000	-0.420442	-129.958200	-38.752635	-33.913083	-38.752635	-33.913083	-0.420446	-129.958486
9.800000	-0.425832	-130.528757	-38.656942	-35.340363	-38.656942	-35.340363	-0.425836	-130.529051
9.850000	-0.431308	-131.098926	-38.561850	-36.767823	-38.561850	-36.767823	-0.431313	-131.099227
9.900000	-0.436796	-131.669063	-38.467749	-38.195322	-38.467749	-38.195322	-0.436802	-131.669372
9.950000	-0.442379	-132.238856	-38.374234	-39.623232	-38.374234	-39.623232	-0.442386	-132.239172
10.000000	-0.447966	-132.808648	-38.281714	-41.051143	-38.281714	-41.051143	-0.447973	-132.808972
