! freq	dB(S11)	phase(S11)	dB(S12)	phase(S12)	
!     	dB(S21)	phase(S21)	dB(S22)	phase(S22)	
!S-par simulation data
#  GHz  S  DB  R 50
0.000000	-0.000000	-0.000000	-303.946494	180.000000	-303.946494	180.000000	0.000000	-0.000000
0.050000	-0.002776	-0.993592	-108.351564	88.856491	-108.351564	88.856491	-0.001910	-1.201104
0.100000	-0.006364	-2.013599	-102.376721	87.722287	-102.376721	87.722287	-0.005439	-2.419869
0.150000	-0.008487	-3.042070	-98.932397	86.607266	-98.932397	86.607266	-0.008368	-3.650591
0.200000	-0.009792	-4.070661	-96.541378	85.521065	-96.541378	85.521065	-0.010473	-4.884881
0.250000	-0.010728	-5.097893	-94.747648	84.477583	-94.747648	84.477583	-0.012022	-6.119237
0.300000	-0.011543	-6.123854	-93.338006	83.485524	-93.338006	83.485524	-0.013310	-7.352540
0.350000	-0.012319	-7.148604	-92.207656	82.560943	-92.207656	82.560943	-0.014459	-8.584458
0.400000	-0.013102	-8.172242	-91.292764	81.720909	-91.292764	81.720909	-0.015554	-9.814889
0.450000	-0.013916	-9.194824	-90.553120	80.985889	-90.553120	80.985889	-0.016643	-11.043795
0.500000	-0.014771	-10.216368	-89.962299	80.380838	-89.962299	80.380838	-0.017751	-12.271149
0.550000	-0.015672	-11.236871	-89.502542	79.936670	-89.502542	79.936670	-0.018892	-13.496912
0.600000	-0.016619	-12.256315	-89.161864	79.692267	-89.161864	79.692267	-0.020073	-14.721040
0.650000	-0.017612	-13.274674	-88.932285	79.697272	-88.932285	79.697272	-0.021297	-15.943480
0.700000	-0.018647	-14.291918	-88.808607	80.015991	-88.808607	80.015991	-0.022563	-17.164173
0.750000	-0.019722	-15.308012	-88.787399	80.732871	-88.787399	80.732871	-0.023870	-18.383061
0.800000	-0.020833	-16.322923	-88.865835	81.960042	-88.865835	81.960042	-0.025215	-19.600082
0.850000	-0.021976	-17.336618	-89.039982	83.847232	-89.039982	83.847232	-0.026594	-20.815177
0.900000	-0.023149	-18.349064	-89.301837	86.593275	-89.301837	86.593275	-0.028004	-22.028287
0.950000	-0.024346	-19.360229	-89.634054	90.454879	-89.634054	90.454879	-0.029441	-23.239354
1.000000	-0.025565	-20.370084	-90.001022	95.739386	-90.001022	95.739386	-0.030901	-24.448323
1.050000	-0.026803	-21.378600	-90.336188	102.751058	-90.336188	102.751058	-0.032381	-25.655141
1.100000	-0.028056	-22.385751	-90.531445	111.644388	-90.531445	111.644388	-0.033877	-26.859757
1.150000	-0.029322	-23.391509	-90.447399	122.171590	-90.447399	122.171590	-0.035385	-28.062122
1.200000	-0.030598	-24.395851	-89.967644	133.479743	-89.967644	133.479743	-0.036904	-29.262188
1.250000	-0.031882	-25.398754	-89.074812	144.311160	-89.074812	144.311160	-0.038429	-30.459912
1.300000	-0.033172	-26.400130	-87.848778	153.544520	-87.848778	153.544520	-0.039960	-31.655144
1.350000	-0.034467	-27.400021	-86.453458	160.866520	-86.453458	160.866520	-0.041494	-32.847944
1.400000	-0.035763	-28.398406	-85.003199	166.404684	-85.003199	166.404684	-0.043028	-34.038273
1.450000	-0.037061	-29.395264	-83.567723	170.463749	-83.567723	170.463749	-0.044561	-35.226092
1.500000	-0.038359	-30.390575	-82.182475	173.360114	-82.182475	173.360114	-0.046093	-36.411365
1.550000	-0.039656	-31.384322	-80.862240	175.360687	-80.862240	175.360687	-0.047621	-37.594055
1.600000	-0.040952	-32.376484	-79.610805	176.672953	-79.610805	176.672953	-0.049145	-38.774127
1.650000	-0.042247	-33.367044	-78.426590	177.453087	-78.426590	177.453087	-0.050665	-39.951549
1.700000	-0.043539	-34.355983	-77.305657	177.817592	-77.305657	177.817592	-0.052180	-41.126288
1.750000	-0.044828	-35.343283	-76.243236	177.853610	-76.243236	177.853610	-0.053690	-42.298311
1.800000	-0.046115	-36.328927	-75.234462	177.626866	-75.234462	177.626866	-0.055194	-43.467590
1.850000	-0.047400	-37.312896	-74.274719	177.187481	-74.274719	177.187481	-0.056694	-44.634094
1.900000	-0.048682	-38.295175	-73.359771	176.574134	-73.359771	176.574134	-0.058188	-45.797794
1.950000	-0.049962	-39.275745	-72.485800	175.817038	-72.485800	175.817038	-0.059677	-46.958665
2.000000	-0.051240	-40.254591	-71.649391	174.940066	-71.649391	174.940066	-0.061161	-48.116679
2.050000	-0.052517	-41.231696	-70.847504	173.962293	-70.847504	173.962293	-0.062642	-49.271811
2.100000	-0.053793	-42.207043	-70.077435	172.899117	-70.077435	172.899117	-0.064119	-50.424036
2.150000	-0.055068	-43.180618	-69.336774	171.763090	-69.336774	171.763090	-0.065593	-51.573333
2.200000	-0.056343	-44.152404	-68.623371	170.564534	-68.623371	170.564534	-0.067064	-52.719678
2.250000	-0.057618	-45.122386	-67.935303	169.312006	-67.935303	169.312006	-0.068534	-53.863051
2.300000	-0.058895	-46.090551	-67.270844	168.012658	-67.270844	168.012658	-0.070002	-55.003432
2.350000	-0.060172	-47.056884	-66.628443	166.672508	-66.628443	166.672508	-0.071471	-56.140802
2.400000	-0.061453	-48.021370	-66.006700	165.296652	-66.006700	165.296652	-0.072940	-57.275146
2.450000	-0.062735	-48.983998	-65.404347	163.889432	-65.404347	163.889432	-0.074410	-58.406445
2.500000	-0.064022	-49.944754	-64.820232	162.454571	-64.820232	162.454571	-0.075882	-59.534687
2.550000	-0.065312	-50.903544	-64.252453	160.994342	-64.252453	160.994342	-0.077357	-60.659722
2.600000	-0.066608	-51.860437	-63.701006	159.512669	-63.701006	159.512669	-0.078836	-61.781673
2.650000	-0.067908	-52.815423	-63.165006	158.011923	-63.165006	158.011923	-0.080319	-62.900529
2.700000	-0.069215	-53.768491	-62.643639	156.494180	-62.643639	156.494180	-0.081807	-64.016280
2.750000	-0.070529	-54.719632	-62.136158	154.961262	-62.136158	154.961262	-0.083302	-65.128918
2.800000	-0.071850	-55.668837	-61.641874	153.414774	-61.641874	153.414774	-0.084804	-66.238437
2.850000	-0.073179	-56.616097	-61.160151	151.856138	-61.160151	151.856138	-0.086313	-67.344833
2.900000	-0.074517	-57.561406	-60.690400	150.286614	-60.690400	150.286614	-0.087831	-68.448100
2.950000	-0.075864	-58.504755	-60.232075	148.707324	-60.232075	148.707324	-0.089358	-69.548238
3.000000	-0.077221	-59.446140	-59.784668	147.119269	-59.784668	147.119269	-0.090895	-70.645244
3.050000	-0.078588	-60.385554	-59.347707	145.523346	-59.347707	145.523346	-0.092443	-71.739120
3.100000	-0.079967	-61.322993	-58.920750	143.920359	-58.920750	143.920359	-0.094002	-72.829867
3.150000	-0.081357	-62.258454	-58.503386	142.311032	-58.503386	142.311032	-0.095574	-73.917489
3.200000	-0.082760	-63.191932	-58.095229	140.696018	-58.095229	140.696018	-0.097159	-75.001991
3.250000	-0.084176	-64.123426	-57.695918	139.075907	-57.695918	139.075907	-0.098758	-76.083377
3.300000	-0.085606	-65.052935	-57.305114	137.451233	-57.305114	137.451233	-0.100370	-77.161657
3.350000	-0.087049	-65.980457	-56.922498	135.822481	-56.922498	135.822481	-0.101998	-78.236839
3.400000	-0.088508	-66.905992	-56.547769	134.190094	-56.547769	134.190094	-0.103642	-79.308932
3.450000	-0.089981	-67.829542	-56.180646	132.554473	-56.180646	132.554473	-0.105303	-80.377949
3.500000	-0.091471	-68.751108	-55.820861	130.915986	-55.820861	130.915986	-0.106980	-81.443903
3.550000	-0.092977	-69.670693	-55.468161	129.274969	-55.468161	129.274969	-0.108675	-82.506807
3.600000	-0.094500	-70.588300	-55.122308	127.631730	-55.122308	127.631730	-0.110388	-83.566677
3.650000	-0.096041	-71.503932	-54.783077	125.986553	-54.783077	125.986553	-0.112121	-84.623531
3.700000	-0.097600	-72.417596	-54.450253	124.339698	-54.450253	124.339698	-0.113873	-85.677385
3.750000	-0.099177	-73.329297	-54.123632	122.691405	-54.123632	122.691405	-0.115645	-86.728260
3.800000	-0.100774	-74.238956	-53.802771	121.041851	-53.802771	121.041851	-0.117438	-87.776048
3.850000	-0.102391	-75.146666	-53.487758	119.391302	-53.487758	119.391302	-0.119253	-88.820902
3.900000	-0.104028	-76.052436	-53.178417	117.739946	-53.178417	117.739946	-0.121090	-89.862844
3.950000	-0.105686	-76.956274	-52.874580	116.087956	-52.874580	116.087956	-0.122950	-90.901898
4.000000	-0.107366	-77.858191	-52.576088	114.435495	-52.576088	114.435495	-0.124832	-91.938091
4.050000	-0.109067	-78.758197	-52.282787	112.782713	-52.282787	112.782713	-0.126738	-92.971448
4.100000	-0.110790	-79.656304	-51.994533	111.129751	-51.994533	111.129751	-0.128668	-94.001999
4.150000	-0.112536	-80.552523	-51.711186	109.476739	-51.711186	109.476739	-0.130622	-95.029771
4.200000	-0.114306	-81.446868	-51.432613	107.823801	-51.432613	107.823801	-0.132602	-96.054794
4.250000	-0.116099	-82.339352	-51.158686	106.171050	-51.158686	106.171050	-0.134607	-97.077101
4.300000	-0.117916	-83.229990	-50.889285	104.518595	-50.889285	104.518595	-0.136638	-98.096722
4.350000	-0.119759	-84.118798	-50.624291	102.866537	-50.624291	102.866537	-0.138695	-99.113692
4.400000	-0.121626	-85.005790	-50.363593	101.214970	-50.363593	101.214970	-0.140779	-100.128043
4.450000	-0.123519	-85.890985	-50.107083	99.563983	-50.107083	99.563983	-0.142891	-101.139812
4.500000	-0.125439	-86.774399	-49.854658	97.913662	-49.854658	97.913662	-0.145030	-102.149034
4.550000	-0.127385	-87.656050	-49.606219	96.264084	-49.606219	96.264084	-0.147198	-103.155747
4.600000	-0.129358	-88.535958	-49.361670	94.615325	-49.361670	94.615325	-0.149395	-104.159988
4.650000	-0.131359	-89.414142	-49.120919	92.967456	-49.120919	92.967456	-0.151620	-105.161796
4.700000	-0.133388	-90.290623	-48.883878	91.320544	-48.883878	91.320544	-0.153875	-106.161211
4.750000	-0.135446	-91.165421	-48.650462	89.674652	-48.650462	89.674652	-0.156160	-107.158273
4.800000	-0.137532	-92.038559	-48.420589	88.029839	-48.420589	88.029839	-0.158475	-108.153024
4.850000	-0.139649	-92.910059	-48.194179	86.386163	-48.194179	86.386163	-0.160821	-109.145506
4.900000	-0.141795	-93.779943	-47.971156	84.743678	-47.971156	84.743678	-0.163199	-110.135762
4.950000	-0.143972	-94.648237	-47.751446	83.102434	-47.751446	83.102434	-0.165607	-111.123836
5.000000	-0.146179	-95.514963	-47.534979	81.462480	-47.534979	81.462480	-0.168048	-112.109773
5.050000	-0.148420	-96.380083	-47.321596	79.823922	-47.321596	79.823922	-0.170522	-113.093528
5.100000	-0.150693	-97.243689	-47.111327	78.186747	-47.111327	78.186747	-0.173029	-114.075242
5.150000	-0.152997	-98.105808	-46.904107	76.550997	-46.904107	76.550997	-0.175569	-115.054960
5.200000	-0.155335	-98.966467	-46.699874	74.916709	-46.699874	74.916709	-0.178142	-116.032731
5.250000	-0.157706	-99.825695	-46.498567	73.283921	-46.498567	73.283921	-0.180749	-117.008603
5.300000	-0.160111	-100.683520	-46.300127	71.652668	-46.300127	71.652668	-0.183389	-117.982624
5.350000	-0.162550	-101.539970	-46.104498	70.022982	-46.104498	70.022982	-0.186065	-118.954845
5.400000	-0.165024	-102.395076	-45.911623	68.394894	-45.911623	68.394894	-0.188775	-119.925316
5.450000	-0.167533	-103.248867	-45.721451	66.768435	-45.721451	66.768435	-0.191519	-120.894086
5.500000	-0.170078	-104.101376	-45.533928	65.143630	-45.533928	65.143630	-0.194300	-121.861208
5.550000	-0.172659	-104.952632	-45.349005	63.520508	-45.349005	63.520508	-0.197115	-122.826735
5.600000	-0.175276	-105.802669	-45.166633	61.899090	-45.166633	61.899090	-0.199967	-123.790717
5.650000	-0.177931	-106.651519	-44.986764	60.279401	-44.986764	60.279401	-0.202855	-124.753209
5.700000	-0.180623	-107.499215	-44.809353	58.661462	-44.809353	58.661462	-0.205779	-125.714264
5.750000	-0.183353	-108.345792	-44.634354	57.045291	-44.634354	57.045291	-0.208740	-126.673936
5.800000	-0.186121	-109.191283	-44.461725	55.430908	-44.461725	55.430908	-0.211738	-127.632281
5.850000	-0.188928	-110.035724	-44.291424	53.818329	-44.291424	53.818329	-0.214774	-128.589353
5.900000	-0.191775	-110.879151	-44.123408	52.207570	-44.123408	52.207570	-0.217847	-129.545209
5.950000	-0.194661	-111.721599	-43.957640	50.598644	-43.957640	50.598644	-0.220958	-130.499904
6.000000	-0.197588	-112.563105	-43.794080	48.991564	-43.794080	48.991564	-0.224106	-131.453496
6.050000	-0.200555	-113.403708	-43.632690	47.386342	-43.632690	47.386342	-0.227293	-132.406041
6.100000	-0.203563	-114.243443	-43.473434	45.782988	-43.473434	45.782988	-0.230519	-133.357598
6.150000	-0.206613	-115.082351	-43.316278	44.181509	-43.316278	44.181509	-0.233783	-134.308225
6.200000	-0.209705	-115.920470	-43.161185	42.581915	-43.161185	42.581915	-0.237086	-135.257980
6.250000	-0.212840	-116.757840	-43.008124	40.984211	-43.008124	40.984211	-0.240429	-136.206923
6.300000	-0.216019	-117.594471	-42.857034	39.388486	-42.857034	39.388486	-0.243812	-137.155082
6.350000	-0.219242	-118.430438	-42.707914	37.794661	-42.707914	37.794661	-0.247235	-138.102554
6.400000	-0.222508	-119.265780	-42.560733	36.202738	-42.560733	36.202738	-0.250697	-139.049399
6.450000	-0.225819	-120.100541	-42.415462	34.612721	-42.415462	34.612721	-0.254200	-139.995678
6.500000	-0.229175	-120.934763	-42.272071	33.024609	-42.272071	33.024609	-0.257742	-140.941451
6.550000	-0.232575	-121.768488	-42.130532	31.438403	-42.130532	31.438403	-0.261325	-141.886781
6.600000	-0.236022	-122.601760	-41.990819	29.854102	-41.990819	29.854102	-0.264947	-142.831730
6.650000	-0.239514	-123.434624	-41.852904	28.271703	-41.852904	28.271703	-0.268611	-143.776359
6.700000	-0.243053	-124.267122	-41.716762	26.691205	-41.716762	26.691205	-0.272314	-144.720733
6.750000	-0.246638	-125.099302	-41.582367	25.112603	-41.582367	25.112603	-0.276059	-145.664913
6.800000	-0.250271	-125.931208	-41.449697	23.535893	-41.449697	23.535893	-0.279844	-146.608963
6.850000	-0.253952	-126.762886	-41.318727	21.961070	-41.318727	21.961070	-0.283670	-147.552948
6.900000	-0.257681	-127.594384	-41.189435	20.388129	-41.189435	20.388129	-0.287537	-148.496931
6.950000	-0.261458	-128.425749	-41.061798	18.817064	-41.061798	18.817064	-0.291445	-149.440977
7.000000	-0.265284	-129.257028	-40.935797	17.247868	-40.935797	17.247868	-0.295393	-150.385151
7.050000	-0.269160	-130.088270	-40.811410	15.680533	-40.811410	15.680533	-0.299383	-151.329518
7.100000	-0.273085	-130.919524	-40.688617	14.115053	-40.688617	14.115053	-0.303414	-152.274144
7.150000	-0.277061	-131.750840	-40.567400	12.551419	-40.567400	12.551419	-0.307485	-153.219093
7.200000	-0.281087	-132.582267	-40.447741	10.989623	-40.447741	10.989623	-0.311598	-154.164434
7.250000	-0.285164	-133.413857	-40.329621	9.429656	-40.329621	9.429656	-0.315752	-155.110231
7.300000	-0.289292	-134.245660	-40.213023	7.871511	-40.213023	7.871511	-0.319946	-156.056553
7.350000	-0.293471	-135.077729	-40.097932	6.315179	-40.097932	6.315179	-0.324182	-157.003465
7.400000	-0.297703	-135.910116	-39.984331	4.760650	-39.984331	4.760650	-0.328458	-157.951035
7.450000	-0.301987	-136.742873	-39.872205	3.207916	-39.872205	3.207916	-0.332775	-158.899331
7.500000	-0.306324	-137.576055	-39.761541	1.656970	-39.761541	1.656970	-0.337132	-159.848421
7.550000	-0.310716	-138.409739	-39.652327	0.107879	-39.652327	0.107879	-0.341531	-160.798414
7.600000	-0.315161	-139.243962	-39.544548	-1.439442	-39.544548	-1.439442	-0.345971	-161.749343
7.650000	-0.319660	-140.078778	-39.438193	-2.985001	-39.438193	-2.985001	-0.350451	-162.701277
7.700000	-0.324213	-140.914244	-39.333249	-4.528804	-39.333249	-4.528804	-0.354970	-163.654286
7.750000	-0.328821	-141.750416	-39.229704	-6.070858	-39.229704	-6.070858	-0.359530	-164.608438
7.800000	-0.333483	-142.587353	-39.127548	-7.611169	-39.127548	-7.611169	-0.364128	-165.563803
7.850000	-0.338200	-143.425111	-39.026770	-9.149742	-39.026770	-9.149742	-0.368766	-166.520451
7.900000	-0.342972	-144.263749	-38.927360	-10.686581	-38.927360	-10.686581	-0.373442	-167.478451
7.950000	-0.347799	-145.103327	-38.829309	-12.221691	-38.829309	-12.221691	-0.378157	-168.437874
8.000000	-0.352683	-145.943903	-38.732607	-13.755074	-38.732607	-13.755074	-0.382910	-169.398789
8.050000	-0.357622	-146.785540	-38.637248	-15.286731	-38.637248	-15.286731	-0.387701	-170.361267
8.100000	-0.362617	-147.628297	-38.543222	-16.816662	-38.543222	-16.816662	-0.392530	-171.325379
8.150000	-0.367669	-148.472236	-38.450523	-18.344868	-38.450523	-18.344868	-0.397395	-172.291196
8.200000	-0.372777	-149.317420	-38.359143	-19.871347	-38.359143	-19.871347	-0.402297	-173.258788
8.250000	-0.377942	-150.163912	-38.269076	-21.396094	-38.269076	-21.396094	-0.407234	-174.228226
8.300000	-0.383164	-151.011775	-38.180317	-22.919106	-38.180317	-22.919106	-0.412208	-175.199582
8.350000	-0.388442	-151.861074	-38.092859	-24.440376	-38.092859	-24.440376	-0.417216	-176.172927
8.400000	-0.393778	-152.711874	-38.006697	-25.959897	-38.006697	-25.959897	-0.422259	-177.148331
8.450000	-0.399172	-153.564241	-37.921827	-27.477659	-37.921827	-27.477659	-0.427335	-178.125868
8.500000	-0.404622	-154.418241	-37.838244	-28.993652	-37.838244	-28.993652	-0.432445	-179.105607
8.550000	-0.410131	-155.273942	-37.755943	-30.507862	-37.755943	-30.507862	-0.437587	179.912379
8.600000	-0.415696	-156.131411	-37.674923	-32.020275	-37.674923	-32.020275	-0.442761	178.928018
8.650000	-0.421320	-156.990716	-37.595178	-33.530875	-37.595178	-33.530875	-0.447966	177.941240
8.700000	-0.427000	-157.851928	-37.516707	-35.039642	-37.516707	-35.039642	-0.453201	176.951973
8.750000	-0.432739	-158.715116	-37.439505	-36.546558	-37.439505	-36.546558	-0.458466	175.960146
8.800000	-0.438537	-159.580444	-37.363598	-38.051516	-37.363598	-38.051516	-0.463760	174.965568
8.850000	-0.444393	-160.447896	-37.288958	-39.554571	-37.288958	-39.554571	-0.469082	173.968280
8.900000	-0.450306	-161.317546	-37.215584	-41.055699	-37.215584	-41.055699	-0.474430	172.968211
8.950000	-0.456276	-162.189466	-37.143473	-42.554867	-37.143473	-42.554867	-0.479804	171.965290
9.000000	-0.462304	-163.063731	-37.072624	-44.052047	-37.072624	-44.052047	-0.485202	170.959445
9.050000	-0.468388	-163.940414	-37.003035	-45.547203	-37.003035	-45.547203	-0.490624	169.950607
9.100000	-0.474530	-164.819592	-36.934705	-47.040300	-36.934705	-47.040300	-0.496068	168.938704
9.150000	-0.480727	-165.701341	-36.867634	-48.531299	-36.867634	-48.531299	-0.501533	167.923667
9.200000	-0.486981	-166.585736	-36.801819	-50.020160	-36.801819	-50.020160	-0.507018	166.905424
9.250000	-0.493291	-167.472857	-36.737261	-51.506840	-36.737261	-51.506840	-0.512522	165.883908
9.300000	-0.499657	-168.362781	-36.673958	-52.991293	-36.673958	-52.991293	-0.518043	164.859048
9.350000	-0.506077	-169.255588	-36.611909	-54.473473	-36.611909	-54.473473	-0.523580	163.830775
9.400000	-0.512553	-170.151357	-36.551114	-55.953329	-36.551114	-55.953329	-0.529131	162.799021
9.450000	-0.519083	-171.050169	-36.491572	-57.430808	-36.491572	-57.430808	-0.534695	161.763718
9.500000	-0.525667	-171.952107	-36.433282	-58.905857	-36.433282	-58.905857	-0.540271	160.724799
9.550000	-0.532304	-172.857251	-36.376243	-60.378419	-36.376243	-60.378419	-0.545857	159.682196
9.600000	-0.538994	-173.765686	-36.320455	-61.848434	-36.320455	-61.848434	-0.551450	158.635843
9.650000	-0.545736	-174.677495	-36.265917	-63.315841	-36.265917	-63.315841	-0.557050	157.585675
9.700000	-0.552529	-175.592763	-36.212627	-64.780577	-36.212627	-64.780577	-0.562655	156.531626
9.750000	-0.559374	-176.511574	-36.160585	-66.242577	-36.160585	-66.242577	-0.568262	155.473632
9.800000	-0.566268	-177.434016	-36.109789	-67.701773	-36.109789	-67.701773	-0.573871	154.411630
9.850000	-0.573211	-178.360174	-36.060237	-69.158096	-36.060237	-69.158096	-0.579478	153.345557
9.900000	-0.580202	-179.290137	-36.011930	-70.611473	-36.011930	-70.611473	-0.585083	152.275352
9.950000	-0.587241	179.776007	-35.964863	-72.061833	-35.964863	-72.061833	-0.590682	151.200953
10.000000	-0.594326	178.838170	-35.919037	-73.509099	-35.919037	-73.509099	-0.596275	150.122301
