! freq	dB(S11)	phase(S11)	dB(S12)	phase(S12)	
!     	dB(S21)	phase(S21)	dB(S22)	phase(S22)	
!S-par simulation data
#  GHz  S  DB  R 50
0.000000	-0.000000	0.000000	-401.108239	0.000000	-401.108239	0.000000	-0.000000	0.000000
0.050000	-0.000102	-0.762733	-117.925857	87.291350	-117.925857	87.291350	-0.000102	-0.762678
0.100000	-0.000403	-1.525211	-112.193609	86.120407	-112.193609	86.120407	-0.000401	-1.525102
0.150000	-0.000894	-2.287180	-108.918504	85.670609	-108.918504	85.670609	-0.000891	-2.287022
0.200000	-0.001543	-3.048494	-106.636222	85.374291	-106.636222	85.374291	-0.001537	-3.048290
0.250000	-0.002332	-3.808988	-104.919694	85.106846	-104.919694	85.106846	-0.002324	-3.808744
0.300000	-0.003244	-4.568465	-103.591429	84.866057	-103.591429	84.866057	-0.003234	-4.568186
0.350000	-0.004237	-5.327030	-102.533594	84.674869	-102.533594	84.674869	-0.004225	-5.326719
0.400000	-0.005299	-6.084517	-101.704172	84.578196	-101.704172	84.578196	-0.005286	-6.084177
0.450000	-0.006404	-6.841027	-101.056648	84.611801	-101.056648	84.611801	-0.006390	-6.840660
0.500000	-0.007536	-7.596542	-100.573205	84.832043	-100.573205	84.832043	-0.007522	-7.596147
0.550000	-0.008682	-8.351108	-100.238771	85.303318	-100.238771	85.303318	-0.008668	-8.350686
0.600000	-0.009831	-9.104770	-100.045096	86.111162	-100.045096	86.111162	-0.009817	-9.104319
0.650000	-0.010975	-9.857570	-99.987892	87.371513	-99.987892	87.371513	-0.010962	-9.857089
0.700000	-0.012109	-10.609550	-100.064893	89.245629	-100.064893	89.245629	-0.012098	-10.609037
0.750000	-0.013231	-11.360745	-100.272912	91.961344	-100.272912	91.961344	-0.013220	-11.360198
0.800000	-0.014338	-12.111187	-100.602136	95.840119	-100.602136	95.840119	-0.014329	-12.110604
0.850000	-0.015427	-12.860774	-101.011320	101.758038	-101.011320	101.758038	-0.015419	-12.860153
0.900000	-0.016500	-13.609617	-101.441171	109.913150	-101.441171	109.913150	-0.016493	-13.608957
0.950000	-0.017565	-14.358096	-101.741468	119.322410	-101.741468	119.322410	-0.017560	-14.357397
1.000000	-0.018609	-15.105482	-101.596377	132.494114	-101.596377	132.494114	-0.018604	-15.104742
1.050000	-0.019649	-15.852627	-101.232857	145.549913	-101.232857	145.549913	-0.019645	-15.851845
1.100000	-0.020669	-16.598560	-99.895192	158.026181	-99.895192	158.026181	-0.020666	-16.597736
1.150000	-0.021687	-17.344370	-98.651938	170.064840	-98.651938	170.064840	-0.021685	-17.343504
1.200000	-0.022688	-18.088825	-96.785668	177.289789	-96.785668	177.289789	-0.022686	-18.087916
1.250000	-0.023689	-18.833279	-95.250330	-175.485262	-95.250330	-175.485262	-0.023687	-18.832328
1.300000	-0.024679	-19.576597	-93.580763	-171.335175	-93.580763	-171.335175	-0.024677	-19.575604
1.350000	-0.025663	-20.319171	-92.005208	-168.456719	-92.005208	-168.456719	-0.025661	-20.318136
1.400000	-0.026641	-21.060987	-90.528324	-166.505106	-90.528324	-166.505106	-0.026639	-21.059912
1.450000	-0.027615	-21.802032	-89.145362	-165.236715	-89.145362	-165.236715	-0.027614	-21.800915
1.500000	-0.028586	-22.542290	-87.848319	-164.480191	-87.848319	-164.480191	-0.028584	-22.541133
1.550000	-0.029554	-23.281746	-86.628596	-164.113973	-86.628596	-164.113973	-0.029552	-23.280548
1.600000	-0.030519	-24.020383	-85.478070	-164.050576	-85.478070	-164.050576	-0.030517	-24.019147
1.650000	-0.031482	-24.758187	-84.389450	-164.225987	-84.389450	-164.225987	-0.031480	-24.756912
1.700000	-0.032443	-25.494838	-83.332933	-164.642413	-83.332933	-164.642413	-0.032441	-25.493524
1.750000	-0.033404	-26.231041	-82.360125	-165.145450	-82.360125	-165.145450	-0.033401	-26.229689
1.800000	-0.034364	-26.966162	-81.418071	-165.793062	-81.418071	-165.793062	-0.034361	-26.964772
1.850000	-0.035323	-27.700512	-80.524947	-166.543940	-80.524947	-166.543940	-0.035320	-27.699085
1.900000	-0.036283	-28.433901	-79.666040	-167.380502	-79.666040	-167.380502	-0.036279	-28.432437
1.950000	-0.037243	-29.166330	-78.839826	-168.302745	-78.839826	-168.302745	-0.037239	-29.164829
2.000000	-0.038203	-29.897930	-78.050068	-169.276300	-78.050068	-169.276300	-0.038199	-29.896394
2.050000	-0.039164	-30.628371	-77.280848	-170.321692	-77.280848	-170.321692	-0.039160	-30.626799
2.100000	-0.040126	-31.358128	-76.549535	-171.397523	-76.549535	-171.397523	-0.040122	-31.356520
2.150000	-0.041090	-32.086516	-75.829504	-172.534232	-75.829504	-172.534232	-0.041086	-32.084873
2.200000	-0.042056	-32.814375	-75.148282	-173.688309	-75.148282	-173.688309	-0.042051	-32.812698
2.250000	-0.043024	-33.540648	-74.471209	-174.894491	-74.471209	-174.894491	-0.043019	-33.538936
2.300000	-0.043993	-34.266557	-73.833440	-176.109670	-73.833440	-176.109670	-0.043988	-34.264811
2.350000	-0.044967	-34.990653	-73.194266	-177.369839	-73.194266	-177.369839	-0.044962	-34.988873
2.400000	-0.045941	-35.714563	-72.594592	-178.633566	-72.594592	-178.633566	-0.045936	-35.712749
2.450000	-0.046922	-36.436423	-71.989155	-179.936433	-71.989155	-179.936433	-0.046917	-36.434575
2.500000	-0.047902	-37.158283	-71.423183	178.760701	-71.423183	178.760701	-0.047897	-37.156402
2.550000	-0.048891	-37.877851	-70.848016	177.423566	-70.848016	177.423566	-0.048886	-37.875936
2.600000	-0.049880	-38.597419	-70.308581	176.086432	-70.308581	176.086432	-0.049874	-38.595471
2.650000	-0.050877	-39.314835	-69.764276	174.723777	-69.764276	174.723777	-0.050872	-39.312855
2.700000	-0.051875	-40.032056	-69.248964	173.358802	-69.248964	173.358802	-0.051870	-40.030043
2.750000	-0.052883	-40.747279	-68.732382	171.974786	-68.732382	171.974786	-0.052878	-40.745232
2.800000	-0.053892	-41.462101	-68.239120	170.586962	-68.239120	170.586962	-0.053887	-41.460022
2.850000	-0.054911	-42.175087	-67.747592	169.184955	-67.747592	169.184955	-0.054905	-42.172976
2.900000	-0.055932	-42.887461	-67.274582	167.778220	-67.274582	167.778220	-0.055927	-42.885318
2.950000	-0.056963	-43.598172	-66.805821	166.360981	-66.805821	166.360981	-0.056958	-43.595996
3.000000	-0.057999	-44.308050	-66.351495	164.938490	-66.351495	164.938490	-0.057994	-44.305843
3.050000	-0.059043	-45.016447	-65.903523	163.508298	-65.903523	163.508298	-0.059039	-45.014208
3.100000	-0.060095	-45.723785	-65.466501	162.072607	-65.466501	162.072607	-0.060090	-45.721514
3.150000	-0.061154	-46.429832	-65.037595	160.631365	-65.037595	160.631365	-0.061149	-46.427530
3.200000	-0.062222	-47.134588	-64.616658	159.184571	-64.616658	159.184571	-0.062217	-47.132255
3.250000	-0.063298	-47.838252	-64.205308	157.733876	-64.205308	157.733876	-0.063293	-47.835887
3.300000	-0.064385	-48.540387	-63.799369	156.277717	-63.799369	156.277717	-0.064380	-48.537991
3.350000	-0.065478	-49.241635	-63.404245	154.818922	-63.404245	154.818922	-0.065473	-49.239208
3.400000	-0.066585	-49.941111	-63.012330	153.354854	-63.012330	153.354854	-0.066580	-49.938654
3.450000	-0.067697	-50.639914	-62.632251	151.889113	-62.632251	151.889113	-0.067692	-50.637426
3.500000	-0.068825	-51.336698	-62.253488	150.418360	-62.253488	150.418360	-0.068821	-51.334180
3.550000	-0.069958	-52.033028	-61.887401	148.946666	-61.887401	148.946666	-0.069953	-52.030479
3.600000	-0.071110	-52.727088	-61.520999	147.470270	-61.520999	147.470270	-0.071105	-52.724510
3.650000	-0.072264	-53.420919	-61.167962	145.993479	-61.167962	145.993479	-0.072259	-53.418311
3.700000	-0.073440	-54.112227	-60.813207	144.512333	-60.813207	144.512333	-0.073435	-54.109590
3.750000	-0.074617	-54.803535	-60.472373	143.031187	-60.472373	143.031187	-0.074612	-54.800868
3.800000	-0.075820	-55.492066	-60.128612	141.546059	-60.128612	141.546059	-0.075815	-55.489370
3.850000	-0.077024	-56.180596	-59.797939	140.060932	-59.797939	140.060932	-0.077019	-56.177871
3.900000	-0.078253	-56.866560	-59.465855	138.572765	-59.465855	138.572765	-0.078248	-56.863806
3.950000	-0.079484	-57.552290	-59.144816	137.084321	-59.144816	137.084321	-0.079479	-57.549508
4.000000	-0.080740	-58.235669	-58.823698	135.593598	-58.823698	135.593598	-0.080735	-58.232859
4.050000	-0.082001	-58.918579	-58.511808	134.102419	-58.511808	134.102419	-0.081996	-58.915740
4.100000	-0.083286	-59.599360	-58.201010	132.609570	-58.201010	132.609570	-0.083281	-59.596494
4.150000	-0.084579	-60.279432	-57.897822	131.116163	-57.897822	131.116163	-0.084574	-60.276538
4.200000	-0.085893	-60.957603	-57.596755	129.621569	-57.596755	129.621569	-0.085888	-60.954681
4.250000	-0.087219	-61.634823	-57.301857	128.126382	-57.301857	128.126382	-0.087214	-61.631874
4.300000	-0.088565	-62.310372	-57.009981	126.630387	-57.009981	126.630387	-0.088560	-62.307396
4.350000	-0.089925	-62.984728	-56.722991	125.133815	-56.722991	125.133815	-0.089920	-62.981725
4.400000	-0.091304	-63.657648	-56.439811	123.636725	-56.439811	123.636725	-0.091298	-63.654619
4.450000	-0.092701	-64.329132	-56.160374	122.139118	-56.160374	122.139118	-0.092695	-64.326076
4.500000	-0.094113	-64.999417	-55.885437	120.641210	-55.885437	120.641210	-0.094107	-64.996334
4.550000	-0.095548	-65.668022	-55.613223	119.142882	-55.613223	119.142882	-0.095542	-65.664914
4.600000	-0.096996	-66.335667	-55.346109	117.644406	-55.346109	117.644406	-0.096990	-66.332533
4.650000	-0.098470	-67.001391	-55.080810	116.145635	-55.080810	116.145635	-0.098464	-66.998231
4.700000	-0.099955	-67.666394	-54.821132	114.646817	-54.821132	114.646817	-0.099948	-67.663208
4.750000	-0.101470	-68.329235	-54.562461	113.147857	-54.562461	113.147857	-0.101464	-68.326024
4.800000	-0.102993	-68.991596	-54.309861	111.648903	-54.309861	111.648903	-0.102987	-68.988360
4.850000	-0.104552	-69.651556	-54.057549	110.149980	-54.057549	110.149980	-0.104545	-69.648296
4.900000	-0.106114	-70.311277	-53.811694	108.651078	-53.811694	108.651078	-0.106107	-70.307992
4.950000	-0.107717	-70.968362	-53.565490	107.152398	-53.565490	107.152398	-0.107710	-70.965052
5.000000	-0.109321	-71.625447	-53.326072	105.653719	-53.326072	105.653719	-0.109314	-71.622112
5.050000	-0.110970	-72.279662	-53.085739	104.155470	-53.085739	104.155470	-0.110963	-72.276304
5.100000	-0.112620	-72.933878	-52.851877	102.657221	-52.851877	102.657221	-0.112612	-72.930496
5.150000	-0.114313	-73.585473	-52.617786	101.159524	-52.617786	101.159524	-0.114306	-73.582067
5.200000	-0.116011	-74.236830	-52.389276	99.661877	-52.389276	99.661877	-0.116003	-74.233400
5.250000	-0.117749	-74.885814	-52.161155	98.164863	-52.161155	98.164863	-0.117742	-74.882360
5.300000	-0.119497	-75.534324	-51.937805	96.667976	-51.937805	96.667976	-0.119489	-75.530847
5.350000	-0.121282	-76.180709	-51.715397	95.171766	-51.715397	95.171766	-0.121275	-76.177208
5.400000	-0.123081	-76.826386	-51.497027	93.675783	-51.497027	93.675783	-0.123073	-76.822862
5.450000	-0.124915	-77.470185	-51.280092	92.180491	-51.280092	92.180491	-0.124907	-77.466639
5.500000	-0.126766	-78.113047	-51.066530	90.685546	-51.066530	90.685546	-0.126759	-78.109477
5.550000	-0.128650	-78.754276	-50.854844	89.191278	-50.854844	89.191278	-0.128642	-78.750684
5.600000	-0.130556	-79.394341	-50.645929	87.697494	-50.645929	87.697494	-0.130548	-79.390726
5.650000	-0.132491	-80.033018	-50.439282	86.204349	-50.439282	86.204349	-0.132483	-80.029380
5.700000	-0.134453	-80.670307	-50.234860	84.711844	-50.234860	84.711844	-0.134445	-80.666647
5.750000	-0.136440	-81.306449	-50.033054	83.219915	-50.033054	83.219915	-0.136432	-81.302767
5.800000	-0.138461	-81.940986	-49.832978	81.728795	-49.832978	81.728795	-0.138453	-81.937282
5.850000	-0.140502	-82.574615	-49.635826	80.238171	-49.635826	80.238171	-0.140494	-82.570888
5.900000	-0.142583	-83.206426	-49.439959	78.748537	-49.439959	78.748537	-0.142575	-83.202677
5.950000	-0.144679	-83.837563	-49.247287	77.259300	-49.247287	77.259300	-0.144671	-83.833792
6.000000	-0.146821	-84.466675	-49.055496	75.771248	-49.055496	75.771248	-0.146813	-84.462883
6.050000	-0.148974	-85.095343	-48.867137	74.283475	-48.867137	74.283475	-0.148966	-85.091529
6.100000	-0.151179	-85.721787	-48.679296	72.797094	-48.679296	72.797094	-0.151171	-85.717951
6.150000	-0.153391	-86.348012	-48.495094	71.310860	-48.495094	71.310860	-0.153382	-86.344154
6.200000	-0.155661	-86.971819	-48.311084	69.826233	-48.311084	69.826233	-0.155652	-86.967939
6.250000	-0.157931	-87.595626	-48.130891	68.341607	-48.130891	68.341607	-0.157923	-87.591725
6.300000	-0.160268	-88.216829	-47.950596	66.858813	-47.950596	66.858813	-0.160259	-88.212907
6.350000	-0.162605	-88.838033	-47.773968	65.376019	-47.773968	65.376019	-0.162597	-88.834089
6.400000	-0.165004	-89.456883	-47.597583	63.894973	-47.597583	63.894973	-0.164996	-89.452918
6.450000	-0.167410	-90.075519	-47.424417	62.414085	-47.424417	62.414085	-0.167401	-90.071533
6.500000	-0.169873	-90.692046	-47.251806	60.934843	-47.251806	60.934843	-0.169864	-90.688038
6.550000	-0.172349	-91.308151	-47.082003	59.455930	-47.082003	59.455930	-0.172340	-91.304123
6.600000	-0.174877	-91.922388	-46.913037	57.978545	-46.913037	57.978545	-0.174868	-91.918338
6.650000	-0.177424	-92.536002	-46.746504	56.501669	-46.746504	56.501669	-0.177415	-92.531931
6.700000	-0.180020	-93.147982	-46.581060	55.026191	-46.581060	55.026191	-0.180011	-93.143890
6.750000	-0.182640	-93.759145	-46.417706	53.551412	-46.417706	53.551412	-0.182631	-93.755032
6.800000	-0.185303	-94.368903	-46.255667	52.077887	-46.255667	52.077887	-0.185294	-94.364769
6.850000	-0.187998	-94.977658	-46.095403	50.605257	-46.095403	50.605257	-0.187989	-94.973503
6.900000	-0.190731	-95.585231	-45.936658	49.133726	-45.936658	49.133726	-0.190722	-95.581055
6.950000	-0.193502	-96.191621	-45.779402	47.663293	-45.779402	47.663293	-0.193494	-96.187425
7.000000	-0.196306	-96.797046	-45.623844	46.193793	-45.623844	46.193793	-0.196297	-96.792828
7.050000	-0.199156	-97.401118	-45.469513	44.725599	-45.469513	44.725599	-0.199147	-97.396880
7.100000	-0.202032	-98.004433	-45.317041	43.258164	-45.317041	43.258164	-0.202023	-98.000174
7.150000	-0.204961	-98.606234	-45.165557	41.792245	-45.165557	41.792245	-0.204952	-98.601954
7.200000	-0.207911	-99.207479	-45.016073	40.326903	-45.016073	40.326903	-0.207902	-99.203178
7.250000	-0.210921	-99.807057	-44.867361	38.863289	-44.867361	38.863289	-0.210912	-99.802736
7.300000	-0.213945	-100.406273	-44.720773	37.400063	-44.720773	37.400063	-0.213936	-100.401932
7.350000	-0.217038	-101.003678	-44.574758	35.938776	-44.574758	35.938776	-0.217029	-100.999317
7.400000	-0.220139	-101.600907	-44.430977	34.477684	-44.430977	34.477684	-0.220130	-101.596525
7.450000	-0.223316	-102.196192	-44.287588	33.018740	-44.287588	33.018740	-0.223306	-102.191790
7.500000	-0.226494	-102.791477	-44.146528	31.559796	-44.146528	31.559796	-0.226485	-102.787055
7.550000	-0.229756	-103.384694	-44.005698	30.103203	-44.005698	30.103203	-0.229747	-103.380252
7.600000	-0.233020	-103.977912	-43.867115	28.646610	-43.867115	28.646610	-0.233011	-103.973449
7.650000	-0.236363	-104.569283	-43.728939	27.192172	-43.728939	27.192172	-0.236353	-104.564801
7.700000	-0.239714	-105.160487	-43.592769	25.737929	-43.592769	25.737929	-0.239704	-105.155985
7.750000	-0.243138	-105.750060	-43.457169	24.285639	-43.457169	24.285639	-0.243128	-105.745539
7.800000	-0.246577	-106.339307	-43.323351	22.833738	-43.323351	22.833738	-0.246568	-106.334766
7.850000	-0.250084	-106.927128	-43.190250	21.383581	-43.190250	21.383581	-0.250074	-106.922568
7.900000	-0.253613	-107.514475	-43.058725	19.934004	-43.058725	19.934004	-0.253604	-107.509895
7.950000	-0.257203	-108.100594	-42.928049	18.485960	-42.928049	18.485960	-0.257193	-108.095994
8.000000	-0.260824	-108.686098	-42.798762	17.038680	-42.798762	17.038680	-0.260814	-108.681480
8.050000	-0.264498	-109.270564	-42.670441	15.592720	-42.670441	15.592720	-0.264489	-109.265927
8.100000	-0.268212	-109.854287	-42.543335	14.147701	-42.543335	14.147701	-0.268202	-109.849631
8.150000	-0.271972	-110.437149	-42.417303	12.703788	-42.417303	12.703788	-0.271962	-110.432475
8.200000	-0.275779	-111.019152	-42.292325	11.260982	-42.292325	11.260982	-0.275770	-111.014459
8.250000	-0.279626	-111.600463	-42.168517	9.819074	-42.168517	9.819074	-0.279617	-111.595753
8.300000	-0.283528	-112.180807	-42.045617	8.378423	-42.045617	8.378423	-0.283519	-112.176079
8.350000	-0.287463	-112.760620	-41.923971	6.938468	-41.923971	6.938468	-0.287454	-112.755874
8.400000	-0.291462	-113.339370	-41.803100	5.499904	-41.803100	5.499904	-0.291452	-113.334606
8.450000	-0.295485	-113.917737	-41.683559	4.061841	-41.683559	4.061841	-0.295476	-113.912957
8.500000	-0.299581	-114.494958	-41.564670	2.625284	-41.564670	2.625284	-0.299572	-114.490160
8.550000	-0.303694	-115.071934	-41.447177	1.189046	-41.447177	1.189046	-0.303685	-115.067120
8.600000	-0.307889	-115.647691	-41.330225	-0.245595	-41.330225	-0.245595	-0.307879	-115.642862
8.650000	-0.312092	-116.223332	-41.214729	-1.680085	-41.214729	-1.680085	-0.312083	-116.218487
8.700000	-0.316386	-116.797694	-41.099673	-3.112912	-41.099673	-3.112912	-0.316377	-116.792833
8.750000	-0.320681	-117.372056	-40.986121	-4.545740	-40.986121	-4.545740	-0.320672	-117.367180
8.800000	-0.325075	-117.945092	-40.872921	-5.976868	-40.872921	-5.976868	-0.325066	-117.940201
8.850000	-0.329470	-118.518128	-40.761178	-7.407995	-40.761178	-7.407995	-0.329462	-118.513222
8.900000	-0.333957	-119.090012	-40.649887	-8.837680	-40.649887	-8.837680	-0.333949	-119.085092
8.950000	-0.338454	-119.661791	-40.539917	-10.267233	-40.539917	-10.267233	-0.338446	-119.656858
9.000000	-0.343034	-120.232583	-40.430491	-11.695588	-40.430491	-11.695588	-0.343026	-120.227637
9.050000	-0.347633	-120.803178	-40.322263	-13.123704	-40.322263	-13.123704	-0.347625	-120.798220
9.100000	-0.352307	-121.372939	-40.214661	-14.550851	-40.214661	-14.550851	-0.352300	-121.367969
9.150000	-0.357009	-121.942422	-40.108143	-15.977676	-40.108143	-15.977676	-0.357002	-121.937440
9.200000	-0.361778	-122.511214	-40.002328	-17.403747	-40.002328	-17.403747	-0.361771	-122.506221
9.250000	-0.366582	-123.079660	-39.897495	-18.829440	-39.897495	-18.829440	-0.366576	-123.074657
9.300000	-0.371447	-123.647544	-39.793431	-20.254571	-39.793431	-20.254571	-0.371441	-123.642532
9.350000	-0.376355	-124.215028	-39.690260	-21.679300	-39.690260	-21.679300	-0.376350	-124.210007
9.400000	-0.381316	-124.782070	-39.587917	-23.103636	-39.587917	-23.103636	-0.381311	-124.777040
9.450000	-0.386328	-125.348670	-39.486387	-24.527580	-39.486387	-24.527580	-0.386324	-125.343632
9.500000	-0.391385	-125.914933	-39.385735	-25.951275	-39.385735	-25.951275	-0.391381	-125.909889
9.550000	-0.396501	-126.480727	-39.285830	-27.374620	-39.285830	-27.374620	-0.396499	-126.475676
9.600000	-0.401654	-127.046278	-39.186845	-28.797831	-39.186845	-28.797831	-0.401653	-127.041222
9.650000	-0.406876	-127.611346	-39.088552	-30.220773	-39.088552	-30.220773	-0.406875	-127.606285
9.700000	-0.412125	-128.176252	-38.991212	-31.643664	-38.991212	-31.643664	-0.412126	-128.171187
9.750000	-0.417452	-128.740675	-38.894521	-33.066404	-38.894521	-33.066404	-0.417453	-128.735607
9.800000	-0.422798	-129.305004	-38.798809	-34.489145	-38.798809	-34.489145	-0.422801	-129.299934
9.850000	-0.428230	-129.868865	-38.703716	-35.911891	-38.703716	-35.911891	-0.428233	-129.863795
9.900000	-0.433673	-130.432687	-38.609616	-37.334655	-38.609616	-37.334655	-0.433677	-130.427616
9.950000	-0.439209	-130.996071	-38.516120	-38.757619	-38.516120	-38.757619	-0.439215	-130.991002
10.000000	-0.444749	-131.559456	-38.423620	-40.180583	-38.423620	-40.180583	-0.444756	-131.554388
