! freq	dB(S11)	phase(S11)	dB(S12)	phase(S12)	
!     	dB(S21)	phase(S21)	dB(S22)	phase(S22)	
!S-par simulation data
#  GHz  S  DB  R 50
0.000000	-84.353188	0.000000	-0.000526	0.000000	-0.000526	0.000000	-84.353188	0.000000
0.050000	-43.627836	-91.644251	-0.005706	-2.657532	-0.005706	-2.657532	-43.641205	-91.574654
0.100000	-37.696516	-94.637519	-0.010627	-5.277954	-0.010627	-5.277954	-37.696217	-94.320207
0.150000	-34.238801	-97.646301	-0.015029	-7.892467	-0.015029	-7.892467	-34.237725	-97.092940
0.200000	-31.791318	-100.613823	-0.019607	-10.502517	-0.019607	-10.502517	-31.791485	-99.861133
0.250000	-29.901645	-103.528952	-0.024367	-13.108404	-0.024367	-13.108404	-29.902253	-102.594271
0.300000	-28.369175	-106.398205	-0.029269	-15.710850	-0.029269	-15.710850	-28.369500	-105.287080
0.350000	-27.084728	-109.232894	-0.034302	-18.310797	-0.034302	-18.310797	-27.084553	-107.945445
0.400000	-25.984031	-112.039041	-0.039490	-20.908683	-0.039490	-20.908683	-25.983436	-110.573089
0.450000	-25.027106	-114.820600	-0.044873	-23.504679	-0.044873	-23.504679	-25.026353	-113.172399
0.500000	-24.183036	-117.584687	-0.050448	-26.099153	-0.050448	-26.099153	-24.182399	-115.750354
0.550000	-23.433449	-120.333344	-0.056239	-28.692038	-0.056239	-28.692038	-23.433192	-118.308424
0.600000	-22.762279	-123.070475	-0.062228	-31.283465	-0.062228	-31.283465	-22.762574	-120.850769
0.650000	-22.158672	-125.798324	-0.068400	-33.873439	-0.068400	-33.873439	-22.159622	-123.379692
0.700000	-21.613489	-128.519088	-0.074718	-36.462020	-0.074718	-36.462020	-21.615120	-125.897658
0.750000	-21.119986	-131.234378	-0.081141	-39.049223	-0.081141	-39.049223	-21.122275	-128.406438
0.800000	-20.672554	-133.945591	-0.087616	-41.635063	-0.087616	-41.635063	-20.675444	-130.907580
0.850000	-20.267100	-136.653838	-0.094089	-44.219497	-0.094089	-44.219497	-20.270517	-133.402191
0.900000	-19.899062	-139.360186	-0.100504	-46.802541	-0.100504	-46.802541	-19.902936	-135.891453
0.950000	-19.565748	-142.065401	-0.106812	-49.384109	-0.106812	-49.384109	-19.570017	-138.375942
1.000000	-19.264596	-144.770204	-0.112971	-51.964145	-0.112971	-51.964145	-19.269220	-140.856149
1.050000	-18.993458	-147.475244	-0.118950	-54.542623	-0.118950	-54.542623	-18.998419	-143.332392
1.100000	-18.750531	-150.181117	-0.124724	-57.119567	-0.124724	-57.119567	-18.755838	-145.804847
1.150000	-18.534300	-152.888394	-0.130274	-59.695065	-0.130274	-59.695065	-18.539983	-148.273568
1.200000	-18.343492	-155.597628	-0.135586	-62.269269	-0.135586	-62.269269	-18.349607	-150.738516
1.250000	-18.177047	-158.309375	-0.140646	-64.842391	-0.140646	-64.842391	-18.183666	-153.199572
1.300000	-18.034542	-161.024282	-0.145435	-67.414675	-0.145435	-67.414675	-18.041755	-155.656462
1.350000	-17.914817	-163.742890	-0.149943	-69.986437	-0.149943	-69.986437	-17.922722	-158.109039
1.400000	-17.817313	-166.465823	-0.154158	-72.557991	-0.154158	-72.557991	-17.826012	-160.557029
1.450000	-17.741605	-169.193753	-0.158067	-75.129666	-0.158067	-75.129666	-17.751204	-163.000125
1.500000	-17.687400	-171.927404	-0.161658	-77.701800	-0.161658	-77.701800	-17.698006	-165.437983
1.550000	-17.654531	-174.667563	-0.164922	-80.274734	-0.164922	-80.274734	-17.666245	-167.870226
1.600000	-17.642950	-177.415093	-0.167851	-82.848813	-0.167851	-82.848813	-17.655869	-170.296432
1.650000	-17.652732	179.829055	-0.170443	-85.424381	-0.170443	-85.424381	-17.666949	-172.716126
1.700000	-17.684076	177.063830	-0.172697	-88.001781	-0.172697	-88.001781	-17.699679	-175.128769
1.750000	-17.737308	174.288055	-0.174615	-90.581351	-0.174615	-90.581351	-17.754383	-177.533736
1.800000	-17.812895	171.500413	-0.176205	-93.163425	-0.176205	-93.163425	-17.831523	-179.930292
1.850000	-17.911447	168.699416	-0.177476	-95.748331	-0.177476	-95.748331	-17.931714	177.682434
1.900000	-18.033986	165.883184	-0.178439	-98.336426	-0.178439	-98.336426	-18.055980	175.305619
1.950000	-18.181478	163.049701	-0.179112	-100.928030	-0.179112	-100.928030	-18.205299	172.940590
2.000000	-18.354844	160.196856	-0.179521	-103.523405	-0.179521	-103.523405	-18.380605	170.588817
2.050000	-18.555487	157.321995	-0.179689	-106.122836	-0.179689	-106.122836	-18.583323	168.252249
2.100000	-18.785086	154.421977	-0.179645	-108.726592	-0.179645	-108.726592	-18.815160	165.933309
2.150000	-19.045648	151.493050	-0.179419	-111.334928	-0.179419	-111.334928	-19.078164	163.635022
2.200000	-19.339577	148.530671	-0.179046	-113.948079	-0.179046	-113.948079	-19.374787	161.361195
2.250000	-19.669755	145.529267	-0.178561	-116.566262	-0.178561	-116.566262	-19.707973	159.116655
2.300000	-20.039084	142.483104	-0.178006	-119.189556	-0.178006	-119.189556	-20.080705	156.906629
2.350000	-20.453051	139.380886	-0.177418	-121.818397	-0.177418	-121.818397	-20.498583	154.741098
2.400000	-20.916118	136.212533	-0.176843	-124.452795	-0.176843	-124.452795	-20.966205	152.629638
2.450000	-21.434661	132.963151	-0.176326	-127.092876	-0.176326	-127.092876	-21.490134	150.586315
2.500000	-22.016661	129.612735	-0.175914	-129.738744	-0.175914	-129.738744	-22.078603	148.630258
2.550000	-22.672584	126.131916	-0.175655	-132.390540	-0.175655	-132.390540	-22.742438	146.789731
2.600000	-23.415211	122.482217	-0.175597	-135.048250	-0.175597	-135.048250	-23.494927	145.102360
2.650000	-24.261785	118.605491	-0.175789	-137.711898	-0.175789	-137.711898	-24.354079	143.625273
2.700000	-25.235537	114.412773	-0.176279	-140.381479	-0.176279	-140.381479	-25.344315	142.446584
2.750000	-26.368533	109.761195	-0.177116	-143.056964	-0.177116	-143.056964	-26.499656	141.709082
2.800000	-27.706153	104.407428	-0.178348	-145.738293	-0.178348	-145.738293	-27.868863	141.658751
2.850000	-29.313546	97.828925	-0.180039	-148.425599	-0.180039	-148.425599	-29.523416	142.831444
2.900000	-31.278943	89.188709	-0.182204	-151.118364	-0.182204	-151.118364	-31.563273	146.113423
2.950000	-33.694855	76.388123	-0.184900	-153.816640	-0.184900	-153.816640	-34.101314	153.793729
3.000000	-36.425176	54.846255	-0.188169	-156.520268	-0.188169	-156.520268	-36.995224	171.117759
3.050000	-38.092592	19.419833	-0.192052	-159.229062	-0.192052	-159.229062	-38.594954	-156.238818
3.100000	-36.619412	-17.869112	-0.196586	-161.942817	-0.196586	-161.942817	-36.714032	-123.759824
3.150000	-33.701082	-41.012179	-0.201810	-164.661342	-0.201810	-164.661342	-33.612674	-107.158154
3.200000	-31.035617	-54.508395	-0.207757	-167.384385	-0.207757	-167.384385	-30.908580	-99.923564
3.250000	-28.833751	-63.519469	-0.214449	-170.111643	-0.214449	-170.111643	-28.705467	-96.855933
3.300000	-27.005108	-70.296408	-0.221910	-172.842838	-0.221910	-172.842838	-26.884221	-95.844465
3.350000	-25.455872	-75.846572	-0.230158	-175.577663	-0.230158	-175.577663	-25.343689	-95.962772
3.400000	-24.117374	-80.650671	-0.239222	-178.315873	-0.239222	-178.315873	-24.013337	-96.770989
3.450000	-22.942486	-84.984774	-0.249105	178.942892	-0.249105	178.942892	-22.845591	-98.016204
3.500000	-21.897534	-89.000171	-0.259816	176.198950	-0.259816	176.198950	-21.806794	-99.559459
3.550000	-20.958168	-92.790403	-0.271358	173.452621	-0.271358	173.452621	-20.872716	-101.314461
3.600000	-20.106321	-96.416149	-0.283731	170.704230	-0.283731	170.704230	-20.025423	-103.224915
3.650000	-19.328263	-99.918361	-0.296931	167.954096	-0.296931	167.954096	-19.251308	-105.252562
3.700000	-18.613340	-103.325598	-0.310950	165.202537	-0.310950	165.202537	-18.539815	-107.370493
3.750000	-17.953121	-106.658342	-0.325776	162.449867	-0.325776	162.449867	-17.882599	-109.559218
3.800000	-17.340861	-109.930941	-0.341402	159.696381	-0.341402	159.696381	-17.272980	-111.804911
3.850000	-16.771012	-113.155605	-0.357797	156.942389	-0.357797	156.942389	-16.705468	-114.095691
3.900000	-16.238989	-116.340838	-0.374937	154.188173	-0.374937	154.188173	-16.175524	-116.423143
3.950000	-15.740953	-119.493247	-0.392794	151.433997	-0.392794	151.433997	-15.679349	-118.780641
4.000000	-15.273655	-122.618029	-0.411339	148.680114	-0.411339	148.680114	-15.213725	-121.162892
4.050000	-14.834316	-125.719330	-0.430538	145.926756	-0.430538	145.926756	-14.775905	-123.565616
4.100000	-14.420541	-128.800494	-0.450355	143.174137	-0.450355	143.174137	-14.363517	-125.985315
4.150000	-14.030246	-131.864254	-0.470751	140.422451	-0.470751	140.422451	-13.974499	-128.419108
4.200000	-13.661655	-134.912735	-0.491691	137.671882	-0.491691	137.671882	-13.607097	-130.864694
4.250000	-13.313134	-137.947922	-0.513127	134.922579	-0.513127	134.922579	-13.259694	-133.319988
4.300000	-12.983225	-140.971464	-0.535015	132.174662	-0.535015	132.174662	-12.930848	-135.783270
4.350000	-12.670649	-143.984709	-0.557309	129.428235	-0.557309	129.428235	-12.619294	-138.253143
4.400000	-12.374255	-146.988818	-0.579963	126.683379	-0.579963	126.683379	-12.323895	-140.728431
4.450000	-12.093004	-149.984806	-0.602930	123.940150	-0.602930	123.940150	-12.043623	-143.208145
4.500000	-11.825955	-152.973566	-0.626164	121.198580	-0.626164	121.198580	-11.777549	-145.691458
4.550000	-11.572249	-155.955896	-0.649618	118.458681	-0.649618	118.458681	-11.524823	-148.177679
4.600000	-11.331127	-158.932486	-0.673245	115.720447	-0.673245	115.720447	-11.284696	-150.666251
4.650000	-11.101896	-161.903975	-0.697000	112.983852	-0.697000	112.983852	-11.056481	-153.156711
4.700000	-10.883836	-164.871007	-0.720835	110.248821	-0.720835	110.248821	-10.839465	-155.648673
4.750000	-10.676334	-167.834127	-0.744706	107.515277	-0.744706	107.515277	-10.633040	-158.141853
4.800000	-10.478821	-170.793837	-0.768571	104.783124	-0.768571	104.783124	-10.436642	-160.636044
4.850000	-10.290770	-173.750604	-0.792388	102.052245	-0.792388	102.052245	-10.249747	-163.131103
4.900000	-10.111687	-176.704864	-0.816118	99.322508	-0.816118	99.322508	-10.071864	-165.626947
4.950000	-9.941113	-179.657019	-0.839721	96.593764	-0.839721	96.593764	-9.902537	-168.123546
5.000000	-9.778618	177.392553	-0.863163	93.865848	-0.863163	93.865848	-9.741337	-170.620920
5.050000	-9.623884	174.443523	-0.886403	91.138591	-0.886403	91.138591	-9.587948	-173.119151
5.100000	-9.476444	171.495534	-0.909413	88.411787	-0.909413	88.411787	-9.441901	-175.618329
5.150000	-9.335942	168.548292	-0.932164	85.685234	-0.932164	85.685234	-9.302840	-178.118598
5.200000	-9.202042	165.601523	-0.954629	82.958720	-0.954629	82.958720	-9.170428	179.379869
5.250000	-9.074429	162.654984	-0.976782	80.232026	-0.976782	80.232026	-9.044348	176.876868
5.300000	-8.952802	159.708453	-0.998600	77.504924	-0.998600	77.504924	-8.924298	174.372166
5.350000	-8.836881	156.761738	-1.020063	74.777182	-1.020063	74.777182	-8.809996	171.865510
5.400000	-8.726397	153.814670	-1.041152	72.048563	-1.041152	72.048563	-8.701171	169.356624
5.450000	-8.621097	150.867109	-1.061852	69.318827	-1.061852	69.318827	-8.597567	166.845211
5.500000	-8.520740	147.918942	-1.082148	66.587731	-1.082148	66.587731	-8.498943	164.330959
5.550000	-8.425099	144.970084	-1.102029	63.855033	-1.102029	63.855033	-8.405067	161.813540
5.600000	-8.333957	142.020476	-1.121485	61.120491	-1.121485	61.120491	-8.315722	159.292615
5.650000	-8.247144	139.070079	-1.140504	58.383836	-1.140504	58.383836	-8.230735	156.767784
5.700000	-8.164462	136.118892	-1.159080	55.644821	-1.159080	55.644821	-8.149907	154.238676
5.750000	-8.085688	133.166949	-1.177214	52.903233	-1.177214	52.903233	-8.073012	151.704961
5.800000	-8.010647	130.214304	-1.194903	50.158840	-1.194903	50.158840	-7.999873	149.166266
5.850000	-7.939174	127.261036	-1.212148	47.411414	-1.212148	47.411414	-7.930322	146.622209
5.900000	-7.871110	124.307252	-1.228948	44.660732	-1.228948	44.660732	-7.864201	144.072408
5.950000	-7.806308	121.353083	-1.245305	41.906578	-1.245305	41.906578	-7.801358	141.516478
6.000000	-7.744628	118.398682	-1.261223	39.148740	-1.261223	39.148740	-7.741653	138.954033
6.050000	-7.685938	115.444228	-1.276704	36.387016	-1.276704	36.387016	-7.684951	136.384688
6.100000	-7.630115	112.489920	-1.291752	33.621206	-1.291752	33.621206	-7.631129	133.808059
6.150000	-7.577046	109.535975	-1.306373	30.851120	-1.306373	30.851120	-7.580069	131.223765
6.200000	-7.526623	106.582632	-1.320571	28.076574	-1.320571	28.076574	-7.531663	128.631430
6.250000	-7.478750	103.630143	-1.334351	25.297389	-1.334351	25.297389	-7.485810	126.030678
6.300000	-7.433385	100.678808	-1.347708	22.513288	-1.347708	22.513288	-7.442467	123.420943
6.350000	-7.390399	97.728891	-1.360656	19.724204	-1.360656	19.724204	-7.401499	120.802046
6.400000	-7.349721	94.780684	-1.373199	16.929979	-1.373199	16.929979	-7.362833	118.173629
6.450000	-7.311292	91.834486	-1.385341	14.130458	-1.385341	14.130458	-7.326403	115.535343
6.500000	-7.275058	88.890603	-1.397082	11.325490	-1.397082	11.325490	-7.292153	112.886845
6.550000	-7.240980	85.949346	-1.408425	8.514927	-1.408425	8.514927	-7.260035	110.227799
6.600000	-7.209025	83.011024	-1.419368	5.698623	-1.419368	5.698623	-7.230012	107.557877
6.650000	-7.179172	80.075946	-1.429908	2.876434	-1.429908	2.876434	-7.202057	104.876755
6.700000	-7.151377	77.144348	-1.440051	0.048327	-1.440051	0.048327	-7.176117	102.184333
6.750000	-7.125823	74.216891	-1.449751	-2.786414	-1.449751	-2.786414	-7.152366	99.479216
6.800000	-7.102230	71.293282	-1.459063	-5.627029	-1.459063	-5.627029	-7.130522	96.762840
6.850000	-7.080864	68.374291	-1.467924	-8.474418	-1.467924	-8.474418	-7.110836	94.033487
6.900000	-7.061642	65.459925	-1.476349	-11.328364	-1.476349	-11.328364	-7.093221	91.291587
6.950000	-7.044617	62.550434	-1.484322	-14.189043	-1.484322	-14.189043	-7.077722	88.536847
7.000000	-7.029986	59.646347	-1.491796	-17.057042	-1.491796	-17.057042	-7.064523	85.768209
7.050000	-7.017561	56.747266	-1.498808	-19.931736	-1.498808	-19.931736	-7.053439	82.986944
7.100000	-7.007865	53.854347	-1.505243	-22.814624	-1.505243	-22.814624	-7.044967	80.190353
7.150000	-7.000526	50.966670	-1.511177	-25.704490	-1.511177	-25.704490	-7.038751	77.380848
7.200000	-6.996141	48.085403	-1.516481	-28.602957	-1.516481	-28.602957	-7.035361	74.555618
7.250000	-6.994487	45.209867	-1.521201	-31.509226	-1.521201	-31.509226	-7.034586	71.716327
7.300000	-6.995965	42.340640	-1.525251	-34.424269	-1.525251	-34.424269	-7.036815	68.861483
7.350000	-7.000712	39.477685	-1.528603	-37.348276	-1.528603	-37.348276	-7.042186	65.991032
7.400000	-7.008817	36.620820	-1.531240	-40.281291	-1.531240	-40.281291	-7.050792	63.105215
7.450000	-7.020878	33.770696	-1.533040	-43.224682	-1.533040	-43.224682	-7.063223	60.202079
7.500000	-7.036567	30.926354	-1.534081	-46.177383	-1.534081	-46.177383	-7.079175	57.283763
7.550000	-7.057079	28.089154	-1.534121	-49.142201	-1.534121	-49.142201	-7.099828	54.346194
7.600000	-7.081826	25.257739	-1.533299	-52.117400	-1.533299	-52.117400	-7.124627	51.392565
7.650000	-7.111918	22.433085	-1.531404	-55.105465	-1.531404	-55.105465	-7.154683	48.419574
7.700000	-7.147286	19.614574	-1.528476	-58.105945	-1.528476	-58.105945	-7.189953	45.428420
7.750000	-7.188610	16.802459	-1.524407	-61.120180	-1.524407	-61.120180	-7.231144	42.417722
7.800000	-7.236535	13.996898	-1.519112	-64.149367	-1.519112	-64.149367	-7.278926	39.386393
7.850000	-7.291137	11.197469	-1.512620	-67.193345	-1.512620	-67.193345	-7.333413	36.335255
7.900000	-7.354030	8.405197	-1.504689	-70.255446	-1.504689	-70.255446	-7.396270	33.260555
7.950000	-7.424580	5.619103	-1.495499	-73.333791	-1.495499	-73.333791	-7.466896	30.165346
8.000000	-7.504884	2.840632	-1.484762	-76.432647	-1.484762	-76.432647	-7.547476	27.044960
8.050000	-7.595375	0.069871	-1.472508	-79.552389	-1.472508	-79.552389	-7.638509	23.899695
8.100000	-7.697096	-2.692443	-1.458683	-82.694672	-1.458683	-82.694672	-7.741131	20.728319
8.150000	-7.811235	-5.445282	-1.443238	-85.861312	-1.443238	-85.861312	-7.856640	17.529486
8.200000	-7.939139	-8.187233	-1.426137	-89.054295	-1.426137	-89.054295	-7.986519	14.301727
8.250000	-8.082347	-10.916379	-1.407350	-92.275797	-1.407350	-92.275797	-8.132476	11.043450
8.300000	-8.242624	-13.630139	-1.386868	-95.528192	-1.386868	-95.528192	-8.296485	7.752934
8.350000	-8.422088	-16.324945	-1.364686	-98.814245	-1.364686	-98.814245	-8.480933	4.428153
8.400000	-8.623212	-18.995940	-1.340826	-102.137008	-1.340826	-102.137008	-8.688646	1.066918
8.450000	-8.848591	-21.637050	-1.315363	-105.499225	-1.315363	-105.499225	-8.922652	-2.332530
8.500000	-9.101445	-24.239902	-1.288386	-108.904214	-1.288386	-108.904214	-9.186757	-5.772363
8.550000	-9.385558	-26.793245	-1.260026	-112.355550	-1.260026	-112.355550	-9.485539	-9.254797
8.600000	-9.705412	-29.281878	-1.230463	-115.857076	-1.230463	-115.857076	-9.824571	-12.782021
8.650000	-10.066341	-31.685108	-1.199932	-119.412899	-1.199932	-119.412899	-10.210722	-16.356087
8.700000	-10.474727	-33.974491	-1.168736	-123.027381	-1.168736	-123.027381	-10.652587	-19.978741
8.750000	-10.938234	-36.110453	-1.137257	-126.705132	-1.137257	-126.705132	-11.161114	-23.651141
8.800000	-11.466641	-38.032900	-1.105977	-130.452035	-1.105977	-130.452035	-11.751313	-27.374099
8.850000	-12.070472	-39.662269	-1.075485	-134.272176	-1.075485	-134.272176	-12.441650	-31.145053
8.900000	-12.762118	-40.885852	-1.046459	-138.169586	-1.046459	-138.169586	-13.257451	-34.958379
8.950000	-13.557186	-41.509104	-1.019793	-142.151748	-1.019793	-142.151748	-14.238231	-38.803866
9.000000	-14.469019	-41.263898	-0.996454	-146.222268	-0.996454	-146.222268	-15.439527	-42.657414
9.050000	-15.505460	-39.727292	-0.977586	-150.385679	-0.977586	-150.385679	-16.952519	-46.470240
9.100000	-16.650786	-36.215319	-0.964608	-154.647563	-0.964608	-154.647563	-18.941797	-50.126390
9.150000	-17.824601	-29.814137	-0.959017	-159.010746	-0.959017	-159.010746	-21.743353	-53.308084
9.200000	-18.808456	-19.641859	-0.962494	-163.477451	-0.962494	-163.477451	-26.258284	-54.769517
9.250000	-19.201590	-5.948968	-0.977066	-168.050209	-0.977066	-168.050209	-36.852560	-38.582050
9.300000	-18.691974	8.448565	-1.004788	-172.728351	-1.004788	-172.728351	-31.820039	93.602598
9.350000	-17.431127	20.040411	-1.047779	-177.509027	-1.047779	-177.509027	-23.782116	97.905161
9.400000	-15.830643	27.503469	-1.108487	177.611386	-1.108487	177.611386	-19.494311	95.192507
9.450000	-14.198554	31.448119	-1.189265	172.640044	-1.189265	172.640044	-16.536430	91.170219
9.500000	-12.669889	32.900410	-1.292210	167.587546	-1.292210	167.587546	-14.272247	86.635772
9.550000	-11.282633	32.636339	-1.419578	162.466052	-1.419578	162.466052	-12.440702	81.826088
9.600000	-10.039209	31.192485	-1.573345	157.290878	-1.573345	157.290878	-10.910268	76.847131
9.650000	-8.930261	28.935208	-1.754762	152.080370	-1.754762	152.080370	-9.605516	71.760976
9.700000	-7.943016	26.099315	-1.965000	146.854013	-1.965000	146.854013	-8.478892	66.609385
9.750000	-7.065466	22.849899	-2.204811	141.632956	-2.204811	141.632956	-7.498695	61.426556
9.800000	-6.286487	19.313852	-2.473901	136.438531	-2.473901	136.438531	-6.641906	56.242724
9.850000	-5.596309	15.581418	-2.771798	131.291654	-2.771798	131.291654	-5.891423	51.084558
9.900000	-4.986658	11.722273	-3.097643	126.213158	-3.097643	126.213158	-5.234240	45.977122
9.950000	-4.449211	7.794214	-3.449675	121.220055	-3.449675	121.220055	-4.658745	40.941303
10.000000	-3.976786	3.841011	-3.826069	116.327774	-3.826069	116.327774	-4.155524	35.995585
