! freq	dB(S11)	phase(S11)	dB(S12)	phase(S12)	
!     	dB(S21)	phase(S21)	dB(S22)	phase(S22)	
!S-par simulation data
#  GHz  S  DB  R 50
0.000000	-82.912186	0.000000	-0.000621	0.000000	-0.000621	0.000000	-82.912186	0.000000
0.050000	-50.297145	-87.771515	-0.006270	-2.574531	-0.006270	-2.574531	-50.264111	-86.318042
0.100000	-44.323543	-93.779647	-0.010101	-5.114471	-0.010101	-5.114471	-44.269777	-90.930684
0.150000	-40.815936	-97.977546	-0.013596	-7.652233	-0.013596	-7.652233	-40.762614	-93.698800
0.200000	-38.329223	-101.748990	-0.017302	-10.186772	-0.017302	-10.186772	-38.279922	-96.023222
0.250000	-36.405366	-105.349005	-0.021113	-12.717889	-0.021113	-12.717889	-36.360991	-98.159033
0.300000	-34.842726	-108.866137	-0.024877	-15.245891	-0.024877	-15.245891	-34.802881	-100.192742
0.350000	-33.528028	-112.355330	-0.028562	-17.772474	-0.028562	-17.772474	-33.491199	-102.187991
0.400000	-32.398051	-115.823475	-0.032141	-20.297900	-0.032141	-20.297900	-32.362435	-104.153206
0.450000	-31.411370	-119.278271	-0.035621	-22.822688	-0.035621	-22.822688	-31.374767	-106.102058
0.500000	-30.541183	-122.721411	-0.039022	-25.347204	-0.039022	-25.347204	-30.501152	-108.046874
0.550000	-29.762891	-126.155663	-0.042386	-27.871680	-0.042386	-27.871680	-29.718502	-109.998568
0.600000	-29.063241	-129.579190	-0.045725	-30.396197	-0.045725	-30.396197	-29.015257	-111.968394
0.650000	-28.430124	-132.991855	-0.049061	-32.920821	-0.049061	-32.920821	-28.384342	-113.964057
0.700000	-27.854032	-136.394000	-0.052409	-35.445579	-0.052409	-35.445579	-27.825231	-115.952722
0.750000	-27.326684	-139.786989	-0.055777	-37.970477	-0.055777	-37.970477	-27.329568	-117.828593
0.800000	-26.841920	-143.172125	-0.059174	-40.495525	-0.059174	-40.495525	-26.871953	-119.527590
0.850000	-26.395607	-146.550745	-0.062603	-43.020746	-0.062603	-43.020746	-26.430099	-121.162786
0.900000	-25.982747	-149.925335	-0.066065	-45.546150	-0.066065	-45.546150	-26.009516	-122.847435
0.950000	-25.599653	-153.297939	-0.069560	-48.071756	-0.069560	-48.071756	-25.616608	-124.582658
1.000000	-25.243546	-156.670496	-0.073085	-50.597598	-0.073085	-50.597598	-25.252712	-126.348217
1.050000	-24.912629	-160.045172	-0.076641	-53.123734	-0.076641	-53.123734	-24.917313	-128.127356
1.100000	-24.603919	-163.423591	-0.080220	-55.650191	-0.080220	-55.650191	-24.607233	-129.909536
1.150000	-24.315619	-166.807179	-0.083821	-58.177018	-0.083821	-58.177018	-24.320454	-131.689849
1.200000	-24.046598	-170.197502	-0.087438	-60.704292	-0.087438	-60.704292	-24.055726	-133.464938
1.250000	-23.795530	-173.595762	-0.091069	-63.232088	-0.091069	-63.232088	-23.811499	-135.232597
1.300000	-23.560740	-177.002390	-0.094709	-65.760449	-0.094709	-65.760449	-23.585750	-136.991865
1.350000	-23.341179	179.582058	-0.098353	-68.289446	-0.098353	-68.289446	-23.377239	-138.741835
1.400000	-23.136576	176.156509	-0.101999	-70.819211	-0.101999	-70.819211	-23.185680	-140.481035
1.450000	-22.945573	172.721315	-0.105644	-73.349791	-0.105644	-73.349791	-23.009383	-142.209472
1.500000	-22.767234	169.276716	-0.109283	-75.881251	-0.109283	-75.881251	-22.847194	-143.927028
1.550000	-22.600962	165.822840	-0.112916	-78.413681	-0.112916	-78.413681	-22.698356	-145.633415
1.600000	-22.446698	162.359530	-0.116540	-80.947249	-0.116540	-80.947249	-22.562737	-147.327843
1.650000	-22.303152	158.888157	-0.120154	-83.481958	-0.120154	-83.481958	-22.438708	-149.011431
1.700000	-22.169824	155.409444	-0.123757	-86.017897	-0.123757	-86.017897	-22.325601	-150.684498
1.750000	-22.046411	151.924194	-0.127348	-88.555188	-0.127348	-88.555188	-22.222958	-152.347388
1.800000	-21.932342	148.433657	-0.130927	-91.093909	-0.130927	-91.093909	-22.130004	-154.001077
1.850000	-21.827152	144.939186	-0.134496	-93.634147	-0.134496	-93.634147	-22.046091	-155.646696
1.900000	-21.730479	141.442303	-0.138053	-96.176004	-0.138053	-96.176004	-21.970681	-157.285593
1.950000	-21.641896	137.944773	-0.141600	-98.719571	-0.141600	-98.719571	-21.903173	-158.919521
2.000000	-21.560928	134.448510	-0.145139	-101.264911	-0.145139	-101.264911	-21.842931	-160.550545
2.050000	-21.487198	130.955572	-0.148671	-103.812107	-0.148671	-103.812107	-21.789439	-162.180948
2.100000	-21.420873	127.468923	-0.152197	-106.361414	-0.152197	-106.361414	-21.742698	-163.813769
2.150000	-21.360480	123.989619	-0.155719	-108.912543	-0.155719	-108.912543	-21.701215	-165.451131
2.200000	-21.306311	120.520803	-0.159240	-111.465760	-0.159240	-111.465760	-21.665165	-167.096383
2.250000	-21.258062	117.065211	-0.162760	-114.021139	-0.162760	-114.021139	-21.634184	-168.752908
2.300000	-21.215226	113.624862	-0.166281	-116.578654	-0.166281	-116.578654	-21.607763	-170.423460
2.350000	-21.178040	110.204714	-0.169804	-119.138603	-0.169804	-119.138603	-21.586049	-172.113749
2.400000	-21.145963	106.807080	-0.173333	-121.700935	-0.173333	-121.700935	-21.568552	-173.826987
2.450000	-21.118761	103.435368	-0.176867	-124.265721	-0.176867	-124.265721	-21.555074	-175.567462
2.500000	-21.096214	100.093148	-0.180407	-126.833032	-0.180407	-126.833032	-21.545449	-177.339642
2.550000	-21.078210	96.784962	-0.183956	-129.402997	-0.183956	-129.402997	-21.539625	-179.149065
2.600000	-21.064461	93.514068	-0.187514	-131.975634	-0.187514	-131.975634	-21.537418	179.000159
2.650000	-21.054788	90.284519	-0.191080	-134.551013	-0.191080	-134.551013	-21.538754	177.103091
2.700000	-21.049021	87.100521	-0.194657	-137.129210	-0.194657	-137.129210	-21.543574	175.154655
2.750000	-21.047194	83.969312	-0.198245	-139.710459	-0.198245	-139.710459	-21.552016	173.146373
2.800000	-21.048779	80.890533	-0.201842	-142.294556	-0.201842	-142.294556	-21.563699	171.078425
2.850000	-21.053775	77.870945	-0.205450	-144.881705	-0.205450	-144.881705	-21.578724	168.942960
2.900000	-21.062009	74.915354	-0.209069	-147.471988	-0.209069	-147.471988	-21.597026	166.734365
2.950000	-21.073290	72.028705	-0.212698	-150.065492	-0.212698	-150.065492	-21.618512	164.446892
3.000000	-21.087405	69.216078	-0.216339	-152.662304	-0.216339	-152.662304	-21.643053	162.074647
3.050000	-21.104109	66.482674	-0.219992	-155.262519	-0.219992	-155.262519	-21.670470	159.611600
3.100000	-21.123113	63.833804	-0.223656	-157.866231	-0.223656	-157.866231	-21.700519	157.051588
3.150000	-21.144079	61.274865	-0.227335	-160.473541	-0.227335	-160.473541	-21.732877	154.388333
3.200000	-21.166601	58.811310	-0.231028	-163.084553	-0.231028	-163.084553	-21.767125	151.615470
3.250000	-21.190194	56.448604	-0.234738	-165.699373	-0.234738	-165.699373	-21.802735	148.726600
3.300000	-21.214283	54.192168	-0.238467	-168.318112	-0.238467	-168.318112	-21.839044	145.715351
3.350000	-21.238186	52.047298	-0.242219	-170.940885	-0.242219	-170.940885	-21.875245	142.575480
3.400000	-21.261100	50.019072	-0.245999	-173.567810	-0.245999	-173.567810	-21.910366	139.301000
3.450000	-21.282089	48.112222	-0.249810	-176.199006	-0.249810	-176.199006	-21.943250	135.886350
3.500000	-21.300071	46.330976	-0.253660	-178.834595	-0.253660	-178.834595	-21.972550	132.326603
3.550000	-21.314081	44.673112	-0.257553	178.525502	-0.257553	178.525502	-21.997048	128.624370
3.600000	-21.322176	43.154217	-0.261502	175.880705	-0.261502	175.880705	-22.014317	124.761869
3.650000	-21.323062	41.768659	-0.265515	173.231136	-0.265515	173.231136	-22.022721	120.746005
3.700000	-21.315048	40.516459	-0.269603	170.576671	-0.269603	170.576671	-22.020148	116.577415
3.750000	-21.296327	39.395925	-0.273778	167.917186	-0.273778	167.917186	-22.004361	112.259004
3.800000	-21.264689	38.406030	-0.278056	165.252445	-0.278056	165.252445	-21.972662	107.793337
3.850000	-21.218446	37.537848	-0.282452	162.582440	-0.282452	162.582440	-21.923047	103.192259
3.900000	-21.155712	36.782924	-0.286981	159.907058	-0.286981	159.907058	-21.853337	98.467366
3.950000	-21.074717	36.130338	-0.291664	157.226192	-0.291664	157.226192	-21.761572	93.633230
4.000000	-20.973883	35.566773	-0.296518	154.539742	-0.296518	154.539742	-21.646119	88.707163
4.050000	-20.851911	35.076723	-0.301566	151.847616	-0.301566	151.847616	-21.505774	83.708783
4.100000	-20.707853	34.642860	-0.306830	149.149734	-0.306830	149.149734	-21.339844	78.659376
4.150000	-20.541180	34.246528	-0.312333	146.446023	-0.312333	146.446023	-21.148199	73.581118
4.200000	-20.351815	33.868360	-0.318101	143.736426	-0.318101	143.736426	-20.931295	68.496212
4.250000	-20.140157	33.488946	-0.324159	141.020896	-0.324159	141.020896	-20.690148	63.426027
4.300000	-19.907060	33.089507	-0.330535	138.299403	-0.330535	138.299403	-20.426285	58.390315
4.350000	-19.653799	32.652516	-0.337254	135.571932	-0.337254	135.571932	-20.141658	53.406582
4.400000	-19.381729	32.161486	-0.344348	132.838419	-0.344348	132.838419	-19.838244	48.490509
4.450000	-19.092803	31.602445	-0.351847	130.098886	-0.351847	130.098886	-19.518587	43.654297
4.500000	-18.789439	30.964934	-0.359773	127.353436	-0.359773	127.353436	-19.185608	38.905975
4.550000	-18.473883	30.240374	-0.368153	124.602127	-0.368153	124.602127	-18.841926	34.251505
4.600000	-18.148412	29.422578	-0.377013	121.845036	-0.377013	121.845036	-18.490097	29.694326
4.650000	-17.815273	28.507588	-0.386377	119.082261	-0.386377	119.082261	-18.132546	25.235685
4.700000	-17.476631	27.493439	-0.396268	116.313919	-0.396268	116.313919	-17.771531	20.875006
4.750000	-17.134529	26.379888	-0.406707	113.540144	-0.406707	113.540144	-17.409117	16.610253
4.800000	-16.790859	25.168131	-0.417712	110.761092	-0.417712	110.761092	-17.047166	12.438278
4.850000	-16.447353	23.860519	-0.429300	107.976935	-0.429300	107.976935	-16.687336	8.355121
4.900000	-16.105571	22.460305	-0.441481	105.187862	-0.441481	105.187862	-16.331087	4.356280
4.950000	-15.766908	20.971407	-0.454265	102.394077	-0.454265	102.394077	-15.979692	0.436921
5.000000	-15.432595	19.398212	-0.467657	99.595797	-0.467657	99.595797	-15.634256	-3.407944
5.050000	-15.103591	17.743789	-0.481667	96.793163	-0.481667	96.793163	-15.295618	-7.181929
5.100000	-14.781021	16.014832	-0.496280	93.986510	-0.496280	93.986510	-14.964762	-10.891576
5.150000	-14.465700	14.216247	-0.511483	91.176081	-0.511483	91.176081	-14.642376	-14.541651
5.200000	-14.158326	12.352905	-0.527261	88.362120	-0.527261	88.362120	-14.329044	-18.136719
5.250000	-13.859501	10.429582	-0.543590	85.544872	-0.543590	85.544872	-14.025258	-21.681120
5.300000	-13.569741	8.450913	-0.560444	82.724574	-0.560444	82.724574	-13.731435	-25.178950
5.350000	-13.289484	6.421362	-0.577786	79.901455	-0.577786	79.901455	-13.447928	-28.634069
5.400000	-13.019109	4.345199	-0.595575	77.075731	-0.595575	77.075731	-13.175031	-32.050099
5.450000	-12.758938	2.226489	-0.613763	74.247599	-0.613763	74.247599	-12.912998	-35.430444
5.500000	-12.509248	0.069086	-0.632295	71.417232	-0.632295	71.417232	-12.662043	-38.778301
5.550000	-12.270282	-2.123368	-0.651111	68.584776	-0.651111	68.584776	-12.422353	-42.096685
5.600000	-12.042253	-4.347441	-0.670143	65.750343	-0.670143	65.750343	-12.194091	-45.388452
5.650000	-11.825419	-6.600178	-0.689318	62.913983	-0.689318	62.913983	-11.977480	-48.656089
5.700000	-11.619978	-8.878449	-0.708554	60.075719	-0.708554	60.075719	-11.772682	-51.902286
5.750000	-11.426036	-11.179108	-0.727767	57.235534	-0.727767	57.235534	-11.579768	-55.129815
5.800000	-11.243753	-13.499495	-0.746869	54.393322	-0.746869	54.393322	-11.398873	-58.341129
5.850000	-11.073291	-15.837105	-0.765769	51.548892	-0.765769	51.548892	-11.230142	-61.538644
5.900000	-10.914821	-18.189581	-0.784372	48.701953	-0.784372	48.701953	-11.073730	-64.724766
5.950000	-10.768523	-20.554695	-0.802576	45.852099	-0.802576	45.852099	-10.929813	-67.901918
6.000000	-10.634600	-22.930333	-0.820270	42.998803	-0.820270	42.998803	-10.798590	-71.072559
6.050000	-10.513276	-25.314474	-0.837332	40.141426	-0.837332	40.141426	-10.680290	-74.239216
6.100000	-10.404807	-27.705168	-0.853627	37.279252	-0.853627	37.279252	-10.575180	-77.404509
6.150000	-10.309482	-30.100511	-0.869011	34.411520	-0.869011	34.411520	-10.483569	-80.571177
6.200000	-10.227639	-32.498621	-0.883335	31.537443	-0.883335	31.537443	-10.405820	-83.742111
6.250000	-10.159662	-34.897599	-0.896461	28.656186	-0.896461	28.656186	-10.342356	-86.920385
6.300000	-10.106314	-37.295422	-0.908229	25.766620	-0.908229	25.766620	-10.294002	-90.109609
6.350000	-10.067826	-39.690006	-0.918550	22.867824	-0.918550	22.867824	-10.261041	-93.313202
6.400000	-10.044796	-42.079125	-0.927319	19.958551	-0.927319	19.958551	-10.244150	-96.535057
6.450000	-10.037913	-44.460315	-0.934440	17.037382	-0.934440	17.037382	-10.244118	-99.779440
6.500000	-10.047976	-46.830791	-0.939825	14.102717	-0.939825	14.102717	-10.261867	-103.051059
6.550000	-10.075906	-49.187332	-0.943395	11.152783	-0.943395	11.152783	-10.298471	-106.355148
6.600000	-10.122769	-51.526145	-0.945084	8.185630	-0.945084	8.185630	-10.355187	-109.697571
6.650000	-10.189792	-53.842689	-0.944838	5.199134	-0.944838	5.199134	-10.433480	-113.084958
6.700000	-10.278271	-56.131636	-0.942632	2.191131	-0.942632	2.191131	-10.534935	-116.524523
6.750000	-10.390126	-58.385836	-0.938426	-0.841150	-0.938426	-0.841150	-10.661871	-120.025674
6.800000	-10.527799	-60.595435	-0.932190	-3.901078	-0.932190	-3.901078	-10.817277	-123.600639
6.850000	-10.692266	-62.752092	-0.924063	-6.990083	-0.924063	-6.990083	-11.002643	-127.257623
6.900000	-10.885834	-64.843677	-0.914122	-10.110820	-0.914122	-10.110820	-11.221042	-131.009430
6.950000	-11.113102	-66.847962	-0.902366	-13.268684	-0.902366	-13.268684	-11.478373	-134.880399
7.000000	-11.376751	-68.743612	-0.889007	-16.466283	-0.889007	-16.466283	-11.778725	-138.890295
7.050000	-11.680190	-70.502611	-0.874277	-19.706642	-0.874277	-19.706642	-12.127457	-143.064880
7.100000	-12.027680	-72.086736	-0.858439	-22.993409	-0.858439	-22.993409	-12.531602	-147.439308
7.150000	-12.424242	-73.442555	-0.841816	-26.330879	-0.841816	-26.330879	-13.000231	-152.062911
7.200000	-12.875196	-74.494999	-0.824824	-29.723713	-0.824824	-29.723713	-13.544647	-157.005890
7.250000	-13.384509	-75.154721	-0.807964	-33.174754	-0.807964	-33.174754	-14.177112	-162.353947
7.300000	-13.955676	-75.294195	-0.791809	-36.687898	-0.791809	-36.687898	-14.913820	-168.238602
7.350000	-14.589088	-74.739282	-0.777032	-40.267097	-0.777032	-40.267097	-15.774392	-174.858522
7.400000	-15.277346	-73.224415	-0.764491	-43.918032	-0.764491	-43.918032	-16.781580	177.435790
7.450000	-15.997430	-70.470589	-0.755038	-47.642157	-0.755038	-47.642157	-17.951729	168.150131
7.500000	-16.700183	-66.145355	-0.749676	-51.442449	-0.749676	-51.442449	-19.280101	156.448280
7.550000	-17.295742	-59.988792	-0.749520	-55.321355	-0.749520	-55.321355	-20.683257	141.059904
7.600000	-17.641164	-52.014654	-0.755996	-59.282693	-0.755996	-59.282693	-21.848961	120.447064
7.650000	-17.601084	-42.950742	-0.770373	-63.325818	-0.770373	-63.325818	-22.189449	95.283941
7.700000	-17.122312	-34.026494	-0.794046	-67.450044	-0.794046	-67.450044	-21.345880	70.112778
7.750000	-16.273493	-26.425952	-0.828521	-71.653955	-0.828521	-71.653955	-19.699393	49.344262
7.800000	-15.191987	-20.810960	-0.875585	-75.936024	-0.875585	-75.936024	-17.825509	33.602147
7.850000	-14.017323	-17.195550	-0.936826	-80.291400	-0.936826	-80.291400	-16.033347	21.433929
7.900000	-12.842787	-15.267586	-1.013603	-84.712995	-1.013603	-84.712995	-14.412420	11.517792
7.950000	-11.716683	-14.684562	-1.107362	-89.193162	-1.107362	-89.193162	-12.967851	3.039480
8.000000	-10.661080	-15.148464	-1.219593	-93.723053	-1.219593	-93.723053	-11.682846	-4.491551
8.050000	-9.684448	-16.416168	-1.351666	-98.291926	-1.351666	-98.291926	-10.537931	-11.377582
8.100000	-8.788616	-18.276075	-1.503856	-102.886524	-1.503856	-102.886524	-9.515815	-17.821663
8.150000	-7.970416	-20.606067	-1.677497	-107.494472	-1.677497	-107.494472	-8.601170	-23.923863
8.200000	-7.225887	-23.280223	-1.872258	-112.101705	-1.872258	-112.101705	-7.781520	-29.769042
8.250000	-6.550617	-26.223570	-2.088746	-116.693941	-2.088746	-116.693941	-7.047004	-35.394806
8.300000	-5.939316	-29.359439	-2.326054	-121.258209	-2.326054	-121.258209	-6.388277	-40.837494
8.350000	-5.387699	-32.638274	-2.583943	-125.780606	-2.583943	-125.780606	-5.798359	-46.109923
8.400000	-4.890685	-36.013295	-2.861238	-130.250158	-2.861238	-130.250158	-5.270040	-51.226504
8.450000	-4.444132	-39.449864	-3.156934	-134.655555	-3.156934	-134.655555	-4.797647	-56.191962
8.500000	-4.043629	-42.918577	-3.469658	-138.988185	-3.469658	-138.988185	-4.375536	-61.011734
8.550000	-3.685098	-46.396057	-3.797964	-143.240848	-3.797964	-143.240848	-3.998673	-65.689471
8.600000	-3.364932	-49.863600	-4.140350	-147.407191	-4.140350	-147.407191	-3.662705	-70.227131
8.650000	-3.080028	-53.305526	-4.495140	-151.481155	-4.495140	-151.481155	-3.363951	-74.625178
8.700000	-2.825442	-56.712955	-4.861043	-155.466647	-4.861043	-155.466647	-3.096965	-78.896412
8.750000	-2.598554	-60.077814	-5.236763	-159.361336	-5.236763	-159.361336	-2.858809	-83.042478
8.800000	-2.398305	-63.389467	-5.620096	-163.156985	-5.620096	-163.156985	-2.648191	-87.056713
8.850000	-2.220215	-66.648544	-6.010494	-166.863417	-6.010494	-166.863417	-2.460414	-90.955348
8.900000	-2.062024	-69.853073	-6.406935	-170.482663	-6.406935	-170.482663	-2.293086	-94.743078
8.950000	-1.922104	-73.000527	-6.808034	-174.014893	-6.808034	-174.014893	-2.144488	-98.421710
9.000000	-1.798890	-76.089323	-7.212309	-177.461076	-7.212309	-177.461076	-2.012989	-101.993616
9.050000	-1.689781	-79.124052	-7.619889	179.169853	-7.619889	179.169853	-1.895929	-105.470451
9.100000	-1.593315	-82.106330	-8.030144	175.874078	-8.030144	175.874078	-1.791811	-108.857116
9.150000	-1.508740	-85.035342	-8.441433	172.651485	-8.441433	172.651485	-1.699856	-112.153637
9.200000	-1.434474	-87.915282	-8.853699	169.495417	-8.853699	169.495417	-1.618451	-115.367776
9.250000	-1.369160	-90.750514	-9.267139	166.399417	-9.267139	166.399417	-1.546209	-118.506872
9.300000	-1.311890	-93.543895	-9.681423	163.359306	-9.681423	163.359306	-1.482196	-121.575309
9.350000	-1.262409	-96.295237	-10.094528	160.375115	-10.094528	160.375115	-1.426131	-124.571775
9.400000	-1.219340	-99.011338	-10.507902	157.437763	-10.507902	157.437763	-1.376595	-127.506554
9.450000	-1.182142	-101.694847	-10.921027	154.543842	-10.921027	154.543842	-1.333012	-130.382608
9.500000	-1.150360	-104.348368	-11.333218	151.690144	-11.333218	151.690144	-1.294884	-133.202480
9.550000	-1.123339	-106.976046	-11.744840	148.871554	-11.744840	148.871554	-1.261512	-135.971365
9.600000	-1.100632	-109.581163	-12.155764	146.084271	-12.155764	146.084271	-1.232397	-138.692760
9.650000	-1.081846	-112.166969	-12.565865	143.324724	-12.565865	143.324724	-1.207091	-141.369983
9.700000	-1.066635	-114.736676	-12.975022	140.589611	-12.975022	140.589611	-1.185192	-144.006175
9.750000	-1.054698	-117.293465	-13.383113	137.875940	-13.383113	137.875940	-1.166333	-146.604312
9.800000	-1.045772	-119.840478	-13.790023	135.181056	-13.790023	135.181056	-1.150184	-149.167213
9.850000	-1.039626	-122.380829	-14.195640	132.502668	-14.195640	132.502668	-1.136442	-151.697546
9.900000	-1.036063	-124.917602	-14.599867	129.838851	-14.599867	129.838851	-1.124831	-154.197842
9.950000	-1.034914	-127.453862	-15.002623	127.188039	-15.002623	127.188039	-1.115099	-156.670499
10.000000	-1.036033	-129.992656	-15.403856	124.548988	-15.403856	124.548988	-1.107012	-159.117795
