! freq	dB(S11)	phase(S11)	dB(S12)	phase(S12)	
!     	dB(S21)	phase(S21)	dB(S22)	phase(S22)	
!S-par simulation data
#  GHz  S  DB  R 50
0.000000	-84.420125	0.000000	-0.000522	0.000000	-0.000522	0.000000	-84.420125	0.000000
0.050000	-35.158374	-93.030841	-0.004339	-3.031126	-0.004339	-3.031126	-35.153812	-92.737456
0.100000	-29.155914	-96.352419	-0.014298	-6.048099	-0.014298	-6.048099	-29.151817	-95.764995
0.150000	-25.663696	-99.594673	-0.027746	-9.046891	-0.027746	-9.046891	-25.660276	-98.712562
0.200000	-23.204439	-102.803808	-0.043010	-12.030602	-0.043010	-12.030602	-23.201792	-101.626556
0.250000	-21.315915	-105.986825	-0.059610	-15.002188	-0.059610	-15.002188	-21.314061	-104.514502
0.300000	-19.791755	-109.146327	-0.077549	-17.963398	-0.077549	-17.963398	-19.790627	-107.379686
0.350000	-18.520486	-112.285157	-0.096888	-20.914999	-0.096888	-20.914999	-18.519930	-110.225457
0.400000	-17.436303	-115.405179	-0.117699	-23.856580	-0.117699	-23.856580	-17.436076	-113.053851
0.450000	-16.497731	-118.507670	-0.140036	-26.786936	-0.140036	-26.786936	-16.497483	-115.865792
0.500000	-15.674160	-121.595290	-0.163754	-29.705828	-0.163754	-29.705828	-15.673494	-118.662882
0.550000	-14.944722	-124.669285	-0.188732	-32.612538	-0.188732	-32.612538	-14.943259	-121.445007
0.600000	-14.295036	-127.729601	-0.214856	-35.505815	-0.214856	-35.505815	-14.292499	-124.210620
0.650000	-13.712394	-130.776460	-0.241896	-38.385624	-0.241896	-38.385624	-13.708715	-126.959211
0.700000	-13.187448	-133.809154	-0.269642	-41.251778	-0.269642	-41.251778	-13.182746	-129.690055
0.750000	-12.713742	-136.826212	-0.297889	-44.103673	-0.297889	-44.103673	-12.708256	-132.402072
0.800000	-12.285539	-139.826983	-0.326402	-46.941336	-0.326402	-46.941336	-12.279535	-135.095257
0.850000	-11.897401	-142.812076	-0.354952	-49.765490	-0.354952	-49.765490	-11.891096	-137.770702
0.900000	-11.546855	-145.781100	-0.383299	-52.575626	-0.383299	-52.575626	-11.540404	-140.427951
0.950000	-11.230158	-148.735512	-0.411217	-55.372603	-0.411217	-55.372603	-11.223646	-143.068299
1.000000	-10.944659	-151.676541	-0.438482	-58.157028	-0.438482	-58.157028	-10.938127	-145.692607
1.050000	-10.688095	-154.605529	-0.464878	-60.929648	-0.464878	-60.929648	-10.681556	-148.301790
1.100000	-10.458533	-157.523858	-0.490198	-63.691345	-0.490198	-63.691345	-10.451986	-150.896799
1.150000	-10.254608	-160.432828	-0.514220	-66.443007	-0.514220	-66.443007	-10.248047	-153.478447
1.200000	-10.075095	-163.333853	-0.536734	-69.185736	-0.536734	-69.185736	-10.068512	-156.047679
1.250000	-9.916568	-166.229099	-0.557764	-71.921619	-0.557764	-71.921619	-9.909958	-158.606811
1.300000	-9.782161	-169.118954	-0.576754	-74.650607	-0.576754	-74.650607	-9.775518	-161.154737
1.350000	-9.666977	-172.005904	-0.593951	-77.375331	-0.593951	-77.375331	-9.660298	-163.694630
1.400000	-9.573354	-174.891190	-0.608883	-80.096611	-0.608883	-80.096611	-9.566635	-166.226347
1.450000	-9.498967	-177.776613	-0.621627	-82.816159	-0.621627	-82.816159	-9.492206	-168.751774
1.500000	-9.444238	179.336004	-0.631979	-85.535363	-0.631979	-85.535363	-9.437431	-171.271879
1.550000	-9.409357	176.444730	-0.639819	-88.255693	-0.639819	-88.255693	-9.402501	-173.787788
1.600000	-9.392812	173.548004	-0.645300	-90.978567	-0.645300	-90.978567	-9.385902	-176.300966
1.650000	-9.397346	170.642847	-0.648072	-93.706265	-0.648072	-93.706265	-9.390373	-178.812306
1.700000	-9.420183	167.728463	-0.648527	-96.439928	-0.648527	-96.439928	-9.413139	178.676837
1.750000	-9.463776	164.801693	-0.646417	-99.182190	-0.646417	-99.182190	-9.456647	176.165459
1.800000	-9.528155	161.860535	-0.641831	-101.934924	-0.641831	-101.934924	-9.520925	173.652543
1.850000	-9.614113	158.902610	-0.634801	-104.700182	-0.634801	-104.700182	-9.606760	171.137210
1.900000	-9.722886	155.925201	-0.625352	-107.480183	-0.625352	-107.480183	-9.715381	168.618694
1.950000	-9.855730	152.925623	-0.613560	-110.277019	-0.613560	-110.277019	-9.848037	166.096474
2.000000	-10.013916	149.901354	-0.599551	-113.092544	-0.599551	-113.092544	-10.005986	163.570363
2.050000	-10.199255	146.849514	-0.583450	-115.928753	-0.583450	-115.928753	-10.191026	161.040500
2.100000	-10.413926	143.767037	-0.565409	-118.787619	-0.565409	-118.787619	-10.405317	158.507497
2.150000	-10.660540	140.650631	-0.545607	-121.671084	-0.545607	-121.671084	-10.651443	155.972577
2.200000	-10.942237	137.496711	-0.524250	-124.581044	-0.524250	-124.581044	-10.932509	153.437772
2.250000	-11.262809	134.301305	-0.501573	-127.519334	-0.501573	-127.519334	-11.252256	150.906189
2.300000	-11.626859	131.059918	-0.477841	-130.487716	-0.477841	-130.487716	-11.615218	148.382380
2.350000	-12.040034	127.767326	-0.453344	-133.487852	-0.453344	-133.487852	-12.026940	145.872878
2.400000	-12.509331	124.417263	-0.428407	-136.521292	-0.428407	-136.521292	-12.494270	143.386981
2.450000	-13.043551	121.001933	-0.403379	-139.589441	-0.403379	-139.589441	-13.025781	140.937933
2.500000	-13.653953	117.511230	-0.378638	-142.693542	-0.378638	-142.693542	-13.632380	138.544772
2.550000	-14.356222	113.929053	-0.354615	-145.835472	-0.354615	-145.835472	-14.329153	136.238102
2.600000	-15.169296	110.236858	-0.331738	-149.015263	-0.331738	-149.015263	-15.134069	134.059854
2.650000	-16.120567	106.403890	-0.310463	-152.233483	-0.310463	-152.233483	-16.072771	132.077533
2.700000	-17.249565	102.380011	-0.291263	-155.490420	-0.291263	-155.490420	-17.181440	130.402086
2.750000	-18.616392	98.076629	-0.274631	-158.786059	-0.274631	-158.786059	-18.513192	129.228016
2.800000	-20.318989	93.319984	-0.261066	-162.120055	-0.261066	-162.120055	-20.149598	128.927045
2.850000	-22.532973	87.715581	-0.251075	-165.491712	-0.251075	-165.491712	-22.221252	130.297808
2.900000	-25.619780	80.137232	-0.245162	-168.899966	-0.245162	-168.899966	-24.933662	135.348100
2.950000	-30.474402	65.675545	-0.243824	-172.343369	-0.243824	-172.343369	-28.447929	149.984302
3.000000	-37.635748	10.615907	-0.247541	-175.820091	-0.247541	-175.820091	-31.202335	-173.696048
3.050000	-32.117990	-69.110179	-0.256767	-179.327914	-0.256767	-179.327914	-28.933730	-132.782291
3.100000	-26.235017	-87.640303	-0.271924	177.135748	-0.271924	177.135748	-25.059771	-115.424504
3.150000	-22.573000	-96.199708	-0.293466	173.573596	-0.293466	173.573596	-21.967794	-109.617747
3.200000	-19.947246	-102.322671	-0.321729	169.989010	-0.321729	169.989010	-19.568505	-108.070330
3.250000	-17.906105	-107.502613	-0.356915	166.385828	-0.356915	166.385828	-17.639700	-108.421642
3.300000	-16.240507	-112.218703	-0.399225	162.767833	-0.399225	162.767833	-16.038185	-109.777987
3.350000	-14.837826	-116.678043	-0.448621	159.139152	-0.448621	159.139152	-14.675812	-111.715313
3.400000	-13.630442	-120.970930	-0.505470	155.503404	-0.505470	155.503404	-13.495468	-114.036565
3.450000	-12.574953	-125.154987	-0.569640	151.864904	-0.569640	151.864904	-12.459139	-116.605768
3.500000	-11.641638	-129.259869	-0.641070	148.227782	-0.641070	148.227782	-11.539960	-119.345728
3.550000	-10.809104	-133.303664	-0.719530	144.596019	-0.719530	144.596019	-10.718206	-122.204076
3.600000	-10.061496	-137.296675	-0.804774	140.973408	-0.804774	140.973408	-9.979040	-125.145823
3.650000	-9.386674	-141.245069	-0.896486	137.363508	-0.896486	137.363508	-9.310980	-128.145678
3.700000	-8.775094	-145.152492	-0.994287	133.769596	-0.994287	133.769596	-8.704920	-131.184784
3.750000	-8.219082	-149.021047	-1.097737	130.194619	-1.097737	130.194619	-8.153491	-134.248732
3.800000	-7.712526	-152.851520	-1.206385	126.641414	-1.206385	126.641414	-7.650796	-137.326379
3.850000	-7.249991	-156.644989	-1.319647	123.111945	-1.319647	123.111945	-7.191560	-140.408749
3.900000	-6.827020	-160.401882	-1.436957	119.607964	-1.436957	119.607964	-6.771445	-143.488997
3.950000	-6.439795	-164.122565	-1.557717	116.130798	-1.557717	116.130798	-6.386721	-146.561772
4.000000	-6.085449	-167.806515	-1.681323	112.682110	-1.681323	112.682110	-6.034590	-149.622558
4.050000	-5.760281	-171.456055	-1.807094	109.260994	-1.807094	109.260994	-5.711409	-152.668921
4.100000	-5.462107	-175.071181	-1.934412	105.868097	-1.934412	105.868097	-5.415036	-155.698441
4.150000	-5.188675	-178.652893	-2.062625	102.503057	-2.062625	102.503057	-5.143255	-158.709725
4.200000	-4.937988	177.797567	-2.191080	99.165118	-2.191080	99.165118	-4.894097	-161.702067
4.250000	-4.708269	174.278702	-2.319120	95.853141	-2.319120	95.853141	-4.665812	-164.675375
4.300000	-4.497937	170.788763	-2.446086	92.565620	-2.446086	92.565620	-4.456839	-167.630111
4.350000	-4.305589	167.325742	-2.571319	89.300685	-2.571319	89.300685	-4.265793	-170.567249
4.400000	-4.130117	163.887617	-2.694105	86.056302	-2.694105	86.056302	-4.091581	-173.488079
4.450000	-3.970413	160.471773	-2.813756	82.829787	-2.813756	82.829787	-3.933113	-176.394575
4.500000	-3.825389	157.075142	-2.929639	79.617943	-2.929639	79.617943	-3.789311	-179.289270
4.550000	-3.694231	153.694650	-3.041061	76.417408	-3.041061	76.417408	-3.659376	177.825047
4.600000	-3.576259	150.326934	-3.147307	73.224407	-3.147307	73.224407	-3.542640	174.945148
4.650000	-3.470925	146.968315	-3.247633	70.034707	-3.247633	70.034707	-3.438567	172.067342
4.700000	-3.377818	143.614767	-3.341256	66.843560	-3.341256	66.843560	-3.346761	169.187438
4.750000	-3.296672	140.261863	-3.427344	63.645618	-3.427344	63.645618	-3.266970	166.300685
4.800000	-3.227378	136.904719	-3.505004	60.434831	-3.505004	60.434831	-3.199102	163.401701
4.850000	-3.170006	133.537911	-3.573266	57.204305	-3.573266	57.204305	-3.143246	160.484362
4.900000	-3.124828	130.155369	-3.631068	53.946120	-3.631068	53.946120	-3.099700	157.541671
4.950000	-3.092364	126.750249	-3.677237	50.651086	-3.677237	50.651086	-3.069012	154.565577
5.000000	-3.073436	123.314768	-3.710468	47.308440	-3.710468	47.308440	-3.052045	151.546747
5.050000	-3.070431	119.836401	-3.728142	43.899941	-3.728142	43.899941	-3.051254	148.469450
5.100000	-3.082464	116.312445	-3.731162	40.421896	-3.731162	40.421896	-3.065780	145.331052
5.150000	-3.114669	112.722246	-3.715047	36.842453	-3.715047	36.842453	-3.100901	142.104660
5.200000	-3.168436	109.058134	-3.679513	33.148537	-3.679513	33.148537	-3.158105	138.780306
5.250000	-3.249356	105.300124	-3.621377	29.306029	-3.621377	29.306029	-3.243204	135.330952
5.300000	-3.362876	101.432360	-3.538807	25.284573	-3.538807	25.284573	-3.361908	131.733929
5.350000	-3.520015	97.426525	-3.427750	21.027254	-3.427750	21.027254	-3.525762	127.947282
5.400000	-3.733524	93.260880	-3.286022	16.477551	-3.286022	16.477551	-3.748267	123.933474
5.450000	-4.024541	88.909602	-3.110728	11.550411	-3.110728	11.550411	-4.051943	119.640012
5.500000	-4.424610	84.359020	-2.900512	6.137910	-2.900512	6.137910	-4.470862	115.011909
5.550000	-4.983638	79.629773	-2.656585	0.097759	-2.656585	0.097759	-5.060008	110.000289
5.600000	-5.781174	74.838387	-2.385529	-6.746524	-2.385529	-6.746524	-5.910010	104.601284
5.650000	-6.965596	70.391480	-2.102817	-14.662823	-2.102817	-14.662823	-7.199719	98.959381
5.700000	-8.785844	67.633021	-1.844187	-23.936059	-1.844187	-23.936059	-9.276783	93.873595
5.750000	-11.595786	71.238603	-1.675294	-34.842405	-1.675294	-34.842405	-12.936107	93.156936
5.800000	-14.569781	95.721538	-1.700888	-47.505493	-1.700888	-47.505493	-19.133830	122.717759
5.850000	-12.352719	131.254133	-2.054052	-61.652962	-2.054052	-61.652962	-14.937098	-174.610749
5.900000	-8.163572	138.856952	-2.844004	-76.444018	-2.844004	-76.444018	-9.017787	-170.802849
5.950000	-5.286667	133.579207	-4.086193	-90.705158	-4.086193	-90.705158	-5.684255	-179.176675
6.000000	-3.504802	125.044088	-5.697058	-103.483202	-5.697058	-103.483202	-3.733956	170.646433
6.050000	-2.415117	116.292784	-7.554686	-114.390630	-7.554686	-114.390630	-2.565660	160.995690
6.100000	-1.746460	108.234255	-9.556646	-123.456285	-9.556646	-123.456285	-1.854736	152.438492
6.150000	-1.327838	101.026633	-11.645224	-130.923511	-11.645224	-130.923511	-1.411082	144.961659
6.200000	-1.060096	94.591830	-13.794899	-137.031413	-13.794899	-137.031413	-1.127584	138.398228
6.250000	-0.884062	88.787223	-16.010813	-141.970427	-16.010813	-141.970427	-0.941190	132.553123
6.300000	-0.766538	83.493936	-18.298146	-145.798588	-18.298146	-145.798588	-0.816743	127.276848
6.350000	-0.685854	78.595909	-20.691711	-148.493151	-20.691711	-148.493151	-0.731368	122.431434
6.400000	-0.629427	74.009068	-23.228673	-149.851056	-23.228673	-149.851056	-0.671793	117.918543
6.450000	-0.589325	69.668295	-25.952023	-149.407730	-25.952023	-149.407730	-0.629650	113.662762
6.500000	-0.560440	65.523276	-28.894181	-146.235247	-28.894181	-146.235247	-0.599544	109.606036
6.550000	-0.539669	61.540517	-31.955673	-138.327037	-31.955673	-138.327037	-0.578197	105.708532
6.600000	-0.524065	57.673665	-34.937011	-124.105486	-34.937011	-124.105486	-0.562468	101.919869
6.650000	-0.512921	53.917274	-36.717029	-103.000350	-36.717029	-103.000350	-0.551624	98.229122
6.700000	-0.504565	50.235890	-37.021999	-82.508084	-37.021999	-82.508084	-0.543861	94.599711
6.750000	-0.498797	46.628226	-36.364927	-69.451590	-36.364927	-69.451590	-0.538985	91.024107
6.800000	-0.494740	43.070685	-35.693841	-62.208616	-35.693841	-62.208616	-0.536036	87.479345
6.850000	-0.492256	39.558660	-35.314606	-59.077149	-35.314606	-59.077149	-0.534876	83.955877
6.900000	-0.491030	36.081054	-35.283807	-58.286040	-35.283807	-58.286040	-0.535156	80.441766
6.950000	-0.490908	32.630491	-35.626941	-58.997313	-35.626941	-58.997313	-0.536710	76.927557
7.000000	-0.491859	29.202026	-36.413716	-60.896946	-36.413716	-60.896946	-0.539504	73.404676
7.050000	-0.493715	25.788108	-37.706780	-63.783637	-37.706780	-63.783637	-0.543348	69.867269
7.100000	-0.496631	22.386148	-39.835601	-68.310126	-39.835601	-68.310126	-0.548417	66.305333
7.150000	-0.500432	18.990136	-43.346282	-75.884512	-43.346282	-75.884512	-0.554508	62.717717
7.200000	-0.505328	15.597114	-49.928886	-108.323041	-49.928886	-108.323041	-0.561856	59.093680
7.250000	-0.511238	12.203435	-49.941456	158.738702	-49.941456	158.738702	-0.570363	55.433073
7.300000	-0.518322	8.805793	-42.005973	124.411052	-42.005973	124.411052	-0.580204	51.728198
7.350000	-0.526652	5.401341	-37.188235	115.418178	-37.188235	115.418178	-0.591452	47.975648
7.400000	-0.536287	1.987638	-33.836025	109.679924	-33.836025	109.679924	-0.604168	44.173359
7.450000	-0.547493	-1.439026	-31.216785	105.071982	-31.216785	105.071982	-0.618638	40.312393
7.500000	-0.560172	-4.879053	-29.072212	100.842428	-29.072212	100.842428	-0.634747	36.398100
7.550000	-0.574854	-8.338396	-27.219565	96.822237	-27.219565	96.822237	-0.653069	32.414203
7.600000	-0.591330	-11.815643	-25.603125	92.872807	-25.603125	92.872807	-0.673366	28.371001
7.650000	-0.610117	-15.316368	-24.150722	88.950729	-24.150722	88.950729	-0.696188	24.255334
7.700000	-0.631223	-18.840742	-22.835721	85.023514	-22.835721	85.023514	-0.721530	20.071171
7.750000	-0.654990	-22.392155	-21.628866	81.071667	-21.628866	81.071667	-0.749743	15.813210
7.800000	-0.681584	-25.971964	-20.513475	77.084414	-20.513475	77.084414	-0.780982	11.481682
7.850000	-0.711530	-29.584933	-19.471236	73.049620	-19.471236	73.049620	-0.815771	7.068885
7.900000	-0.745048	-33.232479	-18.493820	68.962495	-18.493820	68.962495	-0.854305	2.575788
7.950000	-0.782469	-36.916906	-17.573048	64.818742	-17.573048	64.818742	-0.896890	-1.998689
8.000000	-0.824185	-40.640875	-16.701988	60.614615	-16.701988	60.614615	-0.943888	-6.656103
8.050000	-0.870625	-44.407138	-15.875026	56.347019	-15.875026	56.347019	-0.995694	-11.397815
8.100000	-0.922257	-48.218556	-15.087563	52.013309	-15.087563	52.013309	-1.052735	-16.224974
8.150000	-0.979692	-52.078995	-14.335283	47.609939	-14.335283	47.609939	-1.115574	-21.140012
8.200000	-1.043517	-55.991739	-13.615141	43.134706	-13.615141	43.134706	-1.184736	-26.143665
8.250000	-1.114253	-59.959256	-12.925008	38.586837	-12.925008	38.586837	-1.260678	-31.234915
8.300000	-1.192574	-63.985033	-12.262613	33.964455	-12.262613	33.964455	-1.343996	-36.414026
8.350000	-1.279218	-68.072772	-11.626030	29.265711	-11.626030	29.265711	-1.435337	-41.681063
8.400000	-1.374995	-72.226421	-11.013619	24.488740	-11.013619	24.488740	-1.535408	-47.035908
8.450000	-1.480880	-76.450857	-10.423833	19.630906	-10.423833	19.630906	-1.645058	-52.479025
8.500000	-1.598053	-80.752126	-9.855263	14.688684	-9.855263	14.688684	-1.765314	-58.011460
8.550000	-1.727380	-85.133379	-9.307371	9.661979	-9.307371	9.661979	-1.896902	-63.630377
8.600000	-1.870073	-89.600035	-8.779298	4.548450	-8.779298	4.548450	-2.040864	-69.335097
8.650000	-2.027485	-94.158025	-8.270326	-0.654451	-8.270326	-0.654451	-2.198357	-75.124848
8.700000	-2.201128	-98.813878	-7.779867	-5.949517	-7.779867	-5.949517	-2.370675	-80.998771
8.750000	-2.392696	-103.574818	-7.307456	-11.339828	-7.307456	-11.339828	-2.559264	-86.955922
8.800000	-2.604658	-108.453080	-6.852555	-16.832325	-6.852555	-16.832325	-2.766244	-92.998043
8.850000	-2.838684	-113.454115	-6.415230	-22.427544	-6.415230	-22.427544	-2.993012	-99.121053
8.900000	-3.097214	-118.588196	-5.995374	-28.129738	-5.995374	-28.129738	-3.241631	-105.323514
8.950000	-3.383008	-123.867022	-5.593011	-33.943618	-5.593011	-33.943618	-3.514413	-111.603654
9.000000	-3.699193	-129.304068	-5.208308	-39.874362	-5.208308	-39.874362	-3.813950	-117.959217
9.050000	-4.049308	-134.915056	-4.841581	-45.927627	-4.841581	-45.927627	-4.143128	-124.387247
9.100000	-4.437949	-140.724179	-4.493462	-52.113040	-4.493462	-52.113040	-4.505646	-130.885468
9.150000	-4.869246	-146.751850	-4.164637	-58.435287	-4.164637	-58.435287	-4.904657	-137.447179
9.200000	-5.347970	-153.024947	-3.855928	-64.900420	-3.855928	-64.900420	-5.343659	-144.064692
9.250000	-5.879545	-159.579847	-3.568389	-71.516180	-3.568389	-71.516180	-5.826407	-150.728758
9.300000	-6.469567	-166.460890	-3.303144	-78.289593	-3.303144	-78.289593	-6.356381	-157.427446
9.350000	-7.124348	-173.740683	-3.062043	-85.233936	-3.062043	-85.233936	-6.937031	-164.147056
9.400000	-7.848867	178.489871	-2.846907	-92.360086	-2.846907	-92.360086	-7.569942	-170.870788
9.450000	-8.646013	170.100509	-2.659918	-99.681718	-2.659918	-99.681718	-8.254180	-177.582649
9.500000	-9.513918	160.915372	-2.503377	-107.213510	-2.503377	-107.213510	-8.984593	175.725866
9.550000	-10.440735	150.677690	-2.380484	-114.977313	-2.380484	-114.977313	-9.749111	169.042833
9.600000	-11.393127	139.023955	-2.295878	-123.004649	-2.295878	-123.004649	-10.524106	162.308065
9.650000	-12.297313	125.507322	-2.256221	-131.337927	-2.256221	-131.337927	-11.269552	155.360117
9.700000	-13.020470	109.774193	-2.270838	-140.027890	-2.270838	-140.027890	-11.927956	147.866296
9.750000	-13.363176	91.840541	-2.355828	-149.144877	-2.355828	-149.144877	-12.421243	139.230675
9.800000	-13.130139	72.494220	-2.537930	-158.767519	-2.537930	-158.767519	-12.658599	128.565686
9.850000	-12.261938	53.062090	-2.862529	-168.956927	-2.862529	-168.956927	-12.547154	114.826375
9.900000	-10.896143	34.459950	-3.402644	-179.668712	-3.402644	-179.668712	-12.014640	97.244729
9.950000	-9.274548	16.681915	-4.270027	169.448083	-4.270027	169.448083	-11.045332	75.824151
10.000000	-7.707424	-0.446932	-5.527730	159.250274	-5.527730	159.250274	-9.804247	52.061070
