! freq	dB(S11)	phase(S11)	dB(S12)	phase(S12)	
!     	dB(S21)	phase(S21)	dB(S22)	phase(S22)	
!S-par simulation data
#  GHz  S  DB  R 50
0.000000	-85.651213	0.000000	-0.000453	0.000000	-0.000453	0.000000	-85.651213	0.000000
0.050000	-38.486863	-92.189613	-0.005614	-2.705529	-0.005614	-2.705529	-38.486663	-92.189028
0.100000	-32.523529	-95.147756	-0.012221	-5.373574	-0.012221	-5.373574	-32.523306	-95.147459
0.150000	-29.042472	-98.039929	-0.018840	-8.033390	-0.018840	-8.033390	-29.042179	-98.039916
0.200000	-26.579293	-100.856026	-0.026383	-10.688928	-0.026383	-10.688928	-26.578933	-100.856358
0.250000	-24.675459	-103.616939	-0.035005	-13.339907	-0.035005	-13.339907	-24.675044	-103.617683
0.300000	-23.126372	-106.340943	-0.044663	-15.986328	-0.044663	-15.986328	-23.125910	-106.342138
0.350000	-21.822992	-109.040294	-0.055309	-18.628431	-0.055309	-18.628431	-21.822491	-109.041960
0.400000	-20.700266	-111.722794	-0.066901	-21.266505	-0.066901	-21.266505	-20.699730	-111.724939
0.450000	-19.716449	-114.392965	-0.079424	-23.900703	-0.079424	-23.900703	-19.715880	-114.395594
0.500000	-18.842908	-117.053611	-0.092850	-26.531136	-0.092850	-26.531136	-18.842307	-117.056727
0.550000	-18.059426	-119.706193	-0.107164	-29.157750	-0.107164	-29.157750	-18.058795	-119.709798
0.600000	-17.350825	-122.351693	-0.122325	-31.780530	-0.122325	-31.780530	-17.350164	-122.355792
0.650000	-16.705832	-124.990505	-0.138304	-34.399315	-0.138304	-34.399315	-16.705140	-124.995100
0.700000	-16.115364	-127.623003	-0.155042	-37.014045	-0.155042	-37.014045	-16.114642	-127.628098
0.750000	-15.572509	-130.249240	-0.172496	-39.624524	-0.172496	-39.624524	-15.571758	-130.254836
0.800000	-15.071357	-132.869412	-0.190598	-42.230696	-0.190598	-42.230696	-15.070576	-132.875511
0.850000	-14.607210	-135.483583	-0.209288	-44.832444	-0.209288	-44.832444	-14.606400	-135.490183
0.900000	-14.176151	-138.091816	-0.228504	-47.429664	-0.228504	-47.429664	-14.175311	-138.098916
0.950000	-13.774883	-140.694188	-0.248185	-50.022280	-0.248185	-50.022280	-13.774013	-140.701785
1.000000	-13.400624	-143.290775	-0.268270	-52.610227	-0.268270	-52.610227	-13.399726	-143.298864
1.050000	-13.050862	-145.881757	-0.288697	-55.193542	-0.288697	-55.193542	-13.049936	-145.890330
1.100000	-12.723485	-148.467290	-0.309409	-57.772262	-0.309409	-57.772262	-12.722531	-148.476340
1.150000	-12.416646	-151.047557	-0.330349	-60.346462	-0.330349	-60.346462	-12.415664	-151.057073
1.200000	-12.128718	-153.622769	-0.351465	-62.916260	-0.351465	-62.916260	-12.127710	-153.632740
1.250000	-11.858261	-156.193162	-0.372706	-65.481810	-0.372706	-65.481810	-11.857225	-156.203574
1.300000	-11.604075	-158.758950	-0.394022	-68.043264	-0.394022	-68.043264	-11.603012	-158.769789
1.350000	-11.364916	-161.320473	-0.415364	-70.600894	-0.415364	-70.600894	-11.363826	-161.331722
1.400000	-11.139744	-163.878037	-0.436689	-73.154955	-0.436689	-73.154955	-11.138627	-163.889679
1.450000	-10.927618	-166.431972	-0.457953	-75.705731	-0.457953	-75.705731	-10.926474	-166.443988
1.500000	-10.727682	-168.982624	-0.479116	-78.253525	-0.479116	-78.253525	-10.726510	-168.994994
1.550000	-10.539152	-171.530356	-0.500140	-80.798666	-0.500140	-80.798666	-10.537953	-171.543059
1.600000	-10.361364	-174.075528	-0.520988	-83.341482	-0.520988	-83.341482	-10.360137	-174.088542
1.650000	-10.193614	-176.618550	-0.541629	-85.882349	-0.541629	-85.882349	-10.192359	-176.631851
1.700000	-10.035388	-179.159805	-0.562030	-88.421625	-0.562030	-88.421625	-10.034105	-179.173367
1.750000	-9.885848	178.300235	-0.582177	-90.959749	-0.582177	-90.959749	-9.884536	178.286439
1.800000	-9.744617	175.761198	-0.602043	-93.497075	-0.602043	-93.497075	-9.743276	175.747195
1.850000	-9.611199	173.222664	-0.621607	-96.034005	-0.621607	-96.034005	-9.609828	173.208483
1.900000	-9.485182	170.684204	-0.640851	-98.570949	-0.640851	-98.570949	-9.483781	170.669878
1.950000	-9.366117	168.145381	-0.659763	-101.108330	-0.659763	-101.108330	-9.364686	168.130944
2.000000	-9.253527	165.605769	-0.678338	-103.646562	-0.678338	-103.646562	-9.252067	165.591257
2.050000	-9.147016	163.064946	-0.696572	-106.186059	-0.696572	-106.186059	-9.145526	163.050397
2.100000	-9.046205	160.522492	-0.714465	-108.727236	-0.714465	-108.727236	-9.044684	160.507946
2.150000	-8.950728	157.977991	-0.732018	-111.270505	-0.732018	-111.270505	-8.949179	157.963492
2.200000	-8.860238	155.431031	-0.749237	-113.816279	-0.749237	-113.816279	-8.858659	155.416626
2.250000	-8.774397	152.881208	-0.766132	-116.364964	-0.766132	-116.364964	-8.772788	152.866946
2.300000	-8.692876	150.328123	-0.782714	-118.916964	-0.782714	-118.916964	-8.691239	150.314056
2.350000	-8.615359	147.771383	-0.799000	-121.472678	-0.799000	-121.472678	-8.613693	147.757567
2.400000	-8.541535	145.210604	-0.815008	-124.032498	-0.815008	-124.032498	-8.539840	145.197097
2.450000	-8.471099	142.645410	-0.830761	-126.596809	-0.830761	-126.596809	-8.469376	142.632274
2.500000	-8.403755	140.075430	-0.846281	-129.165989	-0.846281	-129.165989	-8.402004	140.062731
2.550000	-8.339254	137.500187	-0.861594	-131.740530	-0.861594	-131.740530	-8.337475	137.487993
2.600000	-8.277250	134.919431	-0.876735	-134.320685	-0.876735	-134.320685	-8.275444	134.907814
2.650000	-8.217459	132.332821	-0.891737	-136.906806	-0.891737	-136.906806	-8.215627	132.321856
2.700000	-8.159598	129.740024	-0.906637	-139.499232	-0.906637	-139.499232	-8.157740	129.729787
2.750000	-8.103390	127.140714	-0.921472	-142.098293	-0.921472	-142.098293	-8.101506	127.131287
2.800000	-8.048557	124.534578	-0.936284	-144.704309	-0.936284	-144.704309	-8.046648	124.526042
2.850000	-7.994827	121.921310	-0.951116	-147.317585	-0.951116	-147.317585	-7.992892	121.913750
2.900000	-7.941930	119.300613	-0.966014	-149.938420	-0.966014	-149.938420	-7.939970	119.294115
2.950000	-7.889597	116.672201	-0.981025	-152.567095	-0.981025	-152.567095	-7.887613	116.666855
3.000000	-7.837566	114.035800	-0.996200	-155.203883	-0.996200	-155.203883	-7.835558	114.031694
3.050000	-7.785576	111.391144	-1.011590	-157.849043	-1.011590	-157.849043	-7.783545	111.388371
3.100000	-7.733372	108.737980	-1.027250	-160.502820	-1.027250	-160.502820	-7.731318	108.736631
3.150000	-7.680694	106.075969	-1.043241	-163.165547	-1.043241	-163.165547	-7.678618	106.076138
3.200000	-7.627287	103.404875	-1.059623	-165.837450	-1.059623	-165.837450	-7.625190	103.406656
3.250000	-7.572923	100.724580	-1.076453	-168.518638	-1.076453	-168.518638	-7.570806	100.728066
3.300000	-7.517373	98.034884	-1.093794	-171.209301	-1.093794	-171.209301	-7.515237	98.040167
3.350000	-7.460417	95.335603	-1.111711	-173.909615	-1.111711	-173.909615	-7.458262	95.342775
3.400000	-7.401842	92.626571	-1.130271	-176.619743	-1.130271	-176.619743	-7.399671	92.635722
3.450000	-7.341450	89.907637	-1.149543	-179.339828	-1.149543	-179.339828	-7.339263	89.918855
3.500000	-7.279052	87.178672	-1.169597	177.929999	-1.169597	177.929999	-7.276852	87.192044
3.550000	-7.214474	84.439566	-1.190506	175.189625	-1.190506	175.189625	-7.212261	84.455174
3.600000	-7.147555	81.690228	-1.212347	172.438957	-1.212347	172.438957	-7.145333	81.708154
3.650000	-7.078151	78.930592	-1.235196	169.677918	-1.235196	169.677918	-7.075920	78.950913
3.700000	-7.006133	76.160616	-1.259132	166.906451	-1.259132	166.906451	-7.003896	76.183405
3.750000	-6.931391	73.380282	-1.284238	164.124521	-1.284238	164.124521	-6.929150	73.405607
3.800000	-6.853753	70.589374	-1.310624	161.331887	-1.310624	161.331887	-6.851510	70.617300
3.850000	-6.773221	67.788155	-1.338353	158.528790	-1.338353	158.528790	-6.770978	67.818741
3.900000	-6.689743	64.976692	-1.367512	155.715265	-1.367512	155.715265	-6.687503	65.009990
3.950000	-6.603288	62.155080	-1.398193	152.891379	-1.398193	152.891379	-6.601053	62.191137
4.000000	-6.513846	59.323449	-1.430486	150.057224	-1.430486	150.057224	-6.511618	59.362303
4.050000	-6.421431	56.481957	-1.464487	147.212926	-1.464487	147.212926	-6.419212	56.523643
4.100000	-6.326075	53.630798	-1.500291	144.358641	-1.500291	144.358641	-6.323867	53.675341
4.150000	-6.227833	50.770200	-1.537995	141.494563	-1.537995	141.494563	-6.225638	50.817619
4.200000	-6.126782	47.900427	-1.577697	138.620922	-1.577697	138.620922	-6.124602	47.950732
4.250000	-6.023019	45.021780	-1.619498	135.737987	-1.619498	135.737987	-6.020857	45.074976
4.300000	-5.916662	42.134598	-1.663497	132.846068	-1.663497	132.846068	-5.914519	42.190680
4.350000	-5.807848	39.239259	-1.709795	129.945521	-1.709795	129.945521	-5.805725	39.298216
4.400000	-5.696695	36.336104	-1.758518	127.036661	-1.758518	127.036661	-5.694594	36.397917
4.450000	-5.583379	33.425610	-1.809767	124.119952	-1.809767	124.119952	-5.581301	33.490253
4.500000	-5.468130	30.508368	-1.863617	121.195983	-1.863617	121.195983	-5.466078	30.575807
4.550000	-5.351155	27.584927	-1.920166	118.265305	-1.920166	118.265305	-5.349128	27.655122
4.600000	-5.232670	24.655882	-1.979509	115.328519	-1.979509	115.328519	-5.230670	24.728787
4.650000	-5.112904	21.721870	-2.041738	112.386278	-2.041738	112.386278	-5.110932	21.797433
4.700000	-4.992094	18.783576	-2.106939	109.439286	-2.106939	109.439286	-4.990152	18.861740
4.750000	-4.870485	15.841725	-2.175198	106.488300	-2.175198	106.488300	-4.868574	15.922428
4.800000	-4.748329	12.897092	-2.246593	103.534126	-2.246593	103.534126	-4.746448	12.980267
4.850000	-4.625878	9.950490	-2.321195	100.577620	-2.321195	100.577620	-4.624029	10.036068
4.900000	-4.503386	7.002776	-2.399072	97.619685	-2.399072	97.619685	-4.501570	7.090683
4.950000	-4.381108	4.054846	-2.480282	94.661268	-2.480282	94.661268	-4.379325	4.145007
5.000000	-4.259296	1.107635	-2.564875	91.703357	-2.564875	91.703357	-4.257546	1.199970
5.050000	-4.138179	-1.837832	-2.652947	88.747034	-2.652947	88.747034	-4.136464	-1.743403
5.100000	-4.018025	-4.780568	-2.744474	85.793350	-2.744474	85.793350	-4.016345	-4.684127
5.150000	-3.899067	-7.719548	-2.839477	82.843391	-2.839477	82.843391	-3.897422	-7.621176
5.200000	-3.781525	-10.653724	-2.937966	79.898267	-2.937966	79.898267	-3.779916	-10.553504
5.250000	-3.665611	-13.582035	-3.039941	76.959102	-3.039941	76.959102	-3.664037	-13.480048
5.300000	-3.551522	-16.503407	-3.145391	74.027031	-3.145391	74.027031	-3.549984	-16.399735
5.350000	-3.439442	-19.416762	-3.254292	71.103189	-3.254292	71.103189	-3.437940	-19.311486
5.400000	-3.329541	-22.321027	-3.366611	68.188710	-3.366611	68.188710	-3.328075	-22.214225
5.450000	-3.221973	-25.215134	-3.482300	65.284717	-3.482300	65.284717	-3.220544	-25.106886
5.500000	-3.116879	-28.098032	-3.601303	62.392315	-3.601303	62.392315	-3.115485	-27.988415
5.550000	-3.014380	-30.968692	-3.723552	59.512585	-3.723552	59.512585	-3.013022	-30.857781
5.600000	-2.914583	-33.826112	-3.848966	56.646577	-3.848966	56.646577	-2.913260	-33.713980
5.650000	-2.817599	-36.669158	-3.977468	53.795478	-3.977468	53.795478	-2.816311	-36.555880
5.700000	-2.723507	-39.496875	-4.108952	50.960289	-4.108952	50.960289	-2.722253	-39.382521
5.750000	-2.632346	-42.308536	-4.243295	48.141773	-4.243295	48.141773	-2.631126	-42.193175
5.800000	-2.544160	-45.103314	-4.380380	45.340796	-4.380380	45.340796	-2.542973	-44.987012
5.850000	-2.458978	-47.880435	-4.520083	42.558171	-4.520083	42.558171	-2.457824	-47.763258
5.900000	-2.376815	-50.639186	-4.662272	39.794650	-4.662272	39.794650	-2.375693	-50.521195
5.950000	-2.297674	-53.378911	-4.806811	37.050919	-4.806811	37.050919	-2.296582	-53.260169
6.000000	-2.221545	-56.099023	-4.953556	34.327604	-4.953556	34.327604	-2.220484	-55.979589
6.050000	-2.148408	-58.798998	-5.102362	31.625261	-5.102362	31.625261	-2.147376	-58.678929
6.100000	-2.078232	-61.478379	-5.253080	28.944380	-5.253080	28.944380	-2.077229	-61.357731
6.150000	-2.010980	-64.136777	-5.405558	26.285381	-5.405558	26.285381	-2.010005	-64.015604
6.200000	-1.946602	-66.773871	-5.559643	23.648620	-5.559643	23.648620	-1.945655	-66.652224
6.250000	-1.885046	-69.389403	-5.715182	21.034384	-5.715182	21.034384	-1.884126	-69.267334
6.300000	-1.826301	-71.982710	-5.871985	18.443392	-5.871985	18.443392	-1.825407	-71.860267
6.350000	-1.770250	-74.554137	-6.029929	15.875309	-6.029929	15.875309	-1.769382	-74.431367
6.400000	-1.716823	-77.103623	-6.188862	13.330225	-6.188862	13.330225	-1.715980	-76.980572
6.450000	-1.665946	-79.631169	-6.348639	10.808175	-6.348639	10.808175	-1.665128	-79.507879
6.500000	-1.617543	-82.136828	-6.509115	8.309133	-6.509115	8.309133	-1.616749	-82.013342
6.550000	-1.571536	-84.620710	-6.670150	5.833022	-6.670150	5.833022	-1.570766	-84.497068
6.600000	-1.527845	-87.082976	-6.831607	3.379713	-6.831607	3.379713	-1.527099	-86.959215
6.650000	-1.486390	-89.523831	-6.993354	0.949030	-6.993354	0.949030	-1.485668	-89.399990
6.700000	-1.447046	-91.944007	-7.155333	-1.459756	-7.155333	-1.459756	-1.446348	-91.820120
6.750000	-1.409843	-94.342611	-7.317255	-3.845649	-7.317255	-3.845649	-1.409168	-94.218713
6.800000	-1.374634	-96.720690	-7.479101	-6.209707	-7.479101	-6.209707	-1.373982	-96.596814
6.850000	-1.341340	-99.078614	-7.640761	-8.552267	-7.640761	-8.552267	-1.340711	-98.954792
6.900000	-1.309884	-101.416783	-7.802135	-10.873699	-7.802135	-10.873699	-1.309279	-101.293046
6.950000	-1.280198	-103.735539	-7.963108	-13.174301	-7.963108	-13.174301	-1.279615	-103.611915
7.000000	-1.252205	-106.035362	-8.123594	-15.454521	-8.123594	-15.454521	-1.251645	-105.911880
7.050000	-1.225803	-108.317094	-8.283581	-17.715191	-8.283581	-17.715191	-1.225267	-108.193781
7.100000	-1.200970	-110.580668	-8.442883	-19.956157	-8.442883	-19.956157	-1.200457	-110.457552
7.150000	-1.177627	-112.826736	-8.601454	-22.178033	-8.601454	-22.178033	-1.177137	-112.703843
7.200000	-1.155673	-115.056281	-8.759331	-24.381792	-8.759331	-24.381792	-1.155206	-114.933637
7.250000	-1.135066	-117.269609	-8.916412	-26.567657	-8.916412	-26.567657	-1.134622	-117.147238
7.300000	-1.115778	-119.466891	-9.072558	-28.735682	-9.072558	-28.735682	-1.115357	-119.344819
7.350000	-1.097698	-121.649387	-9.227898	-30.887120	-9.227898	-30.887120	-1.097300	-121.527640
7.400000	-1.080772	-123.817693	-9.382416	-33.022470	-9.382416	-33.022470	-1.080397	-123.696296
7.450000	-1.065007	-125.971686	-9.535910	-35.141367	-9.535910	-35.141367	-1.064655	-125.850665
7.500000	-1.050293	-128.112784	-9.688590	-37.245182	-9.688590	-37.245182	-1.049965	-127.992165
7.550000	-1.036584	-130.241667	-9.840494	-39.334407	-9.840494	-39.334407	-1.036279	-130.121478
7.600000	-1.023872	-132.358595	-9.991541	-41.408938	-9.991541	-41.408938	-1.023590	-132.238864
7.650000	-1.012095	-134.464594	-10.141890	-43.469505	-10.141890	-43.469505	-1.011837	-134.345351
7.700000	-1.001203	-136.560655	-10.291716	-45.516703	-10.291716	-45.516703	-1.000968	-136.441931
7.750000	-0.991184	-138.647433	-10.441109	-47.550481	-10.441109	-47.550481	-0.990973	-138.529263
7.800000	-0.982026	-140.725831	-10.590265	-49.570784	-10.590265	-49.570784	-0.981840	-140.608252
7.850000	-0.973688	-142.797227	-10.739580	-51.577933	-10.739580	-51.577933	-0.973527	-142.680281
7.900000	-0.966179	-144.862826	-10.889440	-53.571345	-10.889440	-53.571345	-0.966046	-144.746557
7.950000	-0.959572	-146.924003	-11.040357	-55.549159	-11.040357	-55.549159	-0.959468	-146.808465
8.000000	-0.953898	-148.982922	-11.193218	-57.509864	-11.193218	-57.509864	-0.953827	-148.868175
8.050000	-0.949305	-151.041993	-11.349128	-59.449381	-11.349128	-59.449381	-0.949273	-150.928109
8.100000	-0.946161	-153.104784	-11.509845	-61.358270	-11.509845	-61.358270	-0.946175	-152.991853
8.150000	-0.945018	-155.175971	-11.677790	-63.221636	-11.677790	-63.221636	-0.945094	-155.064102
8.200000	-0.947028	-157.261844	-11.856339	-65.009026	-11.856339	-65.009026	-0.947190	-157.151169
8.250000	-0.954937	-159.371308	-12.050165	-66.647893	-12.050165	-66.647893	-0.955231	-159.261977
8.300000	-0.974840	-161.509188	-12.260781	-67.976485	-12.260781	-67.976485	-0.975355	-161.401292
8.350000	-1.018663	-163.644697	-12.465680	-68.685861	-12.465680	-68.685861	-1.019559	-163.537925
8.400000	-1.103091	-165.576644	-12.534379	-68.430286	-12.534379	-68.430286	-1.104566	-165.469043
8.450000	-1.177677	-166.901056	-12.263415	-68.750745	-12.263415	-68.750745	-1.179435	-166.788864
8.500000	-1.138746	-168.110529	-11.992660	-71.777418	-11.992660	-71.777418	-1.140021	-167.994916
8.550000	-1.064473	-169.836312	-11.999935	-75.379513	-11.999935	-75.379513	-1.065225	-169.721072
8.600000	-1.014004	-171.811529	-12.126880	-78.401607	-12.126880	-78.401607	-1.014458	-171.697927
8.650000	-0.984451	-173.842106	-12.278849	-80.956610	-12.278849	-80.956610	-0.984754	-173.730260
8.700000	-0.966550	-175.871483	-12.428845	-83.253670	-12.428845	-83.253670	-0.966776	-175.761283
8.750000	-0.954822	-177.890428	-12.572672	-85.414264	-12.572672	-85.414264	-0.955005	-177.781768
8.800000	-0.947023	-179.898410	-12.709835	-87.488351	-12.709835	-87.488351	-0.947184	-179.791207
8.850000	-0.941733	178.102725	-12.841022	-89.507858	-12.841022	-89.507858	-0.941885	178.208523
8.900000	-0.938015	176.110234	-12.967675	-91.493883	-12.967675	-91.493883	-0.938164	176.214657
8.950000	-0.935408	174.122296	-13.090625	-93.456805	-13.090625	-93.456805	-0.935560	174.225360
9.000000	-0.933630	172.137437	-13.210411	-95.403088	-13.210411	-95.403088	-0.933787	172.239147
9.050000	-0.932492	170.154424	-13.327467	-97.337013	-13.327467	-97.337013	-0.932657	170.254778
9.100000	-0.931811	168.172104	-13.442520	-99.262491	-13.442520	-99.262491	-0.931986	168.271095
9.150000	-0.931544	166.189604	-13.555429	-101.180658	-13.555429	-101.180658	-0.931731	166.287221
9.200000	-0.931557	164.206243	-13.667029	-103.094118	-13.667029	-103.094118	-0.931756	164.302476
9.250000	-0.931845	162.221081	-13.776995	-105.003097	-13.776995	-105.003097	-0.932057	162.315915
9.300000	-0.932322	160.233832	-13.885989	-106.909047	-13.885989	-106.909047	-0.932548	160.327252
9.350000	-0.932975	158.243660	-13.993888	-108.812140	-13.993888	-108.812140	-0.933215	158.335654
9.400000	-0.933765	156.250238	-14.100960	-110.712852	-14.100960	-110.712852	-0.934020	156.340792
9.450000	-0.934667	154.253100	-14.207310	-112.611323	-14.207310	-112.611323	-0.934936	154.342204
9.500000	-0.935667	152.251584	-14.312883	-114.507401	-14.312883	-114.507401	-0.935950	152.339227
9.550000	-0.936737	150.245800	-14.417921	-116.401238	-14.417921	-116.401238	-0.937033	150.331975
9.600000	-0.937873	148.234530	-14.522006	-118.292286	-14.522006	-118.292286	-0.938182	148.319231
9.650000	-0.939052	146.218409	-14.625356	-120.181201	-14.625356	-120.181201	-0.939372	146.301634
9.700000	-0.940270	144.196150	-14.727230	-122.068972	-14.727230	-122.068972	-0.940601	144.277900
9.750000	-0.941515	142.168225	-14.827566	-123.959135	-14.827566	-123.959135	-0.941854	142.248503
9.800000	-0.942780	140.133869	-14.925989	-125.859788	-14.925989	-125.859788	-0.943126	140.212683
9.850000	-0.944060	138.092935	-15.023382	-127.781216	-15.023382	-127.781216	-0.944409	138.170297
9.900000	-0.945349	136.045428	-15.122080	-129.728134	-15.122080	-129.728134	-0.945700	136.121353
9.950000	-0.946647	133.990442	-15.224805	-131.693736	-15.224805	-131.693736	-0.946994	134.064952
10.000000	-0.947949	131.928872	-15.331824	-133.659200	-15.331824	-133.659200	-0.948289	132.001990
