! freq	dB(S11)	phase(S11)	dB(S12)	phase(S12)	
!     	dB(S21)	phase(S21)	dB(S22)	phase(S22)	
!S-par simulation data
#  GHz  S  DB  R 50
0.000000	-82.139408	0.000000	-0.000679	0.000000	-0.000679	0.000000	-82.139408	0.000000
0.050000	-35.939197	-93.177255	-0.006350	-3.483090	-0.006350	-3.483090	-35.961124	-93.115680
0.100000	-29.951049	-96.789947	-0.016987	-6.922622	-0.016987	-6.922622	-29.962023	-96.645878
0.150000	-26.479841	-100.332106	-0.028176	-10.339026	-0.028176	-10.339026	-26.476347	-100.058074
0.200000	-24.046908	-103.877839	-0.040212	-13.745801	-0.040212	-13.745801	-24.033851	-103.404865
0.250000	-22.185659	-107.429678	-0.053679	-17.145384	-0.053679	-17.145384	-22.185463	-106.756286
0.300000	-20.687863	-110.970840	-0.068743	-20.536919	-0.068743	-20.536919	-20.704629	-110.321525
0.350000	-19.444535	-114.485961	-0.085354	-23.918886	-0.085354	-23.918886	-19.450080	-113.864088
0.400000	-18.390362	-117.969765	-0.103280	-27.290352	-0.103280	-27.290352	-18.384468	-117.284675
0.450000	-17.485154	-121.422060	-0.122298	-30.650164	-0.122298	-30.650164	-17.473599	-120.650140
0.500000	-16.699309	-124.847201	-0.142097	-33.998244	-0.142097	-33.998244	-16.685862	-123.987487
0.550000	-16.013833	-128.247999	-0.162409	-37.334007	-0.162409	-37.334007	-16.000819	-127.302303
0.600000	-15.412498	-131.628439	-0.182941	-40.657936	-0.182941	-40.657936	-15.401265	-130.597008
0.650000	-14.884774	-134.990749	-0.203419	-43.970086	-0.203419	-43.970086	-14.876108	-133.871820
0.700000	-14.421210	-138.337475	-0.223585	-47.271197	-0.223585	-47.271197	-14.415443	-137.127850
0.750000	-14.015219	-141.670414	-0.243185	-50.561903	-0.243185	-50.561903	-14.012339	-140.366154
0.800000	-13.661237	-144.991354	-0.261985	-53.843129	-0.261985	-53.843129	-13.660951	-143.588543
0.850000	-13.355607	-148.301779	-0.279736	-57.115798	-0.279736	-57.115798	-13.357409	-146.797079
0.900000	-13.093402	-151.603717	-0.296281	-60.381456	-0.296281	-60.381456	-13.096690	-149.994924
0.950000	-12.872509	-154.898604	-0.311412	-63.641298	-0.311412	-63.641298	-12.876650	-153.184601
1.000000	-12.690772	-158.188108	-0.324959	-66.896811	-0.324959	-66.896811	-12.695186	-156.368840
1.050000	-12.546557	-161.473947	-0.336770	-70.149612	-0.336770	-70.149612	-12.550777	-159.550150
1.100000	-12.438688	-164.757896	-0.346716	-73.401436	-0.346716	-73.401436	-12.442395	-162.730725
1.150000	-12.366412	-168.041782	-0.354689	-76.654129	-0.354689	-76.654129	-12.369442	-165.912415
1.200000	-12.329374	-171.327478	-0.360610	-79.909632	-0.360610	-79.909632	-12.331703	-169.096769
1.250000	-12.327606	-174.616887	-0.364424	-83.169971	-0.364424	-83.169971	-12.329327	-172.285097
1.300000	-12.362321	-177.912095	-0.366059	-86.437439	-0.366059	-86.437439	-12.363615	-175.478685
1.350000	-12.433596	178.785067	-0.365569	-89.714073	-0.365569	-89.714073	-12.434690	-178.678480
1.400000	-12.542715	175.472729	-0.362996	-93.002043	-0.362996	-93.002043	-12.543860	178.114566
1.450000	-12.691455	172.149087	-0.358412	-96.303519	-0.358412	-96.303519	-12.692899	174.899594
1.500000	-12.882151	168.812445	-0.351928	-99.620653	-0.351928	-99.620653	-12.884132	171.675886
1.550000	-13.117798	165.461264	-0.343684	-102.955548	-0.343684	-102.955548	-13.120528	168.442933
1.600000	-13.402184	162.094215	-0.333862	-106.310234	-0.333862	-106.310234	-13.405850	165.200553
1.650000	-13.740077	158.710258	-0.322672	-109.686636	-0.322672	-109.686636	-13.744836	161.949036
1.700000	-14.136620	155.309074	-0.310379	-113.086065	-0.310379	-113.086065	-14.142603	158.689476
1.750000	-14.601397	151.889743	-0.297220	-116.511231	-0.297220	-116.511231	-14.608711	155.423529
1.800000	-15.143127	148.453278	-0.283533	-119.962983	-0.283533	-119.962983	-15.151856	152.154816
1.850000	-15.774581	145.001268	-0.269655	-123.442521	-0.269655	-123.442521	-15.784795	148.888902
1.900000	-16.513086	141.536749	-0.255949	-126.950943	-0.255949	-126.950943	-16.524839	145.634788
1.950000	-17.382036	138.065252	-0.242801	-130.488907	-0.242801	-130.488907	-17.395360	142.407036
2.000000	-18.414334	134.596256	-0.230603	-134.056582	-0.230603	-134.056582	-18.429221	139.229342
2.050000	-19.659430	131.146326	-0.219755	-137.653953	-0.219755	-137.653953	-19.675758	136.142824
2.100000	-21.195780	127.746507	-0.210655	-141.280653	-0.210655	-141.280653	-21.213084	133.224239
2.150000	-23.159268	124.461591	-0.203692	-144.935946	-0.203692	-144.935946	-23.175947	130.633927
2.200000	-25.818442	121.454118	-0.199248	-148.618804	-0.199248	-148.618804	-25.828320	128.774491
2.250000	-29.834124	119.295117	-0.197688	-152.327878	-0.197688	-152.327878	-29.803884	129.049109
2.300000	-37.795171	124.371833	-0.199376	-156.061601	-0.199376	-156.061601	-37.172505	144.335424
2.350000	-42.157846	-94.396153	-0.204408	-159.816730	-0.204408	-159.816730	-40.042879	-110.741307
2.400000	-31.135573	-81.194805	-0.213081	-163.591516	-0.213081	-163.591516	-30.875059	-84.470002
2.450000	-26.331047	-82.854105	-0.225542	-167.383331	-0.225542	-167.383331	-26.219877	-83.058426
2.500000	-23.236683	-85.821517	-0.241868	-171.189376	-0.241868	-171.189376	-23.170203	-84.696382
2.550000	-20.958759	-89.196739	-0.262143	-175.006938	-0.262143	-175.006938	-20.912376	-87.305272
2.600000	-19.165098	-92.747492	-0.286199	-178.832790	-0.286199	-178.832790	-19.129781	-90.332962
2.650000	-17.695256	-96.391841	-0.313871	177.335911	-0.313871	177.335911	-17.666771	-93.584782
2.700000	-16.459532	-100.090417	-0.344911	173.501859	-0.344911	173.501859	-16.435593	-96.968564
2.750000	-15.402690	-103.821455	-0.378989	169.667508	-0.378989	169.667508	-15.381940	-100.434603
2.800000	-14.488322	-107.571659	-0.415698	165.834991	-0.415698	165.834991	-14.469901	-103.953432
2.850000	-13.691190	-111.332349	-0.454559	162.006036	-0.454559	162.006036	-13.674528	-107.506349
2.900000	-12.993122	-115.097670	-0.495025	158.181894	-0.495025	158.181894	-12.977828	-111.080931
2.950000	-12.379933	-118.863726	-0.536491	154.363161	-0.536491	154.363161	-12.365733	-114.668609
3.000000	-11.843069	-122.627945	-0.578315	150.550183	-0.578315	150.550183	-11.829768	-118.264018
3.050000	-11.373837	-126.389020	-0.619784	146.742229	-0.619784	146.742229	-11.361294	-121.863195
3.100000	-10.966243	-130.146674	-0.660170	142.937982	-0.660170	142.937982	-10.954357	-125.464054
3.150000	-10.615951	-133.901549	-0.698714	139.135339	-0.698714	139.135339	-10.604647	-129.065821
3.200000	-10.319602	-137.655208	-0.734650	135.331317	-0.734650	135.331317	-10.308825	-132.668868
3.250000	-10.075232	-141.410096	-0.767181	131.521961	-0.767181	131.521961	-10.064942	-136.274638
3.300000	-9.880538	-145.169379	-0.795648	127.702608	-0.795648	127.702608	-9.870702	-139.885379
3.350000	-9.735422	-148.936995	-0.819318	123.867476	-0.819318	123.867476	-9.726011	-143.504220
3.400000	-9.640413	-152.717573	-0.837527	120.009771	-0.837527	120.009771	-9.631401	-147.134980
3.450000	-9.597108	-156.516356	-0.849675	116.121591	-0.849675	116.121591	-9.588468	-150.782056
3.500000	-9.608336	-160.339064	-0.855241	112.193840	-0.855241	112.193840	-9.600035	-154.450237
3.550000	-9.677021	-164.190887	-0.853971	108.217513	-0.853971	108.217513	-9.669019	-158.143743
3.600000	-9.812381	-168.079397	-0.845233	104.178035	-0.845233	104.178035	-9.804621	-161.868575
3.650000	-10.021478	-172.008927	-0.829120	100.063566	-0.829120	100.063566	-10.013875	-165.627441
3.700000	-10.316288	-175.982827	-0.805762	95.859368	-0.805762	95.859368	-10.308721	-169.421336
3.750000	-10.713462	179.999247	-0.775575	91.549128	-0.775575	91.549128	-10.705737	-173.246569
3.800000	-11.237774	175.944624	-0.739287	87.113396	-0.739287	87.113396	-11.229570	-177.090532
3.850000	-11.922425	171.875860	-0.698230	82.533921	-0.698230	82.533921	-11.913184	179.077233
3.900000	-12.818783	167.843619	-0.654237	77.790104	-0.654237	77.790104	-12.807455	175.321012
3.950000	-14.008436	163.960040	-0.609844	72.860624	-0.609844	72.860624	-13.992840	171.778039
4.000000	-15.631576	160.485418	-0.568426	67.724235	-0.568426	67.724235	-15.606508	168.760168
4.050000	-17.958774	158.107969	-0.534340	62.360987	-0.534340	62.360987	-17.908922	167.078482
4.100000	-21.614713	159.291047	-0.513188	56.751862	-0.513188	56.751862	-21.474872	169.561843
4.150000	-28.182834	179.026921	-0.511469	50.887834	-0.511469	50.887834	-27.440738	-168.405960
4.200000	-27.980097	-96.693444	-0.537203	44.762826	-0.537203	44.762826	-27.089317	-93.816838
4.250000	-20.529897	-75.266835	-0.598495	38.388915	-0.598495	38.388915	-20.310967	-70.972323
4.300000	-16.014113	-74.819195	-0.704298	31.787508	-0.704298	31.787508	-15.915252	-69.302311
4.350000	-12.891627	-78.562097	-0.863021	24.997550	-0.863021	24.997550	-12.831326	-72.365644
4.400000	-10.534880	-83.832829	-1.082415	18.073185	-1.082415	18.073185	-10.491814	-77.184215
4.450000	-8.676271	-89.806897	-1.367414	11.084513	-1.367414	11.084513	-8.642489	-82.816263
4.500000	-7.177789	-96.117250	-1.720485	4.109803	-1.720485	4.109803	-7.149627	-88.845870
4.550000	-5.956401	-102.546837	-2.140112	-2.772385	-2.140112	-2.772385	-5.931938	-95.031524
4.600000	-4.956864	-108.952012	-2.622626	-9.488998	-2.622626	-9.488998	-4.934991	-101.216743
4.650000	-4.138309	-115.229622	-3.161690	-15.978686	-3.161690	-15.978686	-4.118343	-107.290613
4.700000	-3.468707	-121.307065	-3.749348	-22.194553	-3.749348	-22.194553	-3.450202	-113.175659
4.750000	-2.921944	-127.136092	-4.376717	-28.104985	-4.376717	-28.104985	-2.904600	-118.820408
4.800000	-2.475261	-132.693017	-5.035134	-33.698052	-5.035134	-33.698052	-2.458865	-124.198883
4.850000	-2.110292	-137.968407	-5.716679	-38.972047	-5.716679	-38.972047	-2.094689	-129.300089
4.900000	-1.812303	-142.961581	-6.413886	-43.931428	-6.413886	-43.931428	-1.797376	-134.122233
4.950000	-1.567537	-147.690080	-7.122156	-48.598359	-7.122156	-48.598359	-1.553195	-138.681949
5.000000	-1.366624	-152.164444	-7.836056	-52.985626	-7.836056	-52.985626	-1.352794	-142.989182
5.050000	-1.201718	-156.398618	-8.550737	-57.108702	-8.550737	-57.108702	-1.188341	-147.057396
5.100000	-1.065474	-160.416156	-9.264355	-60.992881	-9.264355	-60.992881	-1.052502	-150.909730
5.150000	-0.953202	-164.229091	-9.972454	-64.650205	-9.972454	-64.650205	-0.940593	-154.557921
5.200000	-0.859021	-167.871345	-10.678896	-68.116864	-10.678896	-68.116864	-0.846742	-158.035626
5.250000	-0.780437	-171.350304	-11.379579	-71.399275	-11.379579	-71.399275	-0.768460	-161.350044
5.300000	-0.714905	-174.678751	-12.072506	-74.509717	-12.072506	-74.509717	-0.703206	-164.513793
5.350000	-0.659325	-177.881745	-12.762322	-77.474572	-12.762322	-77.474572	-0.647884	-167.551810
5.400000	-0.613101	179.044559	-13.440637	-80.286569	-13.440637	-80.286569	-0.601900	-170.460088
5.450000	-0.573419	176.068672	-14.118044	-82.980367	-14.118044	-82.980367	-0.562445	-173.270099
5.500000	-0.540305	173.199702	-14.783556	-85.541569	-14.783556	-85.541569	-0.529545	-175.972546
5.550000	-0.511825	170.411894	-15.447486	-87.999031	-15.447486	-87.999031	-0.501270	-178.593222
5.600000	-0.487719	167.706592	-16.103957	-90.347338	-16.103957	-90.347338	-0.477360	178.869356
5.650000	-0.467107	165.071790	-16.756560	-92.598640	-16.756560	-92.598640	-0.456937	176.403187
5.700000	-0.449450	162.500688	-17.406091	-94.758165	-17.406091	-94.758165	-0.439463	174.001516
5.750000	-0.434458	159.990688	-18.050094	-96.824999	-18.050094	-96.824999	-0.424650	171.661828
5.800000	-0.421493	157.529849	-18.695309	-98.812687	-18.695309	-98.812687	-0.411859	169.372114
5.850000	-0.410588	155.121826	-19.333871	-100.709314	-19.333871	-100.709314	-0.401125	167.136208
5.900000	-0.401147	152.753169	-19.976051	-102.532545	-19.976051	-102.532545	-0.391852	164.940506
5.950000	-0.393215	150.426962	-20.614539	-104.269350	-20.614539	-104.269350	-0.384085	162.788271
6.000000	-0.386434	148.134325	-21.256528	-105.930646	-21.256528	-105.930646	-0.377466	160.670510
6.050000	-0.380741	145.874461	-21.899622	-107.509410	-21.899622	-107.509410	-0.371933	158.586509
6.100000	-0.375989	143.643605	-22.545651	-109.005400	-22.545651	-109.005400	-0.367338	156.532495
6.150000	-0.372198	141.442765	-23.188297	-110.400043	-23.188297	-110.400043	-0.363698	154.509649
6.200000	-0.368964	139.259348	-23.846702	-111.724285	-23.846702	-111.724285	-0.360612	152.504984
6.250000	-0.366319	137.094325	-24.518067	-112.969601	-24.518067	-112.969601	-0.358112	150.519550
6.300000	-0.364515	134.954748	-25.180875	-114.072269	-25.180875	-114.072269	-0.356443	148.560928
6.350000	-0.363167	132.828092	-25.860067	-115.076268	-25.860067	-115.076268	-0.355224	146.616061
6.400000	-0.362261	130.713463	-26.556738	-115.975927	-26.556738	-115.975927	-0.354439	144.684054
6.450000	-0.361883	128.612146	-27.262201	-116.730158	-27.262201	-116.730158	-0.354170	142.766416
6.500000	-0.362034	126.521893	-27.974807	-117.300161	-27.974807	-117.300161	-0.354415	140.860973
6.550000	-0.362563	124.438098	-28.709460	-117.715069	-28.709460	-117.715069	-0.355024	138.962814
6.600000	-0.363466	122.359934	-29.467758	-117.964126	-29.467758	-117.964126	-0.355993	137.071112
6.650000	-0.364946	120.287293	-30.227815	-117.906555	-30.227815	-117.906555	-0.357509	135.186214
6.700000	-0.366856	118.216030	-31.007120	-117.576307	-31.007120	-117.576307	-0.359430	133.303623
6.750000	-0.369138	116.144989	-31.814219	-116.996199	-31.814219	-116.996199	-0.361699	131.422038
6.800000	-0.371974	114.072290	-32.627486	-116.013392	-32.627486	-116.013392	-0.364482	129.539925
6.850000	-0.375428	111.994351	-33.439619	-114.543590	-33.439619	-114.543590	-0.367833	127.653729
6.900000	-0.379367	109.910957	-34.266514	-112.690878	-34.266514	-112.690878	-0.371629	125.762934
6.950000	-0.383936	107.819479	-35.085998	-110.342812	-35.085998	-110.342812	-0.375998	123.865118
7.000000	-0.389500	105.712093	-35.846763	-107.308980	-35.846763	-107.308980	-0.381268	121.952896
7.050000	-0.395816	103.591518	-36.578513	-103.891749	-36.578513	-103.891749	-0.387218	120.028515
7.100000	-0.402941	101.456517	-37.263159	-100.095149	-37.263159	-100.095149	-0.393898	118.090788
7.150000	-0.411891	99.287334	-37.799297	-96.005641	-37.799297	-96.005641	-0.402221	116.121053
7.200000	-0.422216	97.092487	-38.270182	-92.112942	-38.270182	-92.112942	-0.411782	114.127117
7.250000	-0.433927	94.871989	-38.672586	-88.468349	-38.672586	-88.468349	-0.422591	112.108972
7.300000	-0.448645	92.597410	-39.002727	-85.901017	-39.002727	-85.901017	-0.436110	110.039611
7.350000	-0.466327	90.272257	-39.346127	-84.659166	-39.346127	-84.659166	-0.452303	107.922259
7.400000	-0.488582	87.873810	-39.798018	-85.712623	-39.798018	-85.712623	-0.472632	105.735284
7.450000	-0.516600	85.390053	-40.460296	-90.075581	-40.460296	-90.075581	-0.498184	103.467220
7.500000	-0.552356	82.801754	-41.406969	-99.917644	-41.406969	-99.917644	-0.530764	101.099751
7.550000	-0.600533	80.063111	-42.393410	-121.186338	-42.393410	-121.186338	-0.574660	98.589281
7.600000	-0.667569	77.127788	-41.525463	-157.262884	-41.525463	-157.262884	-0.635798	95.891651
7.650000	-0.764973	73.928337	-37.405897	168.748133	-37.405897	168.748133	-0.724798	92.942466
7.700000	-0.915197	70.366242	-32.206152	146.847824	-32.206152	146.847824	-0.862441	89.647317
7.750000	-1.167057	66.311334	-27.076672	130.815442	-27.076672	130.815442	-1.094027	85.880163
7.800000	-1.630013	61.726736	-22.103340	114.862014	-22.103340	114.862014	-1.521296	81.597913
7.850000	-2.540183	57.388971	-17.316172	94.756546	-17.316172	94.756546	-2.363455	77.501432
7.900000	-4.061646	57.759189	-13.214256	67.134033	-13.214256	67.134033	-3.777849	77.640159
7.950000	-4.780276	67.240405	-10.782429	34.398949	-10.782429	34.398949	-4.511388	86.187223
8.000000	-4.036280	71.902693	-9.976123	5.140759	-9.976123	5.140759	-3.888738	90.871121
8.050000	-3.622625	70.145014	-9.743771	-18.313464	-9.743771	-18.313464	-3.512002	89.620481
8.100000	-3.835276	68.114987	-9.569593	-39.170176	-9.569593	-39.170176	-3.699885	88.002035
8.150000	-4.370082	69.424080	-9.534939	-60.297889	-9.534939	-60.297889	-4.175107	89.407323
8.200000	-4.501668	75.164050	-9.982605	-82.320883	-9.982605	-82.320883	-4.274396	94.772906
8.250000	-3.731715	80.057218	-11.152259	-103.302467	-11.152259	-103.302467	-3.555953	99.323161
8.300000	-2.709108	80.194839	-12.901269	-120.867285	-12.901269	-120.867285	-2.602144	99.519961
8.350000	-1.941655	77.429770	-14.912730	-134.279174	-14.912730	-134.279174	-1.879960	97.001745
8.400000	-1.448161	73.835303	-16.963310	-144.205744	-16.963310	-144.205744	-1.412579	93.681964
8.450000	-1.140994	70.232448	-18.935789	-151.426841	-18.935789	-151.426841	-1.120436	90.337196
8.500000	-0.939448	66.832665	-20.843655	-156.768750	-20.843655	-156.768750	-0.928177	87.173867
8.550000	-0.804739	63.665107	-22.679529	-160.593091	-22.679529	-160.593091	-0.799332	84.222534
8.600000	-0.711589	60.702280	-24.463888	-163.147401	-24.463888	-163.147401	-0.709995	81.458993
8.650000	-0.645218	57.907395	-26.219800	-164.528807	-26.219800	-164.528807	-0.646143	78.849327
8.700000	-0.596726	55.247344	-27.968427	-164.704458	-27.968427	-164.704458	-0.599317	76.362638
8.750000	-0.560575	52.695219	-29.724668	-163.510208	-29.724668	-163.510208	-0.564243	73.973654
8.800000	-0.533415	50.232201	-31.476730	-160.565638	-31.476730	-160.565638	-0.537727	71.664493
8.850000	-0.512559	47.838554	-33.202420	-155.429803	-33.202420	-155.429803	-0.517207	69.416617
8.900000	-0.496451	45.501680	-34.804241	-147.563094	-34.804241	-147.563094	-0.501196	67.218062
8.950000	-0.483994	43.211634	-36.091859	-136.768114	-36.091859	-136.768114	-0.488645	65.059353
9.000000	-0.474403	40.960500	-36.824727	-123.885732	-36.824727	-123.885732	-0.478805	62.932921
9.050000	-0.467106	38.741916	-36.881786	-110.894154	-36.881786	-110.894154	-0.471127	60.832667
9.100000	-0.461678	36.550728	-36.379756	-99.714509	-36.379756	-99.714509	-0.465204	58.753624
9.150000	-0.457802	34.382722	-35.559876	-91.172198	-35.559876	-91.172198	-0.460731	56.691715
9.200000	-0.455235	32.234418	-34.624081	-85.127202	-34.624081	-85.127202	-0.457478	54.643561
9.250000	-0.453792	30.102926	-33.686273	-81.058161	-33.686273	-81.058161	-0.455266	52.606338
9.300000	-0.453331	27.985820	-32.796140	-78.442365	-32.796140	-78.442365	-0.453958	50.577667
9.350000	-0.453740	25.881053	-31.969717	-76.874331	-31.969717	-76.874331	-0.453449	48.555526
9.400000	-0.454935	23.786879	-31.208072	-76.065398	-31.208072	-76.065398	-0.453656	46.538186
9.450000	-0.456846	21.701805	-30.506461	-75.814848	-30.506461	-75.814848	-0.454515	44.524156
9.500000	-0.459423	19.624539	-29.858389	-75.982789	-29.858389	-75.982789	-0.455978	42.512144
9.550000	-0.462624	17.553959	-29.257310	-76.470433	-29.257310	-76.470433	-0.458005	40.501019
9.600000	-0.466419	15.489081	-28.697255	-77.206797	-28.697255	-77.206797	-0.460568	38.489788
9.650000	-0.470784	13.429035	-28.173019	-78.139917	-28.173019	-78.139917	-0.463646	36.477570
9.700000	-0.475703	11.373051	-27.680152	-79.231029	-27.680152	-79.231029	-0.467225	34.463582
9.750000	-0.481163	9.320435	-27.214886	-80.450680	-27.214886	-80.450680	-0.471295	32.447123
9.800000	-0.487156	7.270563	-26.774042	-81.776083	-26.774042	-81.776083	-0.475849	30.427557
9.850000	-0.493679	5.222863	-26.354942	-83.189297	-26.354942	-83.189297	-0.480887	28.404311
9.900000	-0.500728	3.176814	-25.955327	-84.675939	-25.955327	-84.675939	-0.486409	26.376859
9.950000	-0.508307	1.131927	-25.573287	-86.224280	-25.573287	-86.224280	-0.492419	24.344719
10.000000	-0.516416	-0.912250	-25.207203	-87.824581	-25.207203	-87.824581	-0.498923	22.307442
