! freq	dB(S11)	phase(S11)	dB(S12)	phase(S12)	
!     	dB(S21)	phase(S21)	dB(S22)	phase(S22)	
!S-par simulation data
#  GHz  S  DB  R 50
0.000000	-0.000000	0.000000	-328.761340	0.000000	-328.761340	0.000000	-0.000000	0.000000
0.050000	-0.002013	-3.095013	-91.496835	88.066567	-91.496835	88.066567	-0.000726	-1.101075
0.100000	-0.006833	-6.174074	-85.499384	85.949536	-85.499384	85.949536	-0.002411	-2.196482
0.150000	-0.012414	-9.234180	-82.016159	83.882630	-82.016159	83.882630	-0.004288	-3.285861
0.200000	-0.017664	-12.280155	-79.570257	81.838248	-79.570257	81.838248	-0.006004	-4.371543
0.250000	-0.022324	-15.315973	-77.700601	79.814899	-77.700601	79.814899	-0.007513	-5.455341
0.300000	-0.026494	-18.343738	-76.201795	77.815210	-76.201795	77.815210	-0.008878	-6.538286
0.350000	-0.030347	-21.364144	-74.962558	75.842022	-74.962558	75.842022	-0.010171	-7.620823
0.400000	-0.034005	-24.376667	-73.917779	73.899718	-73.917779	73.899718	-0.011439	-8.703078
0.450000	-0.037545	-27.379963	-73.027376	71.994826	-73.027376	71.994826	-0.012711	-9.785037
0.500000	-0.041023	-30.373384	-72.260379	70.130797	-72.260379	70.130797	-0.014005	-10.866661
0.550000	-0.044461	-33.355829	-71.596472	68.313157	-71.596472	68.313157	-0.015324	-11.947874
0.600000	-0.047872	-36.325593	-71.022829	66.550736	-71.022829	66.550736	-0.016671	-13.028563
0.650000	-0.051260	-39.282021	-70.526574	64.848689	-70.526574	64.848689	-0.018040	-14.108648
0.700000	-0.054623	-42.224274	-70.098617	63.213890	-70.098617	63.213890	-0.019426	-15.188038
0.750000	-0.057957	-45.150962	-69.733538	61.657227	-69.733538	61.657227	-0.020823	-16.266607
0.800000	-0.061257	-48.061245	-69.425808	60.188568	-69.425808	60.188568	-0.022225	-17.344249
0.850000	-0.064519	-50.954540	-69.170540	58.818080	-69.170540	58.818080	-0.023626	-18.420873
0.900000	-0.067737	-53.830203	-68.964072	57.558151	-68.964072	57.558151	-0.025023	-19.496384
0.950000	-0.070906	-56.687548	-68.803599	56.423704	-68.803599	56.423704	-0.026413	-20.570687
1.000000	-0.074023	-59.526035	-68.686558	55.431498	-68.686558	55.431498	-0.027794	-21.643699
1.050000	-0.077084	-62.345195	-68.610637	54.600855	-68.610637	54.600855	-0.029167	-22.715348
1.100000	-0.080085	-65.144633	-68.573622	53.954076	-68.573622	53.954076	-0.030532	-23.785568
1.150000	-0.083025	-67.924021	-68.573218	53.516856	-68.573218	53.516856	-0.031890	-24.854306
1.200000	-0.085901	-70.683096	-68.606847	53.318671	-68.606847	53.318671	-0.033242	-25.921516
1.250000	-0.088713	-73.421658	-68.671397	53.393040	-68.671397	53.393040	-0.034589	-26.987161
1.300000	-0.091460	-76.139116	-68.763341	53.785214	-68.763341	53.785214	-0.035933	-28.051173
1.350000	-0.094141	-78.835833	-68.876685	54.530540	-68.876685	54.530540	-0.037274	-29.113561
1.400000	-0.096759	-81.511781	-69.004360	55.672130	-69.004360	55.672130	-0.038614	-30.174301
1.450000	-0.099313	-84.166979	-69.137031	57.251929	-69.137031	57.251929	-0.039953	-31.233375
1.500000	-0.101807	-86.801494	-69.262634	59.305606	-69.262634	59.305606	-0.041293	-32.290765
1.550000	-0.104240	-89.415436	-69.366140	61.854942	-69.366140	61.854942	-0.042632	-33.346454
1.600000	-0.106617	-92.008954	-69.429810	64.897916	-69.429810	64.897916	-0.043973	-34.400428
1.650000	-0.108938	-94.582237	-69.434273	68.398010	-69.434273	68.398010	-0.045314	-35.452673
1.700000	-0.111207	-97.135507	-69.360624	72.276047	-69.360624	72.276047	-0.046657	-36.503174
1.750000	-0.113427	-99.669019	-69.193353	76.409160	-69.193353	76.409160	-0.048000	-37.551917
1.800000	-0.115601	-102.183058	-68.923374	80.640570	-68.923374	80.640570	-0.049345	-38.598889
1.850000	-0.117731	-104.677937	-68.550011	84.799886	-68.550011	84.799886	-0.050692	-39.644077
1.900000	-0.119821	-107.153792	-68.079854	88.724262	-68.079854	88.724262	-0.052040	-40.687445
1.950000	-0.121874	-109.610997	-67.527572	92.284950	-67.527572	92.284950	-0.053390	-41.728982
2.000000	-0.123893	-112.050141	-66.912505	95.405359	-66.912505	95.405359	-0.054741	-42.768692
2.050000	-0.125883	-114.471624	-66.253114	98.049142	-66.253114	98.049142	-0.056095	-43.806562
2.100000	-0.127845	-116.875866	-65.566145	100.214352	-65.566145	100.214352	-0.057451	-44.842580
2.150000	-0.129784	-119.263301	-64.865558	101.922685	-64.865558	101.922685	-0.058810	-45.876732
2.200000	-0.131702	-121.634376	-64.162259	103.209602	-64.162259	103.209602	-0.060172	-46.909006
2.250000	-0.133602	-123.989551	-63.464349	104.116765	-63.464349	104.116765	-0.061536	-47.939389
2.300000	-0.135488	-126.329296	-62.777571	104.686976	-62.777571	104.686976	-0.062905	-48.967870
2.350000	-0.137361	-128.654091	-62.105811	104.961154	-62.105811	104.961154	-0.064278	-49.994438
2.400000	-0.139226	-130.964423	-61.451555	104.976791	-61.451555	104.976791	-0.065655	-51.019082
2.450000	-0.141084	-133.260785	-60.816261	104.767330	-60.816261	104.767330	-0.067037	-52.041791
2.500000	-0.142938	-135.543678	-60.200654	104.362119	-60.200654	104.362119	-0.068425	-53.062557
2.550000	-0.144790	-137.813336	-59.604517	103.783450	-59.604517	103.783450	-0.069818	-54.081327
2.600000	-0.146643	-140.070559	-59.028235	103.057361	-59.028235	103.057361	-0.071218	-55.098137
2.650000	-0.148498	-142.315858	-58.471412	102.202598	-58.471412	102.202598	-0.072625	-56.112977
2.700000	-0.150359	-144.549746	-57.933509	101.235286	-57.933509	101.235286	-0.074040	-57.125844
2.750000	-0.152226	-146.772735	-57.413900	100.169303	-57.413900	100.169303	-0.075462	-58.136729
2.800000	-0.154101	-148.985340	-56.911911	99.016607	-56.911911	99.016607	-0.076893	-59.145629
2.850000	-0.155987	-151.188073	-56.426849	97.787521	-56.426849	97.787521	-0.078333	-60.152540
2.900000	-0.157884	-153.381446	-55.958024	96.490978	-55.958024	96.490978	-0.079783	-61.157459
2.950000	-0.159795	-155.565970	-55.504758	95.134729	-55.504758	95.134729	-0.081244	-62.160383
3.000000	-0.161720	-157.742153	-55.066394	93.725519	-55.066394	93.725519	-0.082715	-63.161311
3.050000	-0.163660	-159.910502	-54.642301	92.269233	-54.642301	92.269233	-0.084197	-64.160243
3.100000	-0.165618	-162.071518	-54.231881	90.771021	-54.231881	90.771021	-0.085692	-65.157179
3.150000	-0.167593	-164.225632	-53.834508	89.235044	-53.834508	89.235044	-0.087199	-66.152101
3.200000	-0.169588	-166.373356	-53.449664	87.665400	-53.449664	87.665400	-0.088720	-67.145009
3.250000	-0.171602	-168.515256	-53.076900	86.065982	-53.076900	86.065982	-0.090255	-68.135931
3.300000	-0.173637	-170.651817	-52.715734	84.439877	-52.715734	84.439877	-0.091803	-69.124869
3.350000	-0.175692	-172.783521	-52.365717	82.789830	-52.365717	82.789830	-0.093367	-70.111831
3.400000	-0.177770	-174.910843	-52.026423	81.118284	-52.026423	81.118284	-0.094947	-71.096823
3.450000	-0.179869	-177.034253	-51.697456	79.427425	-51.697456	79.427425	-0.096543	-72.079853
3.500000	-0.181992	-179.154216	-51.378444	77.719207	-51.378444	77.719207	-0.098155	-73.060928
3.550000	-0.184137	178.728810	-51.069037	75.995387	-51.069037	75.995387	-0.099785	-74.040060
3.600000	-0.186305	176.614373	-50.768909	74.257548	-50.768909	74.257548	-0.101433	-75.017259
3.650000	-0.188497	174.502029	-50.477754	72.507116	-50.477754	72.507116	-0.103100	-75.992536
3.700000	-0.190713	172.391338	-50.195285	70.745386	-50.195285	70.745386	-0.104785	-76.965905
3.750000	-0.192952	170.281870	-49.921234	68.973532	-49.921234	68.973532	-0.106491	-77.937379
3.800000	-0.195215	168.173208	-49.655352	67.192450	-49.655352	67.192450	-0.108217	-78.906932
3.850000	-0.197503	166.064911	-49.397414	65.403331	-49.397414	65.403331	-0.109964	-79.874622
3.900000	-0.199814	163.956570	-49.147200	63.607069	-49.147200	63.607069	-0.111732	-80.840465
3.950000	-0.202149	161.847787	-48.904506	61.804484	-48.904506	61.804484	-0.113523	-81.804480
4.000000	-0.204507	159.738169	-48.669138	59.996337	-48.669138	59.996337	-0.115336	-82.766684
4.050000	-0.206888	157.627336	-48.440920	58.183334	-48.440920	58.183334	-0.117173	-83.727099
4.100000	-0.209292	155.514913	-48.219683	56.366135	-48.219683	56.366135	-0.119034	-84.685745
4.150000	-0.211719	153.400536	-48.005275	54.545359	-48.005275	54.545359	-0.120919	-85.642643
4.200000	-0.214169	151.283850	-47.797551	52.721590	-47.797551	52.721590	-0.122829	-86.597816
4.250000	-0.216640	149.164510	-47.596377	50.895383	-47.596377	50.895383	-0.124764	-87.551289
4.300000	-0.219133	147.042180	-47.401631	49.067270	-47.401631	49.067270	-0.126726	-88.503085
4.350000	-0.221648	144.916537	-47.213197	47.237762	-47.213197	47.237762	-0.128714	-89.453230
4.400000	-0.224183	142.787223	-47.030998	45.407349	-47.030998	45.407349	-0.130730	-90.401734
4.450000	-0.226739	140.653923	-46.854942	43.576531	-46.854942	43.576531	-0.132775	-91.348625
4.500000	-0.229315	138.516388	-46.684914	41.745792	-46.684914	41.745792	-0.134848	-92.293949
4.550000	-0.231911	136.374335	-46.520833	39.915605	-46.520833	39.915605	-0.136949	-93.237736
4.600000	-0.234526	134.227498	-46.362625	38.086437	-46.362625	38.086437	-0.139081	-94.180015
4.650000	-0.237160	132.075620	-46.210222	36.258761	-46.210222	36.258761	-0.141243	-95.120819
4.700000	-0.239813	129.918458	-46.063562	34.433052	-46.063562	34.433052	-0.143435	-96.060178
4.750000	-0.242483	127.755780	-45.922589	32.609795	-45.922589	32.609795	-0.145659	-96.998127
4.800000	-0.245172	125.587368	-45.787254	30.789484	-45.787254	30.789484	-0.147914	-97.934698
4.850000	-0.247877	123.413019	-45.657513	28.972626	-45.657513	28.972626	-0.150202	-98.869928
4.900000	-0.250600	121.232541	-45.533324	27.159743	-45.533324	27.159743	-0.152523	-99.803850
4.950000	-0.253341	119.045757	-45.414654	25.351376	-45.414654	25.351376	-0.154878	-100.736503
5.000000	-0.256098	116.852505	-45.301471	23.548085	-45.301471	23.548085	-0.157266	-101.667922
5.050000	-0.258872	114.652489	-45.193838	21.750590	-45.193838	21.750590	-0.159690	-102.598122
5.100000	-0.261663	112.445718	-45.091647	19.959391	-45.091647	19.959391	-0.162149	-103.527169
5.150000	-0.264471	110.232073	-44.994876	18.175124	-44.994876	18.175124	-0.164644	-104.455101
5.200000	-0.267296	108.011453	-44.903506	16.398455	-44.903506	16.398455	-0.167175	-105.381961
5.250000	-0.270139	105.783771	-44.817523	14.630082	-44.817523	14.630082	-0.169743	-106.307790
5.300000	-0.273000	103.548956	-44.736912	12.870736	-44.736912	12.870736	-0.172347	-107.232630
5.350000	-0.275880	101.306953	-44.661661	11.121185	-44.661661	11.121185	-0.174990	-108.156524
5.400000	-0.278778	99.057721	-44.591758	9.382234	-44.591758	9.382234	-0.177671	-109.079518
5.450000	-0.281697	96.801239	-44.527195	7.654730	-44.527195	7.654730	-0.180390	-110.001655
5.500000	-0.284636	94.537498	-44.467960	5.939561	-44.467960	5.939561	-0.183149	-110.922981
5.550000	-0.287598	92.266507	-44.414043	4.237661	-44.414043	4.237661	-0.185947	-111.843544
5.600000	-0.290583	89.988292	-44.365433	2.550011	-44.365433	2.550011	-0.188786	-112.763390
5.650000	-0.293593	87.702814	-44.322174	0.877822	-44.322174	0.877822	-0.191666	-113.682561
5.700000	-0.296630	85.410134	-44.284254	-0.777784	-44.284254	-0.777784	-0.194587	-114.601108
5.750000	-0.299696	83.110403	-44.251599	-2.415831	-44.251599	-2.415831	-0.197550	-115.519088
5.800000	-0.302792	80.803711	-44.224190	-4.035116	-44.224190	-4.035116	-0.200555	-116.436551
5.850000	-0.305922	78.490160	-44.202003	-5.634379	-44.202003	-5.634379	-0.203603	-117.353550
5.900000	-0.309086	76.169870	-44.185009	-7.212294	-44.185009	-7.212294	-0.206693	-118.270137
5.950000	-0.312289	73.842976	-44.173173	-8.767472	-44.173173	-8.767472	-0.209827	-119.186364
6.000000	-0.315533	71.509623	-44.166455	-10.298453	-44.166455	-10.298453	-0.213004	-120.102286
6.050000	-0.318822	69.169974	-44.164806	-11.803707	-44.164806	-11.803707	-0.216226	-121.017958
6.100000	-0.322158	66.824203	-44.168167	-13.281630	-44.168167	-13.281630	-0.219493	-121.933434
6.150000	-0.325546	64.472495	-44.176471	-14.730542	-44.176471	-14.730542	-0.222804	-122.848773
6.200000	-0.328990	62.115049	-44.189636	-16.148688	-44.189636	-16.148688	-0.226161	-123.764030
6.250000	-0.332493	59.752074	-44.207569	-17.534232	-44.207569	-17.534232	-0.229563	-124.679263
6.300000	-0.336062	57.383679	-44.230257	-18.884464	-44.230257	-18.884464	-0.233013	-125.594535
6.350000	-0.339701	55.010213	-44.257467	-20.198095	-44.257467	-20.198095	-0.236509	-126.509905
6.400000	-0.343413	52.631913	-44.289049	-21.473051	-44.289049	-21.473051	-0.240052	-127.425433
6.450000	-0.347206	50.249023	-44.324833	-22.707183	-44.324833	-22.707183	-0.243642	-128.341182
6.500000	-0.351083	47.861794	-44.364619	-23.898277	-44.364619	-23.898277	-0.247279	-129.257213
6.550000	-0.355052	45.470481	-44.408182	-25.044057	-44.408182	-25.044057	-0.250965	-130.173591
6.600000	-0.359118	43.075343	-44.455264	-26.142196	-44.455264	-26.142196	-0.254698	-131.090377
6.650000	-0.363287	40.676642	-44.505571	-27.190333	-44.505571	-27.190333	-0.258480	-132.007638
6.700000	-0.367564	38.274696	-44.558732	-28.187086	-44.558732	-28.187086	-0.262310	-132.925429
6.750000	-0.371968	35.869506	-44.614550	-29.124999	-44.614550	-29.124999	-0.266193	-133.843873
6.800000	-0.376486	33.461750	-44.672331	-30.009881	-44.672331	-30.009881	-0.270121	-134.762944
6.850000	-0.381142	31.051378	-44.731777	-30.832725	-44.731777	-30.832725	-0.274101	-135.682792
6.900000	-0.385936	28.638784	-44.792309	-31.594846	-44.792309	-31.594846	-0.278130	-136.603442
6.950000	-0.390874	26.224220	-44.853350	-32.294225	-44.853350	-32.294225	-0.282208	-137.524963
7.000000	-0.395975	23.807820	-44.914245	-32.925286	-44.914245	-32.925286	-0.286339	-138.447481
7.050000	-0.401229	21.390008	-44.974416	-33.494171	-44.974416	-33.494171	-0.290517	-139.370952
7.100000	-0.406672	18.970769	-45.032811	-33.987869	-45.032811	-33.987869	-0.294751	-140.295635
7.150000	-0.412281	16.550552	-45.089071	-34.418815	-45.089071	-34.418815	-0.299031	-141.221386
7.200000	-0.418096	14.129388	-45.141784	-34.774668	-45.141784	-34.774668	-0.303367	-142.148492
7.250000	-0.424102	11.707573	-45.190580	-35.065044	-45.190580	-35.065044	-0.307751	-143.076854
7.300000	-0.430323	9.285231	-45.234153	-35.285536	-45.234153	-35.285536	-0.312188	-144.006656
7.350000	-0.436766	6.862525	-45.271655	-35.439068	-45.271655	-35.439068	-0.316677	-144.937947
7.400000	-0.443431	4.439604	-45.302386	-35.530543	-45.302386	-35.530543	-0.321217	-145.870748
7.450000	-0.450353	2.016568	-45.324654	-35.557174	-45.324654	-35.557174	-0.325812	-146.805294
7.500000	-0.457505	-0.406479	-45.338872	-35.532024	-45.338872	-35.532024	-0.330455	-147.741405
7.550000	-0.464951	-2.829459	-45.342165	-35.448638	-45.342165	-35.448638	-0.335156	-148.679541
7.600000	-0.472648	-5.252339	-45.335879	-35.323376	-45.335879	-35.323376	-0.339905	-149.619396
7.650000	-0.480650	-7.675081	-45.317672	-35.155982	-45.317672	-35.155982	-0.344711	-150.561353
7.700000	-0.488942	-10.097701	-45.288099	-34.957145	-45.288099	-34.957145	-0.349567	-151.505301
7.750000	-0.497548	-12.520228	-45.246286	-34.733373	-45.246286	-34.733373	-0.354478	-152.451411
7.800000	-0.506488	-14.942725	-45.191741	-34.492293	-45.191741	-34.492293	-0.359443	-153.399813
7.850000	-0.515749	-17.365284	-45.125367	-34.242999	-45.125367	-34.242999	-0.364458	-154.350419
7.900000	-0.525393	-19.788051	-45.045499	-33.993166	-45.045499	-33.993166	-0.369532	-155.303644
7.950000	-0.535373	-22.211137	-44.954653	-33.750129	-44.954653	-33.750129	-0.374654	-156.259150
8.000000	-0.545775	-24.634830	-44.850757	-33.523740	-44.850757	-33.523740	-0.379836	-157.217530
8.050000	-0.556549	-27.059252	-44.736592	-33.317933	-44.736592	-33.317933	-0.385068	-158.178418
8.100000	-0.567759	-29.484777	-44.611417	-33.141802	-44.611417	-33.141802	-0.390357	-159.142230
8.150000	-0.579399	-31.911647	-44.476735	-32.999036	-44.476735	-32.999036	-0.395699	-160.108902
8.200000	-0.591486	-34.340210	-44.333426	-32.894185	-44.333426	-32.894185	-0.401096	-161.078532
8.250000	-0.604068	-36.770973	-44.181838	-32.833222	-44.181838	-32.833222	-0.406549	-162.051404
8.300000	-0.617110	-39.204095	-44.024107	-32.813775	-44.024107	-32.813775	-0.412053	-163.027254
8.350000	-0.630710	-41.640486	-43.859830	-32.844612	-43.859830	-32.844612	-0.417617	-164.006697
8.400000	-0.644834	-44.080334	-43.691089	-32.921092	-43.691089	-32.921092	-0.423235	-164.989454
8.450000	-0.659511	-46.524204	-43.518728	-33.043720	-43.518728	-33.043720	-0.428906	-165.975675
8.500000	-0.674814	-48.973118	-43.343266	-33.215300	-43.343266	-33.215300	-0.434637	-166.965775
8.550000	-0.690735	-51.427454	-43.166168	-33.430765	-43.166168	-33.430765	-0.440422	-167.959628
8.600000	-0.707295	-53.887844	-42.988410	-33.687239	-42.988410	-33.687239	-0.446263	-168.957318
8.650000	-0.724540	-56.355163	-42.810842	-33.982323	-42.810842	-33.982323	-0.452160	-169.959051
8.700000	-0.742546	-58.830731	-42.634372	-34.313445	-42.634372	-34.313445	-0.458117	-170.965214
8.750000	-0.761303	-61.314898	-42.460203	-34.672827	-42.460203	-34.672827	-0.464131	-171.975670
8.800000	-0.780855	-63.808572	-42.289347	-35.054449	-42.289347	-35.054449	-0.470203	-172.990591
8.850000	-0.801289	-66.313295	-42.123072	-35.451008	-42.123072	-35.451008	-0.476339	-174.010423
8.900000	-0.822664	-68.830221	-41.963001	-35.850601	-41.963001	-35.850601	-0.482541	-175.035429
8.950000	-0.845008	-71.360001	-41.810859	-36.238040	-41.810859	-36.238040	-0.488816	-176.065728
9.000000	-0.868396	-73.903816	-41.668962	-36.592333	-41.668962	-36.592333	-0.495177	-177.101746
9.050000	-0.893016	-76.464276	-41.541873	-36.870351	-41.541873	-36.870351	-0.501664	-178.144678
9.100000	-0.918941	-79.041876	-41.434352	-37.004111	-41.434352	-37.004111	-0.508348	-179.195244
9.150000	-0.946351	-81.637764	-41.352738	-36.859168	-41.352738	-36.859168	-0.515410	179.744893
9.200000	-0.975605	-84.253443	-41.301863	-36.124017	-41.301863	-36.124017	-0.523354	178.672542
9.250000	-1.007606	-86.889489	-41.233400	-33.806175	-41.233400	-33.806175	-0.534271	177.582423
9.300000	-1.043240	-89.532642	-40.747367	-28.781798	-40.747367	-28.781798	-0.553399	176.492365
9.350000	-1.077220	-92.142815	-39.026824	-28.881658	-39.026824	-28.881658	-0.577208	175.532175
9.400000	-1.100047	-94.837333	-38.562863	-37.476336	-38.562863	-37.476336	-0.573334	174.576336
9.450000	-1.133362	-97.608890	-38.770524	-41.055222	-38.770524	-41.055222	-0.569966	173.503901
9.500000	-1.172499	-100.396910	-38.884017	-42.302604	-38.884017	-42.302604	-0.572103	172.406731
9.550000	-1.215210	-103.208157	-38.900962	-42.726787	-38.900962	-42.726787	-0.576784	171.303875
9.600000	-1.261625	-106.048060	-38.857767	-42.712208	-38.857767	-42.712208	-0.582665	170.196806
9.650000	-1.312556	-108.918345	-38.770244	-42.309924	-38.770244	-42.309924	-0.589236	169.084678
9.700000	-1.369215	-111.816611	-38.636029	-41.453075	-38.636029	-41.453075	-0.596307	167.966586
9.750000	-1.433324	-114.734533	-38.431893	-40.012734	-38.431893	-40.012734	-0.603862	166.841749
9.800000	-1.507659	-117.650528	-38.092042	-37.817648	-38.092042	-37.817648	-0.612072	165.709222
9.850000	-1.594437	-120.511612	-37.490035	-34.939442	-37.490035	-34.939442	-0.621344	164.569226
9.900000	-1.690478	-123.194410	-36.409656	-32.382884	-36.409656	-32.382884	-0.632558	163.425659
9.950000	-1.760491	-125.505719	-34.761931	-33.556138	-34.761931	-33.556138	-0.646017	162.296569
10.000000	-1.708787	-127.687486	-33.252992	-42.332730	-33.252992	-42.332730	-0.656196	161.198330
