! freq	dB(S11)	phase(S11)	dB(S12)	phase(S12)	
!     	dB(S21)	phase(S21)	dB(S22)	phase(S22)	
!S-par simulation data
#  GHz  S  DB  R 50
0.000000	-84.672033	0.000000	-0.000507	0.000000	-0.000507	0.000000	-84.672033	0.000000
0.050000	-35.078670	-92.919183	-0.005748	-3.080520	-0.005748	-3.080520	-35.077336	-92.922156
0.100000	-29.069748	-96.119646	-0.016031	-6.124445	-0.016031	-6.124445	-29.068965	-96.124961
0.150000	-25.566889	-99.246256	-0.027683	-9.149497	-0.027683	-9.149497	-25.566955	-99.253175
0.200000	-23.094730	-102.342262	-0.041018	-12.167039	-0.041018	-12.167039	-23.095871	-102.350695
0.250000	-21.191010	-105.416248	-0.056553	-15.179234	-0.056553	-15.179234	-21.193203	-105.428034
0.300000	-19.650057	-108.477780	-0.074464	-18.185608	-0.074464	-18.185608	-19.652520	-108.496554
0.350000	-18.361459	-111.549990	-0.094796	-21.185163	-0.094796	-21.185163	-18.362208	-111.572597
0.400000	-17.252740	-114.650535	-0.117429	-24.177245	-0.117429	-24.177245	-17.251495	-114.658012
0.450000	-16.275732	-117.732231	-0.142358	-27.160831	-0.142358	-27.160831	-16.275769	-117.722617
0.500000	-15.406414	-120.754699	-0.169360	-30.135786	-0.169360	-30.135786	-15.408299	-120.745990
0.550000	-14.628587	-123.732171	-0.198314	-33.101754	-0.198314	-33.101754	-14.631044	-123.733090
0.600000	-13.927838	-126.683080	-0.229152	-36.058142	-0.229152	-36.058142	-13.929910	-126.694200
0.650000	-13.292447	-129.616882	-0.261833	-39.004083	-0.261833	-39.004083	-13.293805	-129.636860
0.700000	-12.711844	-132.538603	-0.296130	-41.939949	-0.296130	-41.939949	-12.712496	-132.566469
0.750000	-12.178555	-135.449953	-0.331939	-44.865480	-0.331939	-44.865480	-12.178622	-135.485060
0.800000	-11.687201	-138.351480	-0.369214	-47.779883	-0.369214	-47.779883	-11.686851	-138.393306
0.850000	-11.232720	-141.244031	-0.407807	-50.683176	-0.407807	-50.683176	-11.232117	-141.292069
0.900000	-10.811011	-144.128051	-0.447586	-53.575361	-0.447586	-53.575361	-10.810294	-144.181749
0.950000	-10.418837	-147.003610	-0.488443	-56.456282	-0.488443	-56.456282	-10.418115	-147.062366
1.000000	-10.053407	-149.870657	-0.530261	-59.325899	-0.530261	-59.325899	-10.052755	-149.933854
1.050000	-9.712327	-152.729016	-0.572925	-62.184227	-0.572925	-62.184227	-9.711786	-152.796061
1.100000	-9.393518	-155.578425	-0.616318	-65.031332	-0.616318	-65.031332	-9.393099	-155.648794
1.150000	-9.095153	-158.418583	-0.660329	-67.867333	-0.660329	-67.867333	-9.094846	-158.491847
1.200000	-8.815610	-161.249187	-0.704847	-70.692400	-0.704847	-70.692400	-8.815387	-161.325038
1.250000	-8.553436	-164.069971	-0.749764	-73.506748	-0.749764	-73.506748	-8.553259	-164.148222
1.300000	-8.307501	-166.880511	-0.794975	-76.310422	-0.794975	-76.310422	-8.307328	-166.961098
1.350000	-8.076420	-169.680915	-0.840377	-79.103961	-0.840377	-79.103961	-8.076211	-169.763879
1.400000	-7.859107	-172.471177	-0.885872	-81.887715	-0.885872	-81.887715	-7.858829	-172.556644
1.450000	-7.654570	-175.251399	-0.931371	-84.662066	-0.931371	-84.662066	-7.654198	-175.339555
1.500000	-7.461902	-178.021794	-0.976787	-87.427432	-0.976787	-87.427432	-7.461416	-178.112861
1.550000	-7.280267	179.217324	-1.022038	-90.184259	-1.022038	-90.184259	-7.279661	179.123108
1.600000	-7.108902	176.465545	-1.067048	-92.933021	-1.067048	-92.933021	-7.108175	176.367945
1.650000	-6.947105	173.722380	-1.111748	-95.674214	-1.111748	-95.674214	-6.946265	173.621180
1.700000	-6.794801	170.988009	-1.156007	-98.407710	-1.156007	-98.407710	-6.793860	170.883002
1.750000	-6.650295	168.260355	-1.199881	-101.135325	-1.199881	-101.135325	-6.649268	168.151402
1.800000	-6.513575	165.539482	-1.243264	-103.856986	-1.243264	-103.856986	-6.512480	165.426459
1.850000	-6.384145	162.824718	-1.286109	-106.573253	-1.286109	-106.573253	-6.383000	162.707534
1.900000	-6.261549	160.115378	-1.328372	-109.284696	-1.328372	-109.284696	-6.260369	159.993972
1.950000	-6.145365	157.410779	-1.370016	-111.991891	-1.370016	-111.991891	-6.144164	157.285111
2.000000	-6.035205	154.710243	-1.411009	-114.695418	-1.411009	-114.695418	-6.033996	154.580292
2.050000	-5.930713	152.013107	-1.451324	-117.395859	-1.451324	-117.395859	-5.929504	151.878861
2.100000	-5.831556	149.318726	-1.490941	-120.093794	-1.490941	-120.093794	-5.830353	149.180181
2.150000	-5.737425	146.626480	-1.529842	-122.789801	-1.529842	-122.789801	-5.736232	146.483632
2.200000	-5.648033	143.935772	-1.568016	-125.484452	-1.568016	-125.484452	-5.646850	143.788615
2.250000	-5.563113	141.246033	-1.605456	-128.178314	-1.605456	-128.178314	-5.561938	141.094554
2.300000	-5.482410	138.556720	-1.642161	-130.871942	-1.642161	-130.871942	-5.481242	138.400898
2.350000	-5.405688	135.867317	-1.678132	-133.565884	-1.678132	-133.565884	-5.404522	135.707121
2.400000	-5.332722	133.177332	-1.713375	-136.260672	-1.713375	-136.260672	-5.331553	133.012723
2.450000	-5.263299	130.486296	-1.747903	-138.956824	-1.747903	-138.956824	-5.262122	130.317227
2.500000	-5.197216	127.793764	-1.781728	-141.654843	-1.781728	-141.654843	-5.196028	127.620178
2.550000	-5.134391	125.099207	-1.814834	-144.355338	-1.814834	-144.355338	-5.133186	124.921040
2.600000	-5.074517	122.402287	-1.847279	-147.058688	-1.847279	-147.058688	-5.073293	122.219472
2.650000	-5.017420	119.702616	-1.879087	-149.765334	-1.879087	-149.765334	-5.016173	119.515084
2.700000	-4.962930	116.999823	-1.910285	-152.475692	-1.910285	-152.475692	-4.961659	116.807503
2.750000	-4.910888	114.293551	-1.940902	-155.190155	-1.940902	-155.190155	-4.909591	114.096375
2.800000	-4.861138	111.583457	-1.970966	-157.909089	-1.970966	-157.909089	-4.859816	111.381360
2.850000	-4.813535	108.869211	-2.000510	-160.632836	-2.000510	-160.632836	-4.812187	108.662129
2.900000	-4.767935	106.150495	-2.029564	-163.361709	-2.029564	-163.361709	-4.766564	105.938371
2.950000	-4.724204	103.427002	-2.058161	-166.095999	-2.058161	-166.095999	-4.722811	103.209786
3.000000	-4.682212	100.698437	-2.086330	-168.835968	-2.086330	-168.835968	-4.680800	100.476085
3.050000	-4.641838	97.964516	-2.114100	-171.581859	-2.114100	-171.581859	-4.640409	97.736992
3.100000	-4.602963	95.224966	-2.141499	-174.333894	-2.141499	-174.333894	-4.601520	94.992243
3.150000	-4.565476	92.479527	-2.168549	-177.092282	-2.168549	-177.092282	-4.564022	92.241584
3.200000	-4.529272	89.727946	-2.195274	-179.857220	-2.195274	-179.857220	-4.527810	89.484774
3.250000	-4.494251	86.969986	-2.221689	177.371094	-2.221689	177.371094	-4.492785	86.721582
3.300000	-4.460321	84.205419	-2.247811	174.592460	-2.247811	174.592460	-4.458853	83.951789
3.350000	-4.427393	81.434027	-2.273652	171.806668	-2.273652	171.806668	-4.425925	81.175185
3.400000	-4.395388	78.655605	-2.299223	169.013494	-2.299223	169.013494	-4.393922	78.391574
3.450000	-4.364228	75.869958	-2.324535	166.212693	-2.324535	166.212693	-4.362767	75.600768
3.500000	-4.333847	73.076901	-2.349598	163.404005	-2.349598	163.404005	-4.332391	72.802591
3.550000	-4.304180	70.276262	-2.374425	160.587153	-2.374425	160.587153	-4.302731	69.996875
3.600000	-4.275172	67.467876	-2.399033	157.761852	-2.399033	157.761852	-4.273730	67.183464
3.650000	-4.246773	64.651589	-2.423440	154.927816	-2.423440	154.927816	-4.245338	64.362208
3.700000	-4.218938	61.827252	-2.447668	152.084768	-2.447668	152.084768	-4.217511	61.532968
3.750000	-4.191631	58.994728	-2.471742	149.232447	-2.471742	149.232447	-4.190211	58.695608
3.800000	-4.164837	56.153513	-2.495682	146.370197	-2.495682	146.370197	-4.163423	55.849637
3.850000	-4.138515	53.303836	-2.519525	143.498221	-2.519525	143.498221	-4.137106	52.995283
3.900000	-4.112648	50.445569	-2.543295	140.616350	-2.543295	140.616350	-4.111243	50.132424
3.950000	-4.087226	47.578587	-2.567015	137.724447	-2.567015	137.724447	-4.085823	47.260939
4.000000	-4.062246	44.702762	-2.590702	134.822397	-2.590702	134.822397	-4.060843	44.380703
4.050000	-4.037711	41.817960	-2.614368	131.910104	-2.614368	131.910104	-4.036306	41.491588
4.100000	-4.013631	38.924043	-2.638019	128.987481	-2.638019	128.987481	-4.012224	38.593458
4.150000	-3.990025	36.020860	-2.661653	126.054443	-2.661653	126.054443	-3.988612	35.686167
4.200000	-3.966915	33.108248	-2.685260	123.110901	-2.685260	123.110901	-3.965495	32.769554
4.250000	-3.944333	30.186025	-2.708823	120.156747	-2.708823	120.156747	-3.942905	29.843441
4.300000	-3.922318	27.253990	-2.732318	117.191853	-2.732318	117.191853	-3.920879	26.907628
4.350000	-3.900914	24.311913	-2.755712	114.216060	-2.755712	114.216060	-3.899464	23.961889
4.400000	-3.880176	21.359535	-2.778965	111.229171	-2.778965	111.229171	-3.878712	21.005969
4.450000	-3.860162	18.396560	-2.802030	108.230945	-2.802030	108.230945	-3.858684	18.039573
4.500000	-3.840942	15.422652	-2.824851	105.221092	-2.824851	105.221092	-3.839448	15.062367
4.550000	-3.822590	12.437422	-2.847367	102.199263	-2.847367	102.199263	-3.821080	12.073965
4.600000	-3.805190	9.440432	-2.869509	99.165042	-2.869509	99.165042	-3.803664	9.073930
4.650000	-3.788836	6.431175	-2.891200	96.117944	-2.891200	96.117944	-3.787293	6.061759
4.700000	-3.773627	3.409075	-2.912357	93.057402	-2.912357	93.057402	-3.772068	3.036878
4.750000	-3.759675	0.373477	-2.932890	89.982759	-2.932890	89.982759	-3.758099	-0.001369
4.800000	-3.747100	-2.676368	-2.952703	86.893261	-2.952703	86.893261	-3.745507	-3.053727
4.850000	-3.736031	-5.741310	-2.971693	83.788044	-2.971693	83.788044	-3.734423	-6.121045
4.900000	-3.726611	-8.822316	-2.989750	80.666121	-2.989750	80.666121	-3.724988	-9.204287
4.950000	-3.718992	-11.920481	-3.006757	77.526374	-3.006757	77.526374	-3.717356	-12.304547
5.000000	-3.713343	-15.037045	-3.022594	74.367532	-3.022594	74.367532	-3.711694	-15.423064
5.050000	-3.710038	-18.175196	-3.037010	71.186315	-3.037010	71.186315	-3.708378	-18.563010
5.100000	-3.708877	-21.332898	-3.050119	67.984858	-3.050119	67.984858	-3.707208	-21.722373
5.150000	-3.710454	-24.515407	-3.061547	64.757756	-3.061547	64.757756	-3.708775	-24.906385
5.200000	-3.714743	-27.722448	-3.071312	61.505331	-3.071312	61.505331	-3.713057	-28.114782
5.250000	-3.722113	-30.957375	-3.079199	58.224177	-3.079199	58.224177	-3.720422	-31.350910
5.300000	-3.732908	-34.223406	-3.085019	54.911046	-3.085019	54.911046	-3.731213	-34.617979
5.350000	-3.747162	-37.521044	-3.088789	51.565501	-3.088789	51.565501	-3.745463	-37.916503
5.400000	-3.765731	-40.858511	-3.090053	48.179225	-3.090053	48.179225	-3.764029	-41.254677
5.450000	-3.788264	-44.232922	-3.089086	44.755289	-3.089086	44.755289	-3.786560	-44.629640
5.500000	-3.816050	-47.657097	-3.085260	41.280816	-3.085260	41.280816	-3.814344	-48.054172
5.550000	-3.848694	-51.127918	-3.078912	37.759172	-3.078912	37.759172	-3.846986	-51.525179
5.600000	-3.887309	-54.657302	-3.069619	34.178593	-3.069619	34.178593	-3.885599	-55.054550
5.650000	-3.932110	-58.248525	-3.057470	30.536126	-3.057470	30.536126	-3.930395	-58.645560
5.700000	-3.983697	-61.909293	-3.042425	26.824510	-3.042425	26.824510	-3.981977	-62.305906
5.750000	-4.043139	-65.653006	-3.024327	23.031041	-3.024327	23.031041	-4.041410	-66.048958
5.800000	-4.110281	-69.480149	-3.003594	19.155957	-3.003594	19.155957	-4.108540	-69.875213
5.850000	-4.187339	-73.420209	-2.979924	15.171599	-2.979924	15.171599	-4.185581	-73.814092
5.900000	-4.273460	-77.466845	-2.954123	11.085390	-2.954123	11.085390	-4.271680	-77.859282
5.950000	-4.371160	-81.659761	-2.926305	6.861532	-2.926305	6.861532	-4.369350	-82.050401
6.000000	-4.479693	-85.996693	-2.897433	2.504546	-2.897433	2.504546	-4.477846	-86.385204
6.050000	-4.601148	-90.523354	-2.868434	-2.024030	-2.868434	-2.024030	-4.599255	-90.909312
6.100000	-4.735728	-95.265658	-2.840880	-6.742233	-2.840880	-6.742233	-4.733779	-95.648596
6.150000	-4.883899	-100.268879	-2.817015	-11.682238	-2.817015	-11.682238	-4.881883	-100.648256
6.200000	-5.045085	-105.578496	-2.799793	-16.872241	-2.799793	-16.872241	-5.042993	-105.953701
6.250000	-5.218179	-111.267755	-2.793664	-22.357154	-2.793664	-22.357154	-5.216004	-111.638069
6.300000	-5.400280	-117.451221	-2.805951	-28.202541	-2.805951	-28.202541	-5.398021	-117.815775
6.350000	-5.585233	-124.248826	-2.846156	-34.462836	-2.846156	-34.462836	-5.582904	-124.606647
6.400000	-5.763549	-131.820341	-2.927793	-41.202503	-2.927793	-41.202503	-5.761187	-132.170370
6.450000	-5.917548	-140.486585	-3.078046	-48.549991	-3.078046	-48.549991	-5.915235	-140.827634
6.500000	-6.022000	-150.604376	-3.335609	-56.598348	-3.335609	-56.598348	-6.019890	-150.935411
6.550000	-6.041460	-162.696326	-3.768578	-65.434193	-3.768578	-65.434193	-6.039807	-163.016839
6.600000	-5.932276	-177.477267	-4.502038	-75.016356	-4.502038	-75.016356	-5.931465	-177.788103
6.650000	-5.666578	164.386707	-5.743041	-84.744936	-5.743041	-84.744936	-5.667058	164.082147
6.700000	-5.263525	142.523549	-7.803493	-92.191264	-7.803493	-92.191264	-5.265639	142.218207
6.750000	-4.825097	117.717207	-10.663477	-90.028585	-10.663477	-90.028585	-4.828827	117.401420
6.800000	-4.471425	92.175885	-12.041511	-71.686860	-12.041511	-71.686860	-4.476326	91.841381
6.850000	-4.224050	68.520547	-10.323976	-59.815590	-10.323976	-59.815590	-4.229447	68.164221
6.900000	-4.010754	48.190932	-8.512663	-62.106846	-8.512663	-62.106846	-4.016041	47.814586
6.950000	-3.768737	31.254315	-7.472951	-69.755603	-7.472951	-69.755603	-3.773530	30.861884
7.000000	-3.484524	17.078025	-7.012844	-78.706592	-7.012844	-78.706592	-3.488666	16.673433
7.050000	-3.173890	4.978545	-6.929431	-87.698052	-6.929431	-87.698052	-3.177369	4.564951
7.100000	-2.858929	-5.584573	-7.096160	-96.345968	-7.096160	-96.345968	-2.861803	-6.004842
7.150000	-2.557502	-14.992150	-7.437010	-104.544034	-7.437010	-104.544034	-2.559858	-15.417423
7.200000	-2.280959	-23.499092	-7.904863	-112.274550	-7.904863	-112.274550	-2.282885	-23.928167
7.250000	-2.035024	-31.279225	-8.468273	-119.550421	-8.468273	-119.550421	-2.036603	-31.711224
7.300000	-1.820333	-38.475229	-9.104489	-126.411509	-9.104489	-126.411509	-1.821632	-38.909516
7.350000	-1.636233	-45.165296	-9.799264	-132.880210	-9.799264	-132.880210	-1.637310	-45.601375
7.400000	-1.480436	-51.417774	-10.540968	-138.986393	-10.540968	-138.986393	-1.481336	-51.855259
7.450000	-1.349102	-57.301877	-11.322643	-144.773075	-11.322643	-144.773075	-1.349861	-57.740474
7.500000	-1.240267	-62.844367	-12.136424	-150.253170	-12.136424	-150.253170	-1.240912	-63.283827
7.550000	-1.149728	-68.104010	-12.981008	-155.473047	-12.981008	-155.473047	-1.150280	-68.544146
7.600000	-1.075290	-73.105705	-13.852787	-160.451551	-13.852787	-160.451551	-1.075764	-73.546359
7.650000	-1.014409	-77.880939	-14.751057	-165.215574	-14.751057	-165.215574	-1.014815	-78.321986
7.700000	-0.964745	-82.460206	-15.677904	-169.792708	-15.677904	-169.792708	-0.965090	-82.901545
7.750000	-0.924990	-86.857352	-16.631179	-174.195741	-16.631179	-174.195741	-0.925279	-87.298898
7.800000	-0.893442	-91.095752	-17.614011	-178.447490	-17.614011	-178.447490	-0.893676	-91.537433
7.850000	-0.868209	-95.206230	-18.638276	177.421546	-18.638276	177.421546	-0.868388	-95.647991
7.900000	-0.849207	-99.184124	-19.696354	173.413482	-19.696354	173.413482	-0.849330	-99.625910
7.950000	-0.834629	-103.063563	-20.810376	169.493772	-20.810376	169.493772	-0.834694	-103.505333
8.000000	-0.824589	-106.837460	-21.972190	165.663454	-21.972190	165.663454	-0.824593	-107.279167
8.050000	-0.817792	-110.532928	-23.209991	161.893131	-23.209991	161.893131	-0.817731	-110.974534
8.100000	-0.814105	-114.150500	-24.529000	158.171677	-24.529000	158.171677	-0.813975	-114.591961
8.150000	-0.812932	-117.703221	-25.956990	154.475863	-25.956990	154.475863	-0.812728	-118.144494
8.200000	-0.813911	-121.199088	-27.526333	150.778216	-27.526333	150.778216	-0.813628	-121.640128
8.250000	-0.816852	-124.642249	-29.275676	147.036534	-29.275676	147.036534	-0.816484	-125.083000
8.300000	-0.821296	-128.044666	-31.295865	143.193617	-31.295865	143.193617	-0.820840	-128.485075
8.350000	-0.827283	-131.405338	-33.683509	139.078149	-33.683509	139.078149	-0.826731	-131.845331
8.400000	-0.834371	-134.736608	-36.717221	134.449956	-36.717221	134.449956	-0.833718	-135.176116
8.450000	-0.842600	-138.038229	-40.918904	127.933880	-40.918904	127.933880	-0.841840	-138.477159
8.500000	-0.851700	-141.318252	-48.223403	112.954587	-48.223403	112.954587	-0.850827	-141.756510
8.550000	-0.861622	-144.579248	-54.479375	7.980264	-54.479375	7.980264	-0.860629	-145.016719
8.600000	-0.872251	-147.825449	-44.687744	-40.579887	-44.687744	-40.579887	-0.871132	-148.262004
8.650000	-0.883476	-151.060952	-40.033341	-49.577070	-40.033341	-49.577070	-0.882225	-151.496451
8.700000	-0.895276	-154.288247	-37.188921	-54.642089	-37.188921	-54.642089	-0.893886	-154.722515
8.750000	-0.907511	-157.511368	-35.167777	-58.837008	-35.167777	-58.837008	-0.905976	-157.944238
8.800000	-0.920212	-160.732710	-33.643915	-62.570488	-33.643915	-62.570488	-0.918525	-161.163948
8.850000	-0.933249	-163.955190	-32.422704	-66.118675	-32.422704	-66.118675	-0.931403	-164.384583
8.900000	-0.946635	-167.181935	-31.425632	-69.540597	-31.425632	-69.540597	-0.944622	-167.609198
8.950000	-0.960297	-170.414882	-30.585354	-72.897587	-30.585354	-72.897587	-0.958110	-170.839730
9.000000	-0.974212	-173.656530	-29.866182	-76.215997	-29.866182	-76.215997	-0.971842	-174.078638
9.050000	-0.988352	-176.909118	-29.241582	-79.515637	-29.241582	-79.515637	-0.985791	-177.328126
9.100000	-1.002696	179.825196	-28.692199	-82.811329	-28.692199	-82.811329	-0.999936	179.409689
9.150000	-1.017228	176.544319	-28.203364	-86.115133	-28.203364	-86.115133	-1.014258	176.132758
9.200000	-1.031938	173.246206	-27.763572	-89.437620	-27.763572	-89.437620	-1.028748	172.839081
9.250000	-1.046823	169.928834	-27.363490	-92.788658	-27.363490	-92.788658	-1.043401	169.526687
9.300000	-1.061890	166.590187	-26.995300	-96.177928	-26.995300	-96.177928	-1.058221	166.193617
9.350000	-1.077154	163.228225	-26.652222	-99.615311	-26.652222	-99.615311	-1.073224	162.837891
9.400000	-1.092654	159.839904	-26.328221	-103.113587	-26.328221	-103.113587	-1.088444	159.456561
9.450000	-1.108444	156.422821	-26.017157	-106.685044	-26.017157	-106.685044	-1.103933	156.047306
9.500000	-1.124590	152.975516	-25.713250	-110.339934	-25.713250	-110.339934	-1.119753	152.608724
9.550000	-1.141195	149.495451	-25.410838	-114.091814	-25.410838	-114.091814	-1.136003	149.138370
9.600000	-1.158404	145.979826	-25.103953	-117.955717	-25.103953	-117.955717	-1.152823	145.633543
9.650000	-1.176346	142.428188	-24.788058	-121.938971	-24.788058	-121.938971	-1.170337	142.093820
9.700000	-1.195394	138.832047	-24.452601	-126.077113	-24.452601	-126.077113	-1.188907	138.510990
9.750000	-1.215832	135.190210	-24.091368	-130.380896	-24.091368	-130.380896	-1.208807	134.883908
9.800000	-1.238305	131.494025	-23.689867	-134.888610	-23.689867	-134.888610	-1.230666	131.204203
9.850000	-1.263252	127.743546	-23.242358	-139.605288	-23.242358	-139.605288	-1.254917	127.471923
9.900000	-1.291847	123.926574	-22.726820	-144.582948	-22.726820	-144.582948	-1.282705	123.675246
9.950000	-1.325328	120.036857	-22.125010	-149.851770	-22.125010	-149.851770	-1.315252	119.808099
10.000000	-1.365008	116.069853	-21.423096	-155.436578	-21.423096	-155.436578	-1.353854	115.866066
