! freq	dB(S11)	phase(S11)	dB(S12)	phase(S12)	
!     	dB(S21)	phase(S21)	dB(S22)	phase(S22)	
!S-par simulation data
#  GHz  S  DB  R 50
0.000000	-0.000000	0.000000	-396.104415	180.000000	-396.104415	180.000000	0.000000	-0.000000
0.050000	-0.000100	-0.759055	-117.874864	83.902885	-117.874864	83.902885	-0.000100	-0.759047
0.100000	-0.000397	-1.517860	-112.483146	83.387850	-112.483146	83.387850	-0.000397	-1.517846
0.150000	-0.000882	-2.276169	-109.312394	83.743405	-109.312394	83.743405	-0.000881	-2.276150
0.200000	-0.001523	-3.033838	-107.067453	83.958668	-107.067453	83.958668	-0.001520	-3.033815
0.250000	-0.002302	-3.790704	-105.369198	84.011958	-105.369198	84.011958	-0.002299	-3.790679
0.300000	-0.003206	-4.546572	-104.054100	83.981874	-104.054100	83.981874	-0.003202	-4.546546
0.350000	-0.004191	-5.301540	-103.008499	83.951797	-103.008499	83.951797	-0.004186	-5.301516
0.400000	-0.005246	-6.055446	-102.192459	83.982862	-102.192459	83.982862	-0.005240	-6.055424
0.450000	-0.006345	-6.808382	-101.560104	84.129659	-101.560104	84.129659	-0.006339	-6.808363
0.500000	-0.007472	-7.560331	-101.094488	84.459003	-101.094488	84.459003	-0.007467	-7.560316
0.550000	-0.008615	-8.311336	-100.781165	85.045832	-100.781165	85.045832	-0.008609	-8.311324
0.600000	-0.009762	-9.061438	-100.612560	85.987254	-100.612560	85.987254	-0.009756	-9.061429
0.650000	-0.010905	-9.810681	-100.585026	87.414329	-100.585026	87.414329	-0.010900	-9.810674
0.700000	-0.012039	-10.559104	-100.696698	89.510043	-100.696698	89.510043	-0.012034	-10.559099
0.750000	-0.013161	-11.306743	-100.943935	92.534679	-100.943935	92.534679	-0.013157	-11.306740
0.800000	-0.014269	-12.053628	-101.314129	96.857092	-101.314129	96.857092	-0.014264	-12.053626
0.850000	-0.015358	-12.799661	-101.749558	103.456298	-101.749558	103.456298	-0.015355	-12.799659
0.900000	-0.016432	-13.544951	-102.176555	112.544150	-102.176555	112.544150	-0.016429	-13.544948
0.950000	-0.017499	-14.289879	-102.431813	122.858286	-102.431813	122.858286	-0.017496	-14.289874
1.000000	-0.018543	-15.033718	-102.121445	136.851272	-102.121445	136.851272	-0.018541	-15.033712
1.050000	-0.019584	-15.777316	-101.587651	150.514261	-101.587651	150.514261	-0.019582	-15.777309
1.100000	-0.020604	-16.519712	-100.057869	162.527268	-100.057869	162.527268	-0.020602	-16.519702
1.150000	-0.021622	-17.261985	-98.678096	174.082208	-98.678096	174.082208	-0.021621	-17.261972
1.200000	-0.022622	-18.002913	-96.760070	-179.401591	-96.760070	-179.401591	-0.022621	-18.002898
1.250000	-0.023623	-18.743841	-95.189920	-172.885390	-95.189920	-172.885390	-0.023622	-18.743823
1.300000	-0.024612	-19.483643	-93.520959	-169.232862	-93.520959	-169.232862	-0.024611	-19.483623
1.350000	-0.025594	-20.222709	-91.955354	-166.733076	-91.955354	-166.733076	-0.025594	-20.222685
1.400000	-0.026572	-20.961025	-90.491936	-165.070412	-90.491936	-165.070412	-0.026571	-20.960999
1.450000	-0.027545	-21.698578	-89.123193	-164.025036	-89.123193	-164.025036	-0.027544	-21.698549
1.500000	-0.028514	-22.435352	-87.839877	-163.443212	-87.839877	-163.443212	-0.028513	-22.435320
1.550000	-0.029480	-23.171333	-86.632881	-163.216007	-86.632881	-163.216007	-0.029479	-23.171298
1.600000	-0.030443	-23.906505	-85.493921	-163.264932	-85.493921	-163.264932	-0.030443	-23.906468
1.650000	-0.031404	-24.640852	-84.415711	-163.532420	-84.415711	-163.532420	-0.031404	-24.640813
1.700000	-0.032363	-25.374060	-83.368881	-164.021510	-83.368881	-164.021510	-0.032363	-25.374018
1.750000	-0.033322	-26.106825	-82.404245	-164.590340	-82.404245	-164.590340	-0.033322	-26.106780
1.800000	-0.034279	-26.838520	-81.469679	-165.293001	-81.469679	-165.293001	-0.034279	-26.838473
1.850000	-0.035237	-27.569453	-80.583183	-166.091255	-80.583183	-166.091255	-0.035236	-27.569403
1.900000	-0.036194	-28.299435	-79.730244	-166.969305	-79.730244	-166.969305	-0.036194	-28.299384
1.950000	-0.037151	-29.028468	-78.909420	-167.927151	-78.909420	-167.927151	-0.037151	-29.028415
2.000000	-0.038109	-29.756683	-78.124464	-168.933034	-78.124464	-168.933034	-0.038109	-29.756626
2.050000	-0.039068	-30.483750	-77.359650	-170.006171	-77.359650	-170.006171	-0.039068	-30.483692
2.100000	-0.040028	-31.210141	-76.632233	-171.107934	-76.632233	-171.107934	-0.040028	-31.210081
2.150000	-0.040989	-31.935179	-75.915826	-172.266952	-75.915826	-172.266952	-0.040989	-31.935117
2.200000	-0.041952	-32.659694	-75.237792	-173.442370	-75.237792	-173.442370	-0.041952	-32.659629
2.250000	-0.042918	-33.382639	-74.563713	-174.666989	-74.563713	-174.666989	-0.042918	-33.382572
2.300000	-0.043885	-34.105225	-73.928571	-175.900135	-73.928571	-175.900135	-0.043885	-34.105157
2.350000	-0.044856	-34.826018	-73.291883	-177.175914	-73.291883	-177.175914	-0.044856	-34.825947
2.400000	-0.045828	-35.546626	-72.694384	-178.455076	-72.694384	-178.455076	-0.045828	-35.546553
2.450000	-0.046806	-36.265206	-72.091017	-179.771445	-72.091017	-179.771445	-0.046806	-36.265132
2.500000	-0.047784	-36.983787	-71.526855	178.912187	-71.526855	178.912187	-0.047784	-36.983711
2.550000	-0.048770	-37.700100	-70.953414	177.563150	-70.953414	177.563150	-0.048770	-37.700021
2.600000	-0.049757	-38.416413	-70.415498	176.214114	-70.415498	176.214114	-0.049756	-38.416332
2.650000	-0.050751	-39.130597	-69.872625	174.840688	-69.872625	174.840688	-0.050751	-39.130515
2.700000	-0.051747	-39.844588	-69.358587	173.465044	-69.358587	173.465044	-0.051747	-39.844504
2.750000	-0.052752	-40.556602	-68.843193	172.071162	-68.843193	172.071162	-0.052752	-40.556515
2.800000	-0.053759	-41.268219	-68.350997	170.673633	-68.350997	170.673633	-0.053758	-41.268131
2.850000	-0.054774	-41.978019	-67.860454	169.262491	-67.860454	169.262491	-0.054774	-41.977929
2.900000	-0.055793	-42.687214	-67.388334	167.846813	-67.388334	167.846813	-0.055793	-42.687121
2.950000	-0.056822	-43.394762	-66.920386	166.421035	-66.920386	166.421035	-0.056821	-43.394667
3.000000	-0.057854	-44.101487	-66.466798	164.990207	-66.466798	164.990207	-0.057854	-44.101390
3.050000	-0.058896	-44.806745	-66.019495	163.551966	-66.019495	163.551966	-0.058896	-44.806646
3.100000	-0.059944	-45.510955	-65.583080	162.108429	-65.583080	162.108429	-0.059944	-45.510854
3.150000	-0.061001	-46.213888	-65.154719	160.659539	-65.154719	160.659539	-0.061001	-46.213785
3.200000	-0.062066	-46.915542	-64.734273	159.205297	-64.734273	159.205297	-0.062066	-46.915437
3.250000	-0.063138	-47.616115	-64.323363	157.747289	-64.323363	157.747289	-0.063138	-47.616008
3.300000	-0.064222	-48.315174	-63.917813	156.284008	-63.917813	156.284008	-0.064222	-48.315064
3.350000	-0.065312	-49.013355	-63.523037	154.818180	-63.523037	154.818180	-0.065312	-49.013244
3.400000	-0.066415	-49.709782	-63.131423	153.347257	-63.131423	153.347257	-0.066415	-49.709668
3.450000	-0.067524	-50.405543	-62.751611	151.874718	-62.751611	151.874718	-0.067524	-50.405427
3.500000	-0.068649	-51.099303	-62.373070	150.397332	-62.373070	150.397332	-0.068649	-51.099185
3.550000	-0.069777	-51.792614	-62.007180	148.919036	-62.007180	148.919036	-0.069777	-51.792494
3.600000	-0.070925	-52.483678	-61.640929	147.436192	-61.640929	147.436192	-0.070925	-52.483555
3.650000	-0.072076	-53.174514	-61.288027	145.952966	-61.288027	145.952966	-0.072076	-53.174389
3.700000	-0.073248	-53.862852	-60.933358	144.465525	-60.933358	144.465525	-0.073248	-53.862725
3.750000	-0.074421	-54.551189	-60.592604	142.978085	-60.592604	142.978085	-0.074421	-54.551060
3.800000	-0.075620	-55.236775	-60.248870	141.486790	-60.248870	141.486790	-0.075620	-55.236644
3.850000	-0.076819	-55.922361	-59.918223	139.995496	-59.918223	139.995496	-0.076819	-55.922227
3.900000	-0.078044	-56.605403	-59.586118	138.501259	-59.586118	138.501259	-0.078044	-56.605267
3.950000	-0.079271	-57.288214	-59.265055	137.006755	-59.265055	137.006755	-0.079271	-57.288076
4.000000	-0.080523	-57.968697	-58.943870	135.510044	-58.943870	135.510044	-0.080523	-57.968556
4.050000	-0.081779	-58.648713	-58.631910	134.012892	-58.631910	134.012892	-0.081779	-58.648570
4.100000	-0.083059	-59.326620	-58.321005	132.514122	-58.321005	132.514122	-0.083059	-59.326475
4.150000	-0.084347	-60.003824	-58.017704	131.014813	-58.017704	131.014813	-0.084347	-60.003677
4.200000	-0.085656	-60.679143	-57.716492	129.514355	-57.716492	129.514355	-0.085656	-60.678994
4.250000	-0.086977	-61.353520	-57.421441	128.013323	-57.421441	128.013323	-0.086977	-61.353369
4.300000	-0.088318	-62.026241	-57.129385	126.511507	-57.129385	126.511507	-0.088318	-62.026088
4.350000	-0.089673	-62.697779	-56.842203	125.009133	-56.842203	125.009133	-0.089673	-62.697623
4.400000	-0.091046	-63.367893	-56.558812	123.506258	-56.558812	123.506258	-0.091046	-63.367735
4.450000	-0.092437	-64.036582	-56.279146	122.002881	-56.279146	122.002881	-0.092437	-64.036422
4.500000	-0.093844	-64.704082	-56.003966	120.499211	-56.003966	120.499211	-0.093844	-64.703920
4.550000	-0.095272	-65.369917	-55.731488	118.995133	-55.731488	118.995133	-0.095272	-65.369753
4.600000	-0.096714	-66.034799	-55.464103	117.490911	-55.464103	117.490911	-0.096714	-66.034633
4.650000	-0.098182	-66.697775	-55.198506	115.986401	-55.198506	115.986401	-0.098182	-66.697607
4.700000	-0.099661	-67.360037	-54.938530	114.481844	-54.938530	114.481844	-0.099661	-67.359866
4.750000	-0.101170	-68.020153	-54.679528	112.977144	-54.679528	112.977144	-0.101170	-68.019981
4.800000	-0.102686	-68.679793	-54.426604	111.472449	-54.426604	111.472449	-0.102686	-68.679619
4.850000	-0.104238	-69.337051	-54.173929	109.967776	-54.173929	109.967776	-0.104238	-69.336874
4.900000	-0.105794	-69.994071	-53.927725	108.463123	-53.927725	108.463123	-0.105794	-69.993892
4.950000	-0.107390	-70.648474	-53.681127	106.958674	-53.681127	106.958674	-0.107390	-70.648294
5.000000	-0.108986	-71.302877	-53.441336	105.454226	-53.441336	105.454226	-0.108986	-71.302695
5.050000	-0.110628	-71.954432	-53.200578	103.950180	-53.200578	103.950180	-0.110628	-71.954248
5.100000	-0.112271	-72.605987	-52.966314	102.446134	-52.966314	102.446134	-0.112271	-72.605802
5.150000	-0.113957	-73.254940	-52.731775	100.942605	-52.731775	100.942605	-0.113956	-73.254752
5.200000	-0.115647	-73.903656	-52.502834	99.439123	-52.502834	99.439123	-0.115647	-73.903467
5.250000	-0.117378	-74.550016	-52.274241	97.936236	-52.274241	97.936236	-0.117377	-74.549824
5.300000	-0.119117	-75.195904	-52.050433	96.433467	-52.050433	96.433467	-0.119117	-75.195711
5.350000	-0.120894	-75.839681	-51.827531	94.931335	-51.827531	94.931335	-0.120894	-75.839486
5.400000	-0.122685	-76.482755	-51.608674	93.429415	-51.608674	93.429415	-0.122685	-76.482559
5.450000	-0.124510	-77.123964	-51.391224	91.928145	-51.391224	91.928145	-0.124510	-77.123766
5.500000	-0.126353	-77.764240	-51.177149	90.427200	-51.177149	90.427200	-0.126353	-77.764040
5.550000	-0.128228	-78.402894	-50.964928	88.926891	-50.964928	88.926891	-0.128228	-78.402693
5.600000	-0.130125	-79.040390	-50.755472	87.427037	-50.755472	87.427037	-0.130125	-79.040187
5.650000	-0.132051	-79.676507	-50.548270	85.927782	-50.548270	85.927782	-0.132051	-79.676302
5.700000	-0.134005	-80.311243	-50.343281	84.429126	-50.343281	84.429126	-0.134005	-80.311037
5.750000	-0.135982	-80.944840	-50.140900	82.931011	-50.140900	82.931011	-0.135982	-80.944632
5.800000	-0.137994	-81.576840	-49.940232	81.433655	-49.940232	81.433655	-0.137994	-81.576631
5.850000	-0.140025	-82.207936	-49.742488	79.936763	-49.742488	79.936763	-0.140025	-82.207725
5.900000	-0.142096	-82.837224	-49.546002	78.440799	-49.546002	78.440799	-0.142096	-82.837012
5.950000	-0.144182	-83.465841	-49.352719	76.945207	-49.352719	76.945207	-0.144182	-83.465628
6.000000	-0.146314	-84.092444	-49.160286	75.450725	-49.160286	75.450725	-0.146314	-84.092229
6.050000	-0.148457	-84.718604	-48.971299	73.956504	-48.971299	73.956504	-0.148457	-84.718388
6.100000	-0.150651	-85.342551	-48.782791	72.463587	-48.782791	72.463587	-0.150651	-85.342334
6.150000	-0.152852	-85.966279	-48.597944	70.970807	-48.597944	70.970807	-0.152852	-85.966061
6.200000	-0.155111	-86.587600	-48.413244	69.479532	-48.413244	69.479532	-0.155111	-86.587381
6.250000	-0.157371	-87.208921	-48.232390	67.988257	-48.232390	67.988257	-0.157371	-87.208701
6.300000	-0.159696	-87.827649	-48.051382	66.498699	-48.051382	66.498699	-0.159696	-87.827428
6.350000	-0.162022	-88.446378	-47.874070	65.009140	-47.874070	65.009140	-0.162023	-88.446155
6.400000	-0.164410	-89.062761	-47.696957	63.521216	-47.696957	63.521216	-0.164410	-89.062537
6.450000	-0.166804	-89.678930	-47.523084	62.033442	-47.523084	62.033442	-0.166804	-89.678706
6.500000	-0.169255	-90.292998	-47.349730	60.547208	-47.349730	60.547208	-0.169256	-90.292773
6.550000	-0.171719	-90.906646	-47.179200	59.061282	-47.179200	59.061282	-0.171719	-90.906420
6.600000	-0.174236	-91.518430	-47.009476	57.576788	-47.009476	57.576788	-0.174236	-91.518203
6.650000	-0.176770	-92.129594	-46.842195	56.092771	-46.842195	56.092771	-0.176770	-92.129366
6.700000	-0.179353	-92.739128	-46.675979	54.610064	-46.675979	54.610064	-0.179353	-92.738899
6.750000	-0.181961	-93.347846	-46.511855	53.128011	-46.511855	53.128011	-0.181961	-93.347617
6.800000	-0.184612	-93.955164	-46.349031	51.647133	-46.349031	51.647133	-0.184612	-93.954934
6.850000	-0.187294	-94.561479	-46.187978	50.167095	-46.187978	50.167095	-0.187294	-94.561249
6.900000	-0.190014	-95.166615	-46.028434	48.688087	-46.028434	48.688087	-0.190014	-95.166385
6.950000	-0.192772	-95.770571	-45.870369	47.210109	-45.870369	47.210109	-0.192772	-95.770340
7.000000	-0.195563	-96.373562	-45.713998	45.733006	-45.713998	45.733006	-0.195563	-96.373330
7.050000	-0.198399	-96.975202	-45.558839	44.257129	-45.558839	44.257129	-0.198399	-96.974970
7.100000	-0.201261	-97.576086	-45.405541	42.781963	-45.405541	42.781963	-0.201262	-97.575854
7.150000	-0.204177	-98.175456	-45.253210	41.308221	-45.253210	41.308221	-0.204177	-98.175224
7.200000	-0.207113	-98.774271	-45.102888	39.835020	-45.102888	39.835020	-0.207113	-98.774039
7.250000	-0.210109	-99.371420	-44.953308	38.363442	-44.953308	38.363442	-0.210109	-99.371188
7.300000	-0.213119	-99.968207	-44.805869	36.892227	-44.805869	36.892227	-0.213120	-99.967975
7.350000	-0.216198	-100.563182	-44.658967	35.422835	-44.658967	35.422835	-0.216198	-100.562951
7.400000	-0.219284	-101.157981	-44.514322	33.953625	-44.514322	33.953625	-0.219285	-101.157750
7.450000	-0.222447	-101.750835	-44.370027	32.486432	-44.370027	32.486432	-0.222448	-101.750604
7.500000	-0.225611	-102.343688	-44.228090	31.019240	-44.228090	31.019240	-0.225611	-102.343457
7.550000	-0.228859	-102.934471	-44.086333	29.554254	-44.086333	29.554254	-0.228859	-102.934241
7.600000	-0.232108	-103.525254	-43.946852	28.089269	-43.946852	28.089269	-0.232109	-103.525024
7.650000	-0.235436	-104.114187	-43.807736	26.626306	-43.807736	26.626306	-0.235437	-104.113959
7.700000	-0.238772	-104.702953	-43.670648	25.163526	-43.670648	25.163526	-0.238773	-104.702725
7.750000	-0.242181	-105.290083	-43.534093	23.702577	-43.534093	23.702577	-0.242182	-105.289856
7.800000	-0.245606	-105.876886	-43.399337	22.241993	-43.399337	22.241993	-0.245607	-105.876660
7.850000	-0.249097	-106.462259	-43.265265	20.783041	-43.265265	20.783041	-0.249098	-106.462033
7.900000	-0.252612	-107.047155	-43.132780	19.324634	-43.132780	19.324634	-0.252612	-107.046931
7.950000	-0.256187	-107.630818	-43.001119	17.867657	-43.001119	17.867657	-0.256187	-107.630595
8.000000	-0.259792	-108.213865	-42.870847	16.411396	-42.870847	16.411396	-0.259793	-108.213643
8.050000	-0.263452	-108.795867	-42.741524	14.956364	-42.741524	14.956364	-0.263453	-108.795647
8.100000	-0.267150	-109.377123	-42.613411	13.502209	-42.613411	13.502209	-0.267151	-109.376904
8.150000	-0.270895	-109.957513	-42.486358	12.049082	-42.486358	12.049082	-0.270896	-109.957296
8.200000	-0.274687	-110.537037	-42.360348	10.596982	-42.360348	10.596982	-0.274688	-110.536822
8.250000	-0.278520	-111.115866	-42.235501	9.145712	-42.235501	9.145712	-0.278520	-111.115653
8.300000	-0.282407	-111.693721	-42.111542	7.695604	-42.111542	7.695604	-0.282408	-111.693510
8.350000	-0.286327	-112.271040	-41.988838	6.246135	-41.988838	6.246135	-0.286328	-112.270831
8.400000	-0.290310	-112.847287	-41.866880	4.797944	-41.866880	4.797944	-0.290311	-112.847081
8.450000	-0.294319	-113.423148	-41.746259	3.350209	-41.746259	3.350209	-0.294320	-113.422944
8.500000	-0.298400	-113.997852	-41.626253	1.903847	-41.626253	1.903847	-0.298401	-113.997650
8.550000	-0.302499	-114.572309	-41.507659	0.457772	-41.507659	0.457772	-0.302500	-114.572110
8.600000	-0.306679	-115.145533	-41.389559	-0.986863	-41.389559	-0.986863	-0.306680	-115.145337
8.650000	-0.310868	-115.718640	-41.272937	-2.431363	-41.272937	-2.431363	-0.310869	-115.718447
8.700000	-0.315147	-116.290451	-41.156699	-3.874384	-41.156699	-3.874384	-0.315148	-116.290262
8.750000	-0.319429	-116.862263	-41.041997	-5.317405	-41.041997	-5.317405	-0.319430	-116.862077
8.800000	-0.323808	-117.432729	-40.927581	-6.758939	-40.927581	-6.758939	-0.323810	-117.432546
8.850000	-0.328190	-118.003196	-40.814653	-8.200473	-40.814653	-8.200473	-0.328192	-118.003016
8.900000	-0.332664	-118.572492	-40.702117	-9.640774	-40.702117	-9.640774	-0.332665	-118.572316
8.950000	-0.337147	-119.141682	-40.590925	-11.080963	-40.590925	-11.080963	-0.337148	-119.141510
9.000000	-0.341715	-119.709866	-40.480224	-12.520159	-40.480224	-12.520159	-0.341716	-119.709699
9.050000	-0.346301	-120.277849	-40.370735	-13.959157	-40.370735	-13.959157	-0.346302	-120.277687
9.100000	-0.350963	-120.844982	-40.261826	-15.397388	-40.261826	-15.397388	-0.350964	-120.844823
9.150000	-0.355652	-121.411830	-40.154008	-16.835363	-40.154008	-16.835363	-0.355653	-121.411676
9.200000	-0.360410	-121.977970	-40.046852	-18.272777	-40.046852	-18.272777	-0.360411	-121.977821
9.250000	-0.365203	-122.543756	-39.940677	-19.709910	-39.940677	-19.709910	-0.365204	-122.543612
9.300000	-0.370057	-123.108965	-39.835239	-21.146666	-39.835239	-21.146666	-0.370058	-123.108827
9.350000	-0.374955	-123.673763	-39.730681	-22.583153	-39.730681	-22.583153	-0.374956	-123.673630
9.400000	-0.379905	-124.238104	-39.626928	-24.019419	-39.626928	-24.019419	-0.379906	-124.237977
9.450000	-0.384908	-124.801989	-39.523966	-25.455464	-39.523966	-25.455464	-0.384909	-124.801867
9.500000	-0.389955	-125.365525	-39.421868	-26.891417	-39.421868	-26.891417	-0.389957	-125.365410
9.550000	-0.395064	-125.928574	-39.320484	-28.327241	-39.320484	-28.327241	-0.395065	-125.928465
9.600000	-0.400208	-126.491369	-39.220016	-29.763066	-39.220016	-29.763066	-0.400210	-126.491267
9.650000	-0.405423	-127.053660	-39.120196	-31.198897	-39.120196	-31.198897	-0.405425	-127.053564
9.700000	-0.410665	-127.615781	-39.021336	-32.634789	-39.021336	-32.634789	-0.410667	-127.615692
9.750000	-0.415986	-128.177394	-38.923070	-34.070866	-38.923070	-34.070866	-0.415988	-128.177312
9.800000	-0.421326	-128.738906	-38.825798	-35.507025	-38.825798	-35.507025	-0.421328	-128.738832
9.850000	-0.426753	-129.299922	-38.729082	-36.943596	-38.729082	-36.943596	-0.426756	-129.299855
9.900000	-0.432192	-129.860894	-38.633384	-38.380229	-38.633384	-38.380229	-0.432194	-129.860836
9.950000	-0.437725	-130.421396	-38.538216	-39.817549	-38.538216	-39.817549	-0.437728	-130.421345
10.000000	-0.443262	-130.981897	-38.444080	-41.254869	-38.444080	-41.254869	-0.443265	-130.981855
