! freq	dB(S11)	phase(S11)	dB(S12)	phase(S12)	
!     	dB(S21)	phase(S21)	dB(S22)	phase(S22)	
!S-par simulation data
#  GHz  S  DB  R 50
0.000000	-0.000000	0.000000	-345.008433	180.000000	-345.008433	180.000000	0.000000	0.000000
0.050000	-0.000113	-1.030799	-97.724560	83.726953	-97.724560	83.726953	-0.000119	-1.378827
0.100000	-0.000447	-2.061344	-92.242924	79.510055	-92.242924	79.510055	-0.000474	-2.757406
0.150000	-0.000994	-3.091391	-89.271144	77.323232	-89.271144	77.323232	-0.001059	-4.135498
0.200000	-0.001735	-4.120733	-87.223176	76.283569	-87.223176	76.283569	-0.001860	-5.512884
0.250000	-0.002663	-5.149120	-85.640109	75.763198	-85.640109	75.763198	-0.002880	-6.889288
0.300000	-0.003739	-6.176478	-84.336405	75.390608	-84.336405	75.390608	-0.004083	-8.264602
0.350000	-0.004948	-7.202648	-83.231273	75.049338	-83.231273	75.049338	-0.005461	-9.638612
0.400000	-0.006267	-8.227537	-82.277679	74.687195	-82.277679	74.687195	-0.006997	-11.011160
0.450000	-0.007673	-9.251078	-81.446117	74.292668	-81.446117	74.292668	-0.008671	-12.382109
0.500000	-0.009146	-10.273234	-80.716379	73.871130	-80.716379	73.871130	-0.010464	-13.751341
0.550000	-0.010666	-11.293985	-80.073801	73.434506	-80.073801	73.434506	-0.012358	-15.118759
0.600000	-0.012218	-12.313327	-79.507328	72.996998	-79.507328	72.996998	-0.014333	-16.484283
0.650000	-0.013788	-13.331268	-79.008395	72.573457	-79.008395	72.573457	-0.016373	-17.847850
0.700000	-0.015364	-14.347821	-78.570233	72.178910	-78.570233	72.178910	-0.018462	-19.209411
0.750000	-0.016937	-15.363004	-78.187401	71.828578	-78.187401	71.828578	-0.020585	-20.568929
0.800000	-0.018500	-16.376835	-77.855455	71.538117	-77.855455	71.538117	-0.022728	-21.926376
0.850000	-0.020049	-17.389329	-77.570698	71.323938	-77.570698	71.323938	-0.024881	-23.281734
0.900000	-0.021580	-18.400502	-77.329984	71.203586	-77.329984	71.203586	-0.027034	-24.634989
0.950000	-0.023091	-19.410364	-77.130544	71.196120	-77.130544	71.196120	-0.029178	-25.986131
1.000000	-0.024579	-20.418920	-76.969835	71.322518	-76.969835	71.322518	-0.031306	-27.335156
1.050000	-0.026046	-21.426172	-76.845376	71.606060	-76.845376	71.606060	-0.033414	-28.682059
1.100000	-0.027490	-22.432120	-76.754578	72.072680	-76.754578	72.072680	-0.035496	-30.026836
1.150000	-0.028914	-23.436755	-76.694545	72.751227	-76.694545	72.751227	-0.037550	-31.369484
1.200000	-0.030317	-24.440070	-76.661834	73.673550	-76.661834	73.673550	-0.039573	-32.709998
1.250000	-0.031701	-25.442051	-76.652170	74.874271	-76.652170	74.874271	-0.041565	-34.048375
1.300000	-0.033067	-26.442623	-76.660533	76.405466	-76.660533	76.405466	-0.043523	-35.384514
1.350000	-0.034416	-27.441825	-76.678663	78.291810	-76.678663	78.291810	-0.045449	-36.718500
1.400000	-0.035751	-28.439638	-76.697310	80.566844	-76.697310	80.566844	-0.047344	-38.050325
1.450000	-0.037073	-29.436039	-76.704959	83.255989	-76.704959	83.255989	-0.049208	-39.379979
1.500000	-0.038383	-30.431004	-76.687817	86.369880	-76.687817	86.369880	-0.051043	-40.707450
1.550000	-0.039683	-31.424511	-76.630256	89.896496	-76.630256	89.896496	-0.052851	-42.032726
1.600000	-0.040973	-32.416533	-76.515927	93.793714	-76.515927	93.793714	-0.054633	-43.355795
1.650000	-0.042256	-33.407045	-76.329573	97.984980	-76.329573	97.984980	-0.056392	-44.676642
1.700000	-0.043533	-34.396021	-76.059293	102.361112	-76.059293	102.361112	-0.058130	-45.995253
1.750000	-0.044804	-35.383435	-75.698650	106.789810	-75.698650	106.789810	-0.059848	-47.311616
1.800000	-0.046070	-36.369263	-75.247891	111.131536	-75.247891	111.131536	-0.061549	-48.625714
1.850000	-0.047333	-37.353476	-74.713775	115.257423	-74.713775	115.257423	-0.063235	-49.937536
1.900000	-0.048594	-38.336052	-74.108105	119.063942	-74.108105	119.063942	-0.064909	-51.247068
1.950000	-0.049853	-39.316963	-73.445523	122.480700	-73.445523	122.480700	-0.066572	-52.554297
2.000000	-0.051111	-40.296187	-72.741314	125.470851	-72.741314	125.470851	-0.068227	-53.859211
2.050000	-0.052369	-41.273698	-72.009734	128.026087	-72.009734	128.026087	-0.069875	-55.161801
2.100000	-0.053628	-42.249474	-71.263042	130.159122	-71.263042	130.159122	-0.071519	-56.462057
2.150000	-0.054888	-43.223493	-70.511144	131.896105	-70.511144	131.896105	-0.073161	-57.759971
2.200000	-0.056151	-44.195731	-69.761662	133.270318	-69.761662	133.270318	-0.074802	-59.055536
2.250000	-0.057415	-45.166168	-69.020210	134.317622	-69.020210	134.317622	-0.076443	-60.348749
2.300000	-0.058684	-46.134784	-68.290764	135.073493	-68.290764	135.073493	-0.078087	-61.639605
2.350000	-0.059955	-47.101559	-67.576010	135.571310	-67.576010	135.571310	-0.079736	-62.928105
2.400000	-0.061232	-48.066475	-66.877658	135.841509	-66.877658	135.841509	-0.081390	-64.214248
2.450000	-0.062513	-49.029514	-66.196695	135.911288	-66.196695	135.911288	-0.083051	-65.498038
2.500000	-0.063799	-49.990659	-65.533586	135.804645	-65.533586	135.804645	-0.084720	-66.779480
2.550000	-0.065092	-50.949811	-64.887172	135.536682	-64.887172	135.536682	-0.086399	-68.058480
2.600000	-0.066391	-51.907036	-64.258729	135.133012	-64.258729	135.133012	-0.088089	-69.335149
2.650000	-0.067697	-52.862322	-63.647881	134.609245	-63.647881	134.609245	-0.089791	-70.609501
2.700000	-0.069010	-53.815654	-63.054145	133.978953	-63.054145	133.978953	-0.091506	-71.881550
2.750000	-0.070331	-54.767022	-62.476968	133.253945	-62.476968	133.253945	-0.093235	-73.151312
2.800000	-0.071660	-55.716413	-61.915762	132.444506	-61.915762	132.444506	-0.094978	-74.418808
2.850000	-0.072999	-56.663817	-61.369921	131.559615	-61.369921	131.559615	-0.096737	-75.684059
2.900000	-0.074346	-57.609227	-60.838840	130.607123	-60.838840	130.607123	-0.098512	-76.947090
2.950000	-0.075703	-58.552632	-60.321921	129.593914	-60.321921	129.593914	-0.100304	-78.207928
3.000000	-0.077071	-59.494026	-59.818583	128.526038	-59.818583	128.526038	-0.102115	-79.466602
3.050000	-0.078449	-60.433402	-59.328264	127.408828	-59.328264	127.408828	-0.103943	-80.723143
3.100000	-0.079838	-61.370755	-58.850424	126.246995	-58.850424	126.246995	-0.105791	-81.977588
3.150000	-0.081239	-62.306080	-58.384550	125.044715	-58.384550	125.044715	-0.107659	-83.229972
3.200000	-0.082651	-63.239374	-57.930148	123.805695	-57.930148	123.805695	-0.109548	-84.480336
3.250000	-0.084077	-64.170634	-57.486752	122.533238	-57.486752	122.533238	-0.111457	-85.728722
3.300000	-0.085515	-65.099859	-57.053919	121.230294	-57.053919	121.230294	-0.113388	-86.975174
3.350000	-0.086967	-66.027046	-56.631228	119.899502	-56.631228	119.899502	-0.115341	-88.219739
3.400000	-0.088433	-66.952198	-56.218280	118.543229	-56.218280	118.543229	-0.117316	-89.462468
3.450000	-0.089914	-67.875313	-55.814698	117.163606	-55.814698	117.163606	-0.119315	-90.703412
3.500000	-0.091409	-68.796396	-55.420123	115.762549	-55.420123	115.762549	-0.121338	-91.942626
3.550000	-0.092920	-69.715447	-55.034217	114.341791	-55.034217	114.341791	-0.123385	-93.180168
3.600000	-0.094447	-70.632471	-54.656657	112.902897	-54.656657	112.902897	-0.125457	-94.416097
3.650000	-0.095991	-71.547473	-54.287138	111.447287	-54.287138	111.447287	-0.127555	-95.650475
3.700000	-0.097551	-72.460457	-53.925371	109.976247	-53.925371	109.976247	-0.129678	-96.883366
3.750000	-0.099129	-73.371431	-53.571080	108.490947	-53.571080	108.490947	-0.131828	-98.114838
3.800000	-0.100726	-74.280314	-53.223717	106.991925	-53.223717	106.991925	-0.134007	-99.344904
3.850000	-0.102341	-75.187203	-52.883347	105.480757	-52.883347	105.480757	-0.136213	-100.573699
3.900000	-0.103975	-76.092105	-52.549732	103.958317	-52.549732	103.958317	-0.138447	-101.801296
3.950000	-0.105629	-76.995032	-52.222644	102.425402	-52.222644	102.425402	-0.140710	-103.027773
4.000000	-0.107303	-77.895993	-51.901867	100.882741	-51.901867	100.882741	-0.143003	-104.253207
4.050000	-0.108998	-78.795000	-51.587195	99.331000	-51.587195	99.331000	-0.145326	-105.477682
4.100000	-0.110714	-79.692066	-51.278431	97.770788	-51.278431	97.770788	-0.147680	-106.701280
4.150000	-0.112452	-80.587203	-50.975387	96.202662	-50.975387	96.202662	-0.150066	-107.924087
4.200000	-0.114212	-81.480426	-50.677883	94.627129	-50.677883	94.627129	-0.152483	-109.146192
4.250000	-0.115994	-82.371749	-50.385748	93.044655	-50.385748	93.044655	-0.154934	-110.367685
4.300000	-0.117800	-83.261188	-50.098818	91.455663	-50.098818	91.455663	-0.157418	-111.588659
4.350000	-0.119630	-84.148759	-49.816934	89.860540	-49.816934	89.860540	-0.159937	-112.809209
4.400000	-0.121484	-85.034478	-49.539946	88.259637	-49.539946	88.259637	-0.162491	-114.029432
4.450000	-0.123363	-85.918365	-49.267710	86.653273	-49.267710	86.653273	-0.165080	-115.249427
4.500000	-0.125268	-86.800437	-49.000085	85.041736	-49.000085	85.041736	-0.167706	-116.469298
4.550000	-0.127198	-87.680713	-48.736939	83.425288	-48.736939	83.425288	-0.170370	-117.689147
4.600000	-0.129155	-88.559215	-48.478143	81.804162	-48.478143	81.804162	-0.173071	-118.909081
4.650000	-0.131139	-89.435962	-48.223572	80.178565	-48.223572	80.178565	-0.175812	-120.129209
4.700000	-0.133150	-90.310976	-47.973109	78.548683	-47.973109	78.548683	-0.178593	-121.349642
4.750000	-0.135189	-91.184279	-47.726636	76.914677	-47.726636	76.914677	-0.181414	-122.570493
4.800000	-0.137257	-92.055895	-47.484045	75.276687	-47.484045	75.276687	-0.184276	-123.791878
4.850000	-0.139354	-92.925847	-47.245226	73.634832	-47.245226	73.634832	-0.187181	-125.013915
4.900000	-0.141481	-93.794159	-47.010076	71.989211	-47.010076	71.989211	-0.190129	-126.236723
4.950000	-0.143637	-94.660857	-46.778494	70.339903	-46.778494	70.339903	-0.193120	-127.460427
5.000000	-0.145825	-95.525966	-46.550382	68.686968	-46.550382	68.686968	-0.196157	-128.685152
5.050000	-0.148045	-96.389446	-46.325540	67.030289	-46.325540	67.030289	-0.199241	-129.911081
5.100000	-0.150296	-97.251393	-46.103987	65.370045	-46.103987	65.370045	-0.202372	-131.138300
5.150000	-0.152580	-98.111836	-45.885632	63.706234	-45.885632	63.706234	-0.205550	-132.366945
5.200000	-0.154896	-98.970803	-45.670386	62.038836	-45.670386	62.038836	-0.208776	-133.597149
5.250000	-0.157246	-99.828322	-45.458164	60.367811	-45.458164	60.367811	-0.212052	-134.829054
5.300000	-0.159629	-100.684425	-45.248879	58.693100	-45.248879	58.693100	-0.215377	-136.062799
5.350000	-0.162047	-101.539142	-45.042447	57.014621	-45.042447	57.014621	-0.218754	-137.298531
5.400000	-0.164499	-102.392504	-44.838787	55.332271	-44.838787	55.332271	-0.222182	-138.536398
5.450000	-0.166986	-103.244543	-44.637815	53.645922	-44.637815	53.645922	-0.225663	-139.776550
5.500000	-0.169509	-104.095291	-44.439450	51.955424	-44.439450	51.955424	-0.229197	-141.019142
5.550000	-0.172067	-104.944783	-44.243611	50.260596	-44.243611	50.260596	-0.232786	-142.264332
5.600000	-0.174663	-105.793051	-44.050218	48.561233	-44.050218	48.561233	-0.236431	-143.512282
5.650000	-0.177295	-106.640131	-43.859187	46.857095	-43.859187	46.857095	-0.240131	-144.763159
5.700000	-0.179965	-107.486058	-43.670437	45.147909	-43.670437	45.147909	-0.243889	-146.017132
5.750000	-0.182672	-108.330868	-43.483885	43.433362	-43.483885	43.433362	-0.247705	-147.274375
5.800000	-0.185418	-109.174597	-43.299443	41.713102	-43.299443	41.713102	-0.251581	-148.535069
5.850000	-0.188202	-110.017284	-43.117024	39.986726	-43.117024	39.986726	-0.255518	-149.799397
5.900000	-0.191025	-110.858967	-42.936538	38.253780	-42.936538	38.253780	-0.259516	-151.067551
5.950000	-0.193888	-111.699684	-42.757889	36.513748	-42.757889	36.513748	-0.263577	-152.339726
6.000000	-0.196790	-112.539475	-42.580978	34.766044	-42.580978	34.766044	-0.267704	-153.616126
6.050000	-0.199733	-113.378382	-42.405701	33.010006	-42.405701	33.010006	-0.271896	-154.896962
6.100000	-0.202716	-114.216446	-42.231944	31.244878	-42.231944	31.244878	-0.276157	-156.182454
6.150000	-0.205740	-115.053709	-42.059590	29.469799	-42.059590	29.469799	-0.280488	-157.472828
6.200000	-0.208805	-115.890215	-41.888507	27.683782	-41.888507	27.683782	-0.284892	-158.768326
6.250000	-0.211912	-116.726008	-41.718555	25.885698	-41.718555	25.885698	-0.289371	-160.069198
6.300000	-0.215062	-117.561109	-41.549470	24.073588	-41.549470	24.073588	-0.293932	-161.375969
6.350000	-0.218254	-118.395594	-41.381172	22.246434	-41.381172	22.246434	-0.298577	-162.688689
6.400000	-0.221488	-119.229513	-41.213463	20.402435	-41.213463	20.402435	-0.303310	-164.007661
6.450000	-0.224765	-120.062918	-41.046120	18.539478	-41.046120	18.539478	-0.308136	-165.333212
6.500000	-0.228085	-120.895860	-40.878887	16.655065	-40.878887	16.655065	-0.313063	-166.665696
6.550000	-0.231447	-121.728396	-40.711468	14.746221	-40.711468	14.746221	-0.318100	-168.005501
6.600000	-0.234852	-122.560583	-40.543520	12.809373	-40.543520	12.809373	-0.323258	-169.353056
6.650000	-0.238301	-123.392483	-40.374636	10.840188	-40.374636	10.840188	-0.328551	-170.708841
6.700000	-0.241791	-124.224168	-40.204472	8.834484	-40.204472	8.834484	-0.333991	-172.073156
6.750000	-0.245325	-125.055699	-40.032272	6.784307	-40.032272	6.784307	-0.339609	-173.446962
6.800000	-0.248902	-125.887161	-39.857391	4.681913	-39.857391	4.681913	-0.345433	-174.830874
6.850000	-0.252522	-126.718643	-39.678964	2.516840	-39.678964	2.516840	-0.351504	-176.225754
6.900000	-0.256186	-127.550249	-39.495906	0.275513	-39.495906	0.275513	-0.357878	-177.632647
6.950000	-0.259894	-128.382102	-39.306841	-2.060046	-39.306841	-2.060046	-0.364636	-179.052852
7.000000	-0.263648	-129.214354	-39.109993	-4.514206	-39.109993	-4.514206	-0.371894	179.511979
7.050000	-0.267448	-130.047198	-38.903033	-7.120910	-38.903033	-7.120910	-0.379825	178.059686
7.100000	-0.271301	-130.880888	-38.682916	-9.928200	-38.682916	-9.928200	-0.388696	176.587428
7.150000	-0.275218	-131.715820	-38.444758	-13.017185	-38.444758	-13.017185	-0.398991	175.090464
7.200000	-0.279221	-132.552543	-38.182775	-16.504756	-38.182775	-16.504756	-0.411499	173.562980
7.250000	-0.283359	-133.391875	-37.889624	-20.576622	-37.889624	-20.576622	-0.427627	171.996714
7.300000	-0.287759	-134.235328	-37.554254	-25.599724	-37.554254	-25.599724	-0.450467	170.377307
7.350000	-0.292760	-135.085436	-37.168566	-32.274679	-37.168566	-32.274679	-0.486882	168.686094
7.400000	-0.299394	-135.946274	-36.754268	-42.158149	-36.754268	-42.158149	-0.554403	166.913177
7.450000	-0.311164	-136.818100	-36.549927	-59.194642	-36.549927	-59.194642	-0.700010	165.203715
7.500000	-0.334291	-137.637119	-38.218471	-91.548104	-38.218471	-91.548104	-0.944079	164.700707
7.550000	-0.344172	-138.312967	-48.942655	-133.913690	-48.942655	-133.913690	-0.852410	165.488463
7.600000	-0.335746	-139.082767	-49.694254	17.458693	-49.694254	17.458693	-0.624983	164.113989
7.650000	-0.332141	-139.918165	-43.541572	2.762508	-43.541572	2.762508	-0.533090	162.121109
7.700000	-0.332535	-140.763821	-41.405784	-6.634959	-41.405784	-6.634959	-0.502275	160.169174
7.750000	-0.334799	-141.609905	-40.244386	-13.694914	-40.244386	-13.694914	-0.495128	158.272647
7.800000	-0.338021	-142.455589	-39.458244	-19.696686	-39.458244	-19.696686	-0.499874	156.390883
7.850000	-0.341804	-143.301442	-38.839418	-25.317275	-38.839418	-25.317275	-0.513099	154.486709
7.900000	-0.345974	-144.148312	-38.290936	-31.031707	-38.290936	-31.031707	-0.535482	152.522415
7.950000	-0.350454	-144.996979	-37.757537	-37.229457	-37.757537	-37.229457	-0.569819	150.464351
8.000000	-0.355317	-145.848812	-37.191991	-44.508157	-37.191991	-44.508157	-0.626254	148.247549
8.050000	-0.360794	-146.705554	-36.548384	-53.785725	-36.548384	-53.785725	-0.726690	145.790955
8.100000	-0.367570	-147.569320	-35.789635	-66.748367	-35.789635	-66.748367	-0.925174	143.018721
8.150000	-0.377735	-148.439099	-34.961436	-87.260999	-34.961436	-87.260999	-1.375281	140.182104
8.200000	-0.394703	-149.281297	-34.722999	-122.802116	-34.722999	-122.802116	-2.297323	140.296692
8.250000	-0.407251	-150.029600	-37.208322	-176.567978	-37.208322	-176.567978	-2.490031	147.889673
8.300000	-0.404554	-150.807990	-41.783932	123.943969	-41.783932	123.943969	-1.558727	149.546387
8.350000	-0.402614	-151.647919	-43.652345	70.261791	-43.652345	70.261791	-1.041141	146.952167
8.400000	-0.403915	-152.504025	-43.066543	36.766052	-43.066543	36.766052	-0.816085	144.137868
8.450000	-0.407012	-153.363092	-42.176821	17.902108	-42.176821	17.902108	-0.708991	141.601991
8.500000	-0.411052	-154.222825	-41.460295	6.119699	-41.460295	6.119699	-0.652771	139.296726
8.550000	-0.415635	-155.083149	-40.915285	-2.058316	-40.915285	-2.058316	-0.621299	137.146987
8.600000	-0.420548	-155.944303	-40.489274	-8.284648	-40.489274	-8.284648	-0.602584	135.095012
8.650000	-0.425698	-156.806600	-40.148989	-13.257319	-40.148989	-13.257319	-0.591600	133.110424
8.700000	-0.431028	-157.670294	-39.869833	-17.404500	-39.869833	-17.404500	-0.585380	131.170838
8.750000	-0.436499	-158.535597	-39.635524	-20.977569	-39.635524	-20.977569	-0.582250	129.261329
8.800000	-0.442093	-159.402729	-39.435553	-24.126844	-39.435553	-24.126844	-0.581236	127.371918
8.850000	-0.447792	-160.271808	-39.261639	-26.965071	-39.261639	-26.965071	-0.581662	125.494893
8.900000	-0.453585	-161.142971	-39.108448	-29.561207	-39.108448	-29.561207	-0.583126	123.625130
8.950000	-0.459467	-162.016342	-38.972072	-31.964143	-38.972072	-31.964143	-0.585354	121.758837
9.000000	-0.465431	-162.892037	-38.849586	-34.209456	-38.849586	-34.209456	-0.588155	119.893160
9.050000	-0.471475	-163.770165	-38.738755	-36.323606	-38.738755	-36.323606	-0.591393	118.025921
9.100000	-0.477595	-164.650834	-38.637835	-38.326645	-38.637835	-38.326645	-0.594967	116.155441
9.150000	-0.483790	-165.534146	-38.545444	-40.234011	-38.545444	-40.234011	-0.598803	114.280415
9.200000	-0.490057	-166.420203	-38.460466	-42.057750	-38.460466	-42.057750	-0.602844	112.399827
9.250000	-0.496396	-167.309105	-38.381988	-43.807373	-38.381988	-43.807373	-0.607046	110.512885
9.300000	-0.502805	-168.200951	-38.309248	-45.490459	-38.309248	-45.490459	-0.611376	108.618977
9.350000	-0.509283	-169.095841	-38.241603	-47.113097	-38.241603	-47.113097	-0.615807	106.717635
9.400000	-0.515831	-169.993909	-38.178540	-48.679655	-38.178540	-48.679655	-0.620317	104.808423
9.450000	-0.522447	-170.895258	-38.119565	-50.194246	-38.119565	-50.194246	-0.624890	102.891088
9.500000	-0.529131	-171.799954	-38.064211	-51.660700	-38.064211	-51.660700	-0.629510	100.965558
9.550000	-0.535882	-172.708098	-38.012100	-53.081664	-38.012100	-53.081664	-0.634168	99.031747
9.600000	-0.542699	-173.619792	-37.962884	-54.459310	-37.962884	-54.459310	-0.638854	97.089635
9.650000	-0.549583	-174.535137	-37.916246	-55.795429	-37.916246	-55.795429	-0.643561	95.139258
9.700000	-0.556532	-175.454238	-37.871884	-57.091491	-37.871884	-57.091491	-0.648283	93.180702
9.750000	-0.563547	-176.377199	-37.829517	-58.348709	-37.829517	-58.348709	-0.653016	91.214101
9.800000	-0.570626	-177.304126	-37.788871	-59.568083	-37.788871	-59.568083	-0.657756	89.239630
9.850000	-0.577769	-178.235125	-37.749683	-60.750439	-37.749683	-60.750439	-0.662502	87.257504
9.900000	-0.584977	-179.170305	-37.711696	-61.896458	-37.711696	-61.896458	-0.667251	85.267976
9.950000	-0.592247	179.890226	-37.674653	-63.006712	-37.674653	-63.006712	-0.672003	83.271330
10.000000	-0.599581	178.946356	-37.638301	-64.081682	-37.638301	-64.081682	-0.676757	81.267885
