! freq	dB(S11)	phase(S11)	dB(S12)	phase(S12)	
!     	dB(S21)	phase(S21)	dB(S22)	phase(S22)	
!S-par simulation data
#  GHz  S  DB  R 50
0.000000	-0.000000	0.000000	-361.565983	0.000000	-361.565983	0.000000	-0.000000	0.000000
0.050000	-0.003462	-1.594817	-96.561605	87.636127	-96.561605	87.636127	-0.003811	-1.594302
0.100000	-0.006545	-3.159752	-90.586819	86.529477	-90.586819	86.529477	-0.006762	-3.157235
0.150000	-0.008164	-4.721188	-87.111220	85.168350	-87.111220	85.168350	-0.008249	-4.718112
0.200000	-0.009368	-6.283162	-84.669595	83.751255	-84.669595	83.751255	-0.009389	-6.279801
0.250000	-0.010506	-7.845306	-82.804524	82.322055	-82.804524	82.322055	-0.010504	-7.841652
0.300000	-0.011710	-9.406950	-81.313129	80.901381	-81.313129	80.901381	-0.011709	-9.402936
0.350000	-0.013015	-10.967696	-80.080068	79.499301	-80.080068	79.499301	-0.013023	-10.963256
0.400000	-0.014433	-12.527167	-79.042530	78.124873	-79.042530	78.124873	-0.014459	-12.522238
0.450000	-0.015965	-14.085083	-78.158664	76.785895	-78.158664	76.785895	-0.016012	-14.079609
0.500000	-0.017613	-15.641033	-77.404492	75.494867	-77.404492	75.494867	-0.017681	-15.634959
0.550000	-0.019357	-17.194925	-76.756680	74.258138	-76.756680	74.258138	-0.019446	-17.188208
0.600000	-0.021184	-18.746644	-76.199466	73.083793	-76.199466	73.083793	-0.021292	-18.739246
0.650000	-0.023081	-20.296048	-75.721976	71.982108	-75.721976	71.982108	-0.023207	-20.287941
0.700000	-0.025038	-21.843016	-75.315947	70.964758	-75.315947	70.964758	-0.025177	-21.834174
0.750000	-0.027042	-23.387439	-74.975010	70.045140	-74.975010	70.045140	-0.027192	-23.377843
0.800000	-0.029085	-24.929152	-74.695393	69.242020	-74.695393	69.242020	-0.029241	-24.918789
0.850000	-0.031156	-26.467874	-74.476385	68.585128	-74.476385	68.585128	-0.031316	-26.456735
0.900000	-0.033246	-28.003775	-74.310210	68.085931	-74.310210	68.085931	-0.033406	-27.991856
0.950000	-0.035346	-29.536783	-74.194087	67.770546	-74.194087	67.770546	-0.035502	-29.524085
1.000000	-0.037449	-31.066836	-74.125451	67.669781	-74.125451	67.669781	-0.037599	-31.053362
1.050000	-0.039551	-32.593874	-74.101675	67.819948	-74.101675	67.819948	-0.039693	-32.579629
1.100000	-0.041646	-34.117842	-74.119741	68.263659	-74.119741	68.263659	-0.041778	-34.102834
1.150000	-0.043731	-35.638454	-74.178152	69.080058	-74.178152	69.080058	-0.043849	-35.622692
1.200000	-0.045801	-37.155750	-74.269343	70.324272	-74.269343	70.324272	-0.045906	-37.139244
1.250000	-0.047855	-38.669818	-74.383540	72.045473	-74.383540	72.045473	-0.047945	-38.652577
1.300000	-0.049891	-40.180612	-74.509250	74.309940	-74.509250	74.309940	-0.049966	-40.162647
1.350000	-0.051908	-41.688091	-74.630667	77.178882	-74.630667	77.178882	-0.051967	-41.669411
1.400000	-0.053906	-43.192212	-74.726920	80.696431	-74.726920	80.696431	-0.053949	-43.172826
1.450000	-0.055883	-44.692916	-74.771621	84.876026	-74.771621	84.876026	-0.055911	-44.672832
1.500000	-0.057839	-46.189802	-74.723545	89.722029	-74.723545	89.722029	-0.057852	-46.169028
1.550000	-0.059775	-47.683210	-74.560873	95.022392	-74.560873	95.022392	-0.059774	-47.661750
1.600000	-0.061692	-49.173106	-74.263368	100.566663	-74.263368	100.566663	-0.061677	-49.150966
1.650000	-0.063591	-50.659457	-73.824040	106.101459	-73.824040	106.101459	-0.063564	-50.636640
1.700000	-0.065472	-52.142022	-73.241649	111.347267	-73.241649	111.347267	-0.065433	-52.118529
1.750000	-0.067337	-53.621029	-72.549834	116.119817	-72.549834	116.119817	-0.067287	-53.596862
1.800000	-0.069187	-55.096346	-71.772275	120.283683	-71.772275	120.283683	-0.069128	-55.071505
1.850000	-0.071023	-56.567949	-70.938078	123.786228	-70.938078	123.786228	-0.070956	-56.542431
1.900000	-0.072847	-58.035816	-70.072745	126.634717	-70.072745	126.634717	-0.072772	-58.009619
1.950000	-0.074659	-59.499927	-69.196364	128.874078	-69.196364	128.874078	-0.074579	-59.473048
2.000000	-0.076463	-60.960265	-68.323543	130.567679	-68.323543	130.567679	-0.076377	-60.932699
2.050000	-0.078257	-62.416817	-67.464234	131.784021	-67.464234	131.784021	-0.078167	-62.388558
2.100000	-0.080045	-63.869571	-66.624805	132.589014	-66.624805	132.589014	-0.079952	-63.840614
2.150000	-0.081828	-65.318520	-65.809026	133.042243	-65.809026	133.042243	-0.081732	-65.288857
2.200000	-0.083606	-66.763658	-65.018866	133.195688	-65.018866	133.195688	-0.083508	-66.733283
2.250000	-0.085382	-68.204984	-64.255086	133.093774	-64.255086	133.093774	-0.085283	-68.173889
2.300000	-0.087157	-69.642500	-63.517656	132.774035	-63.517656	132.774035	-0.087057	-69.610676
2.350000	-0.088931	-71.076209	-62.806054	132.268006	-62.806054	132.268006	-0.088832	-71.043648
2.400000	-0.090707	-72.506121	-62.119453	131.602126	-62.119453	131.602126	-0.090608	-72.472814
2.450000	-0.092486	-73.932246	-61.456864	130.798575	-61.456864	130.798575	-0.092387	-73.898184
2.500000	-0.094268	-75.354599	-60.817212	129.875994	-60.817212	129.875994	-0.094170	-75.319773
2.550000	-0.096055	-76.773036	-60.198458	128.846228	-60.198458	128.846228	-0.095959	-76.737435
2.600000	-0.097849	-78.187742	-59.600607	127.727447	-59.600607	127.727447	-0.097754	-78.151358
2.650000	-0.099650	-79.598742	-59.022582	126.530716	-59.022582	126.530716	-0.099557	-79.561565
2.700000	-0.101459	-81.006065	-58.463354	125.265490	-58.463354	125.265490	-0.101367	-80.968086
2.750000	-0.103278	-82.409742	-57.921950	123.939884	-57.921950	123.939884	-0.103188	-82.370951
2.800000	-0.105107	-83.809808	-57.397455	122.560887	-57.397455	122.560887	-0.105019	-83.770196
2.850000	-0.106948	-85.206300	-56.889012	121.134546	-56.889012	121.134546	-0.106861	-85.165858
2.900000	-0.108801	-86.599261	-56.395817	119.666110	-56.395817	119.666110	-0.108715	-86.557979
2.950000	-0.110668	-87.988734	-55.917121	118.160155	-55.917121	118.160155	-0.110583	-87.946603
3.000000	-0.112549	-89.374767	-55.452227	116.620680	-55.452227	116.620680	-0.112465	-89.331779
3.050000	-0.114446	-90.757411	-55.000480	115.051195	-55.000480	115.051195	-0.114362	-90.713555
3.100000	-0.116358	-92.136718	-54.561271	113.454790	-54.561271	113.454790	-0.116275	-92.091987
3.150000	-0.118288	-93.512746	-54.134034	111.834192	-54.134034	111.834192	-0.118204	-93.467131
3.200000	-0.120235	-94.885555	-53.718235	110.191816	-53.718235	110.191816	-0.120151	-94.839046
3.250000	-0.122201	-96.255206	-53.313380	108.529807	-53.313380	108.529807	-0.122117	-96.207796
3.300000	-0.124186	-97.621765	-52.919002	106.850074	-52.919002	106.850074	-0.124101	-97.573444
3.350000	-0.126192	-98.985300	-52.534668	105.154320	-52.534668	105.154320	-0.126106	-98.936060
3.400000	-0.128218	-100.345882	-52.159968	103.444066	-52.159968	103.444066	-0.128131	-100.295714
3.450000	-0.130266	-101.703584	-51.794521	101.720678	-51.794521	101.720678	-0.130177	-101.652479
3.500000	-0.132337	-103.058483	-51.437967	99.985380	-51.437967	99.985380	-0.132246	-103.006433
3.550000	-0.134431	-104.410657	-51.089968	98.239275	-51.089968	98.239275	-0.134337	-104.357653
3.600000	-0.136548	-105.760188	-50.750205	96.483354	-50.750205	96.483354	-0.136452	-105.706220
3.650000	-0.138690	-107.107160	-50.418380	94.718514	-50.418380	94.718514	-0.138591	-107.052220
3.700000	-0.140857	-108.451659	-50.094210	92.945564	-50.094210	92.945564	-0.140755	-108.395737
3.750000	-0.143050	-109.793773	-49.777428	91.165234	-49.777428	91.165234	-0.142945	-109.736860
3.800000	-0.145270	-111.133499	-49.467615	89.377926	-49.467615	89.377926	-0.145162	-111.075584
3.850000	-0.147517	-112.471033	-49.164723	87.584553	-49.164723	87.584553	-0.147406	-112.412107
3.900000	-0.149792	-113.806472	-48.868525	85.785653	-48.868525	85.785653	-0.149677	-113.746525
3.950000	-0.152095	-115.139914	-48.578808	83.981717	-48.578808	83.981717	-0.151977	-115.078934
4.000000	-0.154427	-116.471459	-48.295367	82.173189	-48.295367	82.173189	-0.154305	-116.409436
4.050000	-0.156788	-117.801209	-48.018011	80.360474	-48.018011	80.360474	-0.156662	-117.738132
4.100000	-0.159179	-119.129269	-47.746558	78.543943	-47.746558	78.543943	-0.159049	-119.065125
4.150000	-0.161600	-120.455745	-47.480835	76.723932	-47.480835	76.723932	-0.161467	-120.390523
4.200000	-0.164052	-121.780747	-47.220676	74.900747	-47.220676	74.900747	-0.163915	-121.714433
4.250000	-0.166536	-123.104383	-46.965928	73.074669	-46.965928	73.074669	-0.166395	-123.036965
4.300000	-0.169052	-124.426767	-46.716441	71.245952	-46.716441	71.245952	-0.168907	-124.358231
4.350000	-0.171599	-125.748012	-46.472075	69.414830	-46.472075	69.414830	-0.171451	-125.678344
4.400000	-0.174180	-127.068234	-46.232696	67.581515	-46.232696	67.581515	-0.174028	-126.997420
4.450000	-0.176794	-128.387552	-45.998177	65.746202	-45.998177	65.746202	-0.176638	-128.315575
4.500000	-0.179441	-129.706084	-45.768397	63.909068	-45.768397	63.909068	-0.179282	-129.632929
4.550000	-0.182122	-131.023952	-45.543241	62.070276	-45.543241	62.070276	-0.181960	-130.949603
4.600000	-0.184838	-132.341279	-45.322600	60.229974	-45.322600	60.229974	-0.184672	-132.265717
4.650000	-0.187589	-133.658189	-45.106368	58.388297	-45.106368	58.388297	-0.187419	-133.581397
4.700000	-0.190375	-134.974808	-44.894447	56.545369	-44.894447	56.545369	-0.190202	-134.896768
4.750000	-0.193196	-136.291263	-44.686742	54.701305	-44.686742	54.701305	-0.193020	-136.211956
4.800000	-0.196053	-137.607685	-44.483163	52.856208	-44.483163	52.856208	-0.195873	-137.527091
4.850000	-0.198945	-138.924204	-44.283624	51.010173	-44.283624	51.010173	-0.198763	-138.842301
4.900000	-0.201875	-140.240951	-44.088043	49.163288	-44.088043	49.163288	-0.201689	-140.157719
4.950000	-0.204840	-141.558062	-43.896342	47.315633	-43.896342	47.315633	-0.204652	-141.473478
5.000000	-0.207843	-142.875669	-43.708447	45.467282	-43.708447	45.467282	-0.207652	-142.789712
5.050000	-0.210884	-144.193946	-43.524280	43.618277	-43.524280	43.618277	-0.210690	-144.106589
5.100000	-0.213962	-145.513006	-43.343789	41.768710	-43.343789	41.768710	-0.213766	-145.424226
5.150000	-0.217078	-146.832991	-43.166909	39.918638	-43.166909	39.918638	-0.216878	-146.742762
5.200000	-0.220231	-148.154041	-42.993577	38.068113	-42.993577	38.068113	-0.220029	-148.062337
5.250000	-0.223421	-149.476297	-42.823736	36.217182	-42.823736	36.217182	-0.223216	-149.383092
5.300000	-0.226649	-150.799903	-42.657330	34.365892	-42.657330	34.365892	-0.226442	-150.705170
5.350000	-0.229915	-152.125003	-42.494304	32.514281	-42.494304	32.514281	-0.229705	-152.028713
5.400000	-0.233219	-153.451743	-42.334609	30.662388	-42.334609	30.662388	-0.233005	-153.353867
5.450000	-0.236560	-154.780269	-42.178196	28.810248	-42.178196	28.810248	-0.236344	-154.680778
5.500000	-0.239939	-156.110729	-42.025020	26.957892	-42.025020	26.957892	-0.239719	-156.009592
5.550000	-0.243355	-157.443272	-41.875035	25.105351	-41.875035	25.105351	-0.243133	-157.340458
5.600000	-0.246809	-158.778049	-41.728200	23.252650	-41.728200	23.252650	-0.246583	-158.673525
5.650000	-0.250301	-160.115209	-41.584477	21.399814	-41.584477	21.399814	-0.250071	-160.008944
5.700000	-0.253829	-161.454906	-41.443826	19.546866	-41.443826	19.546866	-0.253596	-161.346865
5.750000	-0.257395	-162.797291	-41.306212	17.693825	-41.306212	17.693825	-0.257158	-162.687441
5.800000	-0.260997	-164.142519	-41.171600	15.840709	-41.171600	15.840709	-0.260756	-164.030825
5.850000	-0.264636	-165.490744	-41.039960	13.987532	-41.039960	13.987532	-0.264391	-165.377170
5.900000	-0.268311	-166.842122	-40.911258	12.134308	-40.911258	12.134308	-0.268062	-166.726632
5.950000	-0.272022	-168.196809	-40.785467	10.281045	-40.785467	10.281045	-0.271768	-168.079366
6.000000	-0.275769	-169.554962	-40.662559	8.427753	-40.662559	8.427753	-0.275510	-169.435528
6.050000	-0.279550	-170.916739	-40.542507	6.574434	-40.542507	6.574434	-0.279286	-170.795276
6.100000	-0.283367	-172.282298	-40.425287	4.721091	-40.425287	4.721091	-0.283098	-172.158766
6.150000	-0.287217	-173.651797	-40.310876	2.867722	-40.310876	2.867722	-0.286943	-173.526158
6.200000	-0.291101	-175.025396	-40.199252	1.014323	-40.199252	1.014323	-0.290821	-174.897609
6.250000	-0.295019	-176.403255	-40.090394	-0.839117	-40.090394	-0.839117	-0.294733	-176.273280
6.300000	-0.298970	-177.785734	-39.984347	-2.692611	-39.984347	-2.692611	-0.298678	-177.653527
6.350000	-0.302953	-179.172808	-39.881033	-4.546177	-39.881033	-4.546177	-0.302655	-179.038326
6.400000	-0.306967	179.435362	-39.780437	-6.399837	-39.780437	-6.399837	-0.306662	179.572161
6.450000	-0.311012	178.038616	-39.682543	-8.253617	-39.682543	-8.253617	-0.310700	178.177775
6.500000	-0.315087	176.636792	-39.587336	-10.107552	-39.587336	-10.107552	-0.314768	176.778356
6.550000	-0.319190	175.229730	-39.494804	-11.961678	-39.494804	-11.961678	-0.318864	175.373742
6.600000	-0.323322	173.817268	-39.404937	-13.816043	-39.404937	-13.816043	-0.322989	173.963774
6.650000	-0.327480	172.399247	-39.317723	-15.670697	-39.317723	-15.670697	-0.327140	172.548292
6.700000	-0.331665	170.975506	-39.233154	-17.525700	-39.233154	-17.525700	-0.331318	171.127136
6.750000	-0.335876	169.545885	-39.151223	-19.381121	-39.151223	-19.381121	-0.335521	169.700146
6.800000	-0.340111	168.110224	-39.071924	-21.237034	-39.071924	-21.237034	-0.339749	168.267164
6.850000	-0.344369	166.668366	-38.995253	-23.093527	-38.995253	-23.093527	-0.344000	166.828032
6.900000	-0.348650	165.220152	-38.921206	-24.950696	-38.921206	-24.950696	-0.348273	165.382592
6.950000	-0.352951	163.765425	-38.849781	-26.808649	-38.849781	-26.808649	-0.352568	163.930688
7.000000	-0.357274	162.304030	-38.780979	-28.667505	-38.780979	-28.667505	-0.356883	162.472163
7.050000	-0.361615	160.835810	-38.714800	-30.527400	-38.714800	-30.527400	-0.361218	161.006865
7.100000	-0.365974	159.360614	-38.651248	-32.388482	-38.651248	-32.388482	-0.365571	159.534638
7.150000	-0.370350	157.878287	-38.590326	-34.250917	-38.590326	-34.250917	-0.369941	158.055332
7.200000	-0.374742	156.388681	-38.532040	-36.114890	-38.532040	-36.114890	-0.374326	156.568797
7.250000	-0.379148	154.891646	-38.476397	-37.980608	-38.476397	-37.980608	-0.378727	155.074883
7.300000	-0.383567	153.387034	-38.423404	-39.848299	-38.423404	-39.848299	-0.383141	153.573445
7.350000	-0.387998	151.874702	-38.373072	-41.718221	-38.373072	-41.718221	-0.387568	152.064338
7.400000	-0.392441	150.354505	-38.325411	-43.590661	-38.325411	-43.590661	-0.392007	150.547418
7.450000	-0.396893	148.826305	-38.280433	-45.465942	-38.280433	-45.465942	-0.396455	149.022547
7.500000	-0.401353	147.289962	-38.238151	-47.344428	-38.238151	-47.344428	-0.400913	147.489587
7.550000	-0.405821	145.744976	-38.198691	-49.226709	-38.198691	-49.226709	-0.405379	145.948038
7.600000	-0.410296	144.191567	-38.161958	-51.113121	-38.161958	-51.113121	-0.409852	144.398120
7.650000	-0.414775	142.629608	-38.127968	-53.004205	-38.127968	-53.004205	-0.414332	142.839705
7.700000	-0.419260	141.058971	-38.096737	-54.900580	-38.096737	-54.900580	-0.418816	141.272667
7.750000	-0.423747	139.479534	-38.068280	-56.802958	-38.068280	-56.802958	-0.423304	139.696883
7.800000	-0.428238	137.891177	-38.042613	-58.712158	-38.042613	-58.712158	-0.427796	138.112234
7.850000	-0.432730	136.293784	-38.019752	-60.629132	-38.019752	-60.629132	-0.432291	136.518603
7.900000	-0.437225	134.687242	-37.999713	-62.554981	-37.999713	-62.554981	-0.436789	134.915878
7.950000	-0.441721	133.071441	-37.982512	-64.490994	-37.982512	-64.490994	-0.441289	133.303950
8.000000	-0.446218	131.446275	-37.968162	-66.438677	-37.968162	-66.438677	-0.445791	131.682711
8.050000	-0.450717	129.811640	-37.956679	-68.399798	-37.956679	-68.399798	-0.450295	130.052058
8.100000	-0.455219	128.167436	-37.948078	-70.376443	-37.948078	-70.376443	-0.454803	128.411892
8.150000	-0.459723	126.513564	-37.942372	-72.371078	-37.942372	-72.371078	-0.459314	126.762114
8.200000	-0.464233	124.849930	-37.939576	-74.386630	-37.939576	-74.386630	-0.463831	125.102627
8.250000	-0.468749	123.176437	-37.939705	-76.426587	-37.939705	-76.426587	-0.468355	123.433338
8.300000	-0.473275	121.492993	-37.942775	-78.495120	-37.942775	-78.495120	-0.472889	121.754152
8.350000	-0.477814	119.799797	-37.948719	-80.596036	-37.948719	-80.596036	-0.477437	120.065266
8.400000	-0.482371	118.096028	-37.957766	-82.738111	-37.957766	-82.738111	-0.482004	118.365865
8.450000	-0.486952	116.382172	-37.969769	-84.926464	-37.969769	-84.926464	-0.486595	116.656428
8.500000	-0.491565	114.658124	-37.984751	-87.169664	-37.984751	-87.169664	-0.491218	114.936850
8.550000	-0.496220	112.923769	-38.002740	-89.478167	-38.002740	-89.478167	-0.495882	113.207014
8.600000	-0.500935	111.177805	-38.024094	-91.875211	-38.024094	-91.875211	-0.500608	111.465624
8.650000	-0.505726	109.421151	-38.048525	-94.370918	-38.048525	-94.370918	-0.505410	109.713589
8.700000	-0.510613	107.653680	-38.076022	-96.986122	-38.076022	-96.986122	-0.510309	107.950779
8.750000	-0.515628	105.875156	-38.106560	-99.747920	-38.106560	-99.747920	-0.515335	106.176956
8.800000	-0.520810	104.085283	-38.140051	-102.691173	-38.140051	-102.691173	-0.520531	104.391819
8.850000	-0.526215	102.283683	-38.176288	-105.861351	-38.176288	-105.861351	-0.525950	102.594982
8.900000	-0.531935	100.469307	-38.214892	-109.334743	-38.214892	-109.334743	-0.531687	100.785389
8.950000	-0.538114	98.640977	-38.254830	-113.220211	-38.254830	-113.220211	-0.537887	98.961849
9.000000	-0.544906	96.798638	-38.293996	-117.619538	-38.293996	-117.619538	-0.544706	97.124289
9.050000	-0.552477	94.942396	-38.329535	-122.632011	-38.329535	-122.632011	-0.552312	95.272798
9.100000	-0.561427	93.067681	-38.353201	-128.649568	-38.353201	-128.649568	-0.561314	93.402771
9.150000	-0.572429	91.173081	-38.350617	-136.023672	-38.350617	-136.023672	-0.572393	91.512754
9.200000	-0.586842	89.255101	-38.290453	-145.406133	-38.290453	-145.406133	-0.586927	89.599201
9.250000	-0.607238	87.310468	-38.106206	-157.820289	-38.106206	-157.820289	-0.607524	87.658792
9.300000	-0.638842	85.340825	-37.658672	-174.875028	-37.658672	-174.875028	-0.639481	85.693216
9.350000	-0.692479	83.376737	-36.689160	161.052592	-36.689160	161.052592	-0.693749	83.733524
9.400000	-0.785048	81.586808	-34.914266	126.920348	-34.914266	126.920348	-0.787354	81.950403
9.450000	-0.883960	80.468962	-32.820998	80.871750	-32.820998	80.871750	-0.887300	80.845401
9.500000	-0.826446	79.695452	-32.221593	31.253017	-32.221593	31.253017	-0.829861	80.089250
9.550000	-0.701245	78.012620	-33.121990	-5.750257	-33.121990	-5.750257	-0.703552	78.420018
9.600000	-0.633476	75.913219	-34.169063	-29.381922	-34.169063	-29.381922	-0.634715	76.327797
9.650000	-0.604083	73.794485	-34.964083	-44.973546	-34.964083	-44.973546	-0.604670	74.214192
9.700000	-0.591498	71.716660	-35.533890	-56.005827	-35.533890	-56.005827	-0.591697	72.141367
9.750000	-0.586544	69.673595	-35.946381	-64.258533	-35.946381	-64.258533	-0.586503	70.103607
9.800000	-0.585235	67.653168	-36.256392	-70.763833	-36.256392	-70.763833	-0.585033	68.088832
9.850000	-0.585883	65.647215	-36.495806	-76.070581	-36.495806	-76.070581	-0.585572	66.088845
9.900000	-0.587644	63.650208	-36.685553	-80.522824	-36.685553	-80.522824	-0.587257	64.098083
9.950000	-0.590069	61.658486	-36.839606	-84.347819	-36.839606	-84.347819	-0.589632	62.112857
10.000000	-0.592873	59.669425	-36.970278	-87.748162	-36.970278	-87.748162	-0.592404	60.130493
