! freq	dB(S11)	phase(S11)	dB(S12)	phase(S12)	
!     	dB(S21)	phase(S21)	dB(S22)	phase(S22)	
!S-par simulation data
#  GHz  S  DB  R 50
0.000000	0.000000	0.000000	-329.474978	0.000000	-329.474978	0.000000	-0.000000	0.000000
0.050000	-0.002407	-3.998866	-91.972928	87.676125	-91.972928	87.676125	-0.000448	-0.770019
0.100000	-0.008557	-7.980143	-85.980546	85.349978	-85.980546	85.349978	-0.001586	-1.537443
0.150000	-0.016330	-11.936344	-82.504523	83.027665	-82.504523	83.027665	-0.003015	-2.301563
0.200000	-0.024136	-15.868760	-80.067455	80.717147	-80.067455	80.717147	-0.004446	-3.063173
0.250000	-0.031234	-19.779286	-78.208469	78.425834	-78.208469	78.425834	-0.005750	-3.823209
0.300000	-0.037442	-23.668912	-76.722267	76.160175	-76.722267	76.160175	-0.006905	-4.582399
0.350000	-0.042876	-27.537799	-75.497350	73.924795	-75.497350	73.924795	-0.007938	-5.341150
0.400000	-0.047678	-31.384145	-74.468614	71.725220	-74.468614	71.725220	-0.008879	-6.099615
0.450000	-0.051976	-35.204478	-73.596140	69.569066	-73.596140	69.569066	-0.009756	-6.857828
0.500000	-0.055918	-38.997586	-72.848586	67.460097	-72.848586	67.460097	-0.010595	-7.615786
0.550000	-0.059595	-42.761110	-72.205547	65.404276	-72.205547	65.404276	-0.011412	-8.373451
0.600000	-0.063069	-46.491212	-71.654285	63.411093	-71.654285	63.411093	-0.012221	-9.130761
0.650000	-0.066399	-50.186906	-71.181644	61.485632	-71.181644	61.485632	-0.013031	-9.887678
0.700000	-0.069623	-53.846717	-70.778382	59.634739	-70.778382	59.634739	-0.013847	-10.644161
0.750000	-0.072763	-57.467840	-70.439065	57.869429	-70.439065	57.869429	-0.014673	-11.400151
0.800000	-0.075836	-61.048899	-70.158033	56.199287	-70.158033	56.199287	-0.015514	-12.155610
0.850000	-0.078854	-64.589164	-69.930255	54.633959	-69.930255	54.633959	-0.016368	-12.910505
0.900000	-0.081823	-68.087753	-69.751976	53.185209	-69.751976	53.185209	-0.017239	-13.664804
0.950000	-0.084744	-71.543716	-69.620333	51.867183	-69.620333	51.867183	-0.018124	-14.418474
1.000000	-0.087617	-74.956456	-69.532723	50.695624	-69.532723	50.695624	-0.019024	-15.171485
1.050000	-0.090441	-78.325564	-69.486829	49.688621	-69.486829	49.688621	-0.019939	-15.923811
1.100000	-0.093211	-81.650805	-69.480481	48.867017	-69.480481	48.867017	-0.020867	-16.675426
1.150000	-0.095925	-84.932108	-69.511497	48.254844	-69.511497	48.254844	-0.021807	-17.426309
1.200000	-0.098577	-88.169552	-69.577499	47.879743	-69.577499	47.879743	-0.022758	-18.176437
1.250000	-0.101165	-91.363354	-69.675692	47.773327	-69.675692	47.773327	-0.023720	-18.925791
1.300000	-0.103683	-94.512926	-69.803043	47.978886	-69.803043	47.978886	-0.024691	-19.674334
1.350000	-0.106128	-97.619682	-69.954213	48.530517	-69.954213	48.530517	-0.025669	-20.422067
1.400000	-0.108499	-100.684187	-70.123014	49.470981	-70.123014	49.470981	-0.026655	-21.168973
1.450000	-0.110793	-103.707096	-70.301217	50.843640	-70.301217	50.843640	-0.027646	-21.915037
1.500000	-0.113009	-106.689144	-70.478035	52.688394	-70.478035	52.688394	-0.028642	-22.660247
1.550000	-0.115146	-109.631131	-70.639734	55.035222	-70.639734	55.035222	-0.029642	-23.404588
1.600000	-0.117205	-112.533921	-70.769598	57.895125	-70.769598	57.895125	-0.030645	-24.148050
1.650000	-0.119186	-115.398424	-70.848580	61.249277	-70.848580	61.249277	-0.031649	-24.890623
1.700000	-0.121091	-118.225591	-70.856929	65.038850	-70.856929	65.038850	-0.032655	-25.632298
1.750000	-0.122922	-121.016411	-70.776826	69.159775	-70.776826	69.159775	-0.033660	-26.373066
1.800000	-0.124682	-123.771895	-70.595577	73.467099	-70.595577	73.467099	-0.034663	-27.112922
1.850000	-0.126374	-126.493077	-70.308302	77.791000	-70.308302	77.791000	-0.035662	-27.851861
1.900000	-0.128002	-129.180655	-69.917792	81.957894	-69.917792	81.957894	-0.036655	-28.589870
1.950000	-0.129570	-131.835722	-69.436157	85.818455	-69.436157	85.818455	-0.037638	-29.326944
2.000000	-0.131083	-134.459702	-68.881804	89.272827	-68.881804	89.272827	-0.038606	-30.063088
2.050000	-0.132546	-137.053657	-68.273588	92.264840	-68.273588	92.264840	-0.039551	-30.798288
2.100000	-0.133965	-139.618646	-67.629465	94.777811	-67.629465	94.777811	-0.040465	-31.532512
2.150000	-0.135343	-142.155722	-66.964919	96.824122	-66.964919	96.824122	-0.041334	-32.265694
2.200000	-0.136687	-144.665929	-66.292366	98.434423	-66.292366	98.434423	-0.042149	-32.997705
2.250000	-0.138002	-147.150299	-65.621215	99.648762	-65.621215	99.648762	-0.042907	-33.728343
2.300000	-0.139292	-149.609854	-64.958260	100.510304	-64.958260	100.510304	-0.043622	-34.457359
2.350000	-0.140563	-152.045599	-64.308191	101.061408	-64.308191	101.061408	-0.044340	-35.184571
2.400000	-0.141819	-154.458523	-63.674080	101.341470	-63.674080	101.341470	-0.045119	-35.910018
2.450000	-0.143065	-156.849602	-63.057808	101.385943	-63.057808	101.385943	-0.045999	-36.633988
2.500000	-0.144306	-159.219789	-62.460390	101.226087	-62.460390	101.226087	-0.046985	-37.356847
2.550000	-0.145545	-161.569612	-61.881850	100.885805	-61.881850	100.885805	-0.048048	-38.078822
2.600000	-0.146788	-163.900443	-61.322665	100.392808	-61.322665	100.392808	-0.049154	-38.800002
2.650000	-0.148037	-166.213182	-60.782526	99.767110	-60.782526	99.767110	-0.050277	-39.520345
2.700000	-0.149297	-168.508709	-60.260945	99.025907	-60.260945	99.025907	-0.051403	-40.239773
2.750000	-0.150570	-170.787029	-59.756726	98.178986	-59.756726	98.178986	-0.052524	-40.958151
2.800000	-0.151859	-173.050584	-59.270379	97.248799	-59.270379	97.248799	-0.053639	-41.675510
2.850000	-0.153168	-175.299474	-58.800670	96.241655	-58.800670	96.241655	-0.054748	-42.391759
2.900000	-0.154498	-177.534505	-58.346907	95.166971	-58.346907	95.166971	-0.055852	-43.106857
2.950000	-0.155851	-179.756464	-57.908406	94.032906	-57.908406	94.032906	-0.056951	-43.820774
3.000000	-0.157231	178.033879	-57.484505	92.846551	-57.484505	92.846551	-0.058049	-44.533487
3.050000	-0.158638	175.835772	-57.074566	91.614085	-57.074566	91.614085	-0.059145	-45.244975
3.100000	-0.160075	173.648479	-56.677982	90.340914	-56.677982	90.340914	-0.060242	-45.955223
3.150000	-0.161542	171.471282	-56.294176	89.031781	-56.294176	89.031781	-0.061341	-46.664216
3.200000	-0.163041	169.303476	-55.922604	87.690866	-55.922604	87.690866	-0.062443	-47.371943
3.250000	-0.164573	167.144375	-55.562751	86.321862	-55.562751	86.321862	-0.063549	-48.078392
3.300000	-0.166139	164.993305	-55.214134	84.928049	-55.214134	84.928049	-0.064659	-48.783554
3.350000	-0.167740	162.849610	-54.876301	83.512345	-54.876301	83.512345	-0.065776	-49.487418
3.400000	-0.169377	160.712643	-54.548823	82.077362	-54.548823	82.077362	-0.066899	-50.189977
3.450000	-0.171050	158.581774	-54.231302	80.625444	-54.231302	80.625444	-0.068029	-50.891221
3.500000	-0.172760	156.456386	-53.923362	79.158704	-53.923362	79.158704	-0.069167	-51.591144
3.550000	-0.174508	154.335871	-53.624651	77.679055	-53.624651	77.679055	-0.070313	-52.289738
3.600000	-0.176294	152.219636	-53.334839	76.188234	-53.334839	76.188234	-0.071469	-52.986995
3.650000	-0.178118	150.107096	-53.053616	74.687831	-53.053616	74.687831	-0.072635	-53.682910
3.700000	-0.179982	147.997679	-52.780690	73.179300	-52.780690	73.179300	-0.073811	-54.377476
3.750000	-0.181885	145.890821	-52.515788	71.663985	-52.515788	71.663985	-0.074997	-55.070686
3.800000	-0.183829	143.786029	-52.258658	70.142942	-52.258658	70.142942	-0.076196	-55.762477
3.850000	-0.185815	141.682645	-52.009070	68.617612	-52.009070	68.617612	-0.077407	-56.452901
3.900000	-0.187841	139.580132	-51.766792	67.089069	-51.766792	67.089069	-0.078630	-57.141954
3.950000	-0.189909	137.477958	-51.531609	65.558323	-51.531609	65.558323	-0.079867	-57.829630
4.000000	-0.192020	135.375598	-51.303315	64.026333	-51.303315	64.026333	-0.081117	-58.515926
4.050000	-0.194175	133.272532	-51.081716	62.494008	-51.081716	62.494008	-0.082381	-59.200838
4.100000	-0.196374	131.168243	-50.866630	60.962221	-50.866630	60.962221	-0.083659	-59.884361
4.150000	-0.198618	129.062217	-50.657882	59.431812	-50.657882	59.431812	-0.084952	-60.566492
4.200000	-0.200910	126.953943	-50.455307	57.903592	-50.455307	57.903592	-0.086261	-61.247228
4.250000	-0.203249	124.842910	-50.258748	56.378351	-50.258748	56.378351	-0.087585	-61.926567
4.300000	-0.205639	122.728609	-50.068055	54.856862	-50.068055	54.856862	-0.088926	-62.604505
4.350000	-0.208080	120.610527	-49.883085	53.339887	-49.883085	53.339887	-0.090283	-63.281041
4.400000	-0.210576	118.488149	-49.703702	51.828175	-49.703702	51.828175	-0.091657	-63.956172
4.450000	-0.213128	116.360958	-49.529772	50.322475	-49.529772	50.322475	-0.093050	-64.629897
4.500000	-0.215739	114.228427	-49.361171	48.823531	-49.361171	48.823531	-0.094460	-65.302215
4.550000	-0.218412	112.090026	-49.197773	47.332091	-49.197773	47.332091	-0.095888	-65.973124
4.600000	-0.221151	109.945213	-49.039461	45.848908	-49.039461	45.848908	-0.097335	-66.642624
4.650000	-0.223960	107.793435	-48.886118	44.374741	-48.886118	44.374741	-0.098802	-67.310714
4.700000	-0.226842	105.634127	-48.737630	42.910363	-48.737630	42.910363	-0.100288	-67.977394
4.750000	-0.229803	103.466706	-48.593885	41.456559	-48.593885	41.456559	-0.101794	-68.642665
4.800000	-0.232848	101.290571	-48.454772	40.014133	-48.454772	40.014133	-0.103320	-69.306527
4.850000	-0.235983	99.105100	-48.320180	38.583905	-48.320180	38.583905	-0.104868	-69.968980
4.900000	-0.239214	96.909646	-48.189998	37.166719	-48.189998	37.166719	-0.106436	-70.630026
4.950000	-0.242550	94.703532	-48.064115	35.763444	-48.064115	35.763444	-0.108027	-71.289666
5.000000	-0.245998	92.486051	-47.942416	34.374974	-47.942416	34.374974	-0.109639	-71.947901
5.050000	-0.249572	90.255892	-47.824891	33.002961	-47.824891	33.002961	-0.111275	-72.604673
5.100000	-0.253280	88.012755	-47.711312	31.647721	-47.711312	31.647721	-0.112933	-73.260045
5.150000	-0.257131	85.755799	-47.601553	30.310248	-47.601553	30.310248	-0.114615	-73.914020
5.200000	-0.261139	83.484124	-47.495483	28.991570	-47.495483	28.991570	-0.116321	-74.566599
5.250000	-0.265308	81.197658	-47.392840	27.691633	-47.392840	27.691633	-0.118049	-75.217863
5.300000	-0.269671	78.893845	-47.293703	26.413477	-47.293703	26.413477	-0.119803	-75.867677
5.350000	-0.274237	76.572242	-47.197815	25.157400	-47.197815	25.157400	-0.121581	-76.516106
5.400000	-0.279027	74.231653	-47.105010	23.924581	-47.105010	23.924581	-0.123385	-77.163154
5.450000	-0.284063	71.870781	-47.015107	22.716242	-47.015107	22.716242	-0.125214	-77.808825
5.500000	-0.289368	69.488212	-46.927912	21.533644	-46.927912	21.533644	-0.127069	-78.453124
5.550000	-0.294972	67.082406	-46.843215	20.378085	-46.843215	20.378085	-0.128950	-79.096054
5.600000	-0.300904	64.651675	-46.760784	19.250900	-46.760784	19.250900	-0.130858	-79.737622
5.650000	-0.307204	62.193851	-46.680380	18.153793	-46.680380	18.153793	-0.132794	-80.377817
5.700000	-0.313913	59.706813	-46.601717	17.088206	-46.601717	17.088206	-0.134757	-81.016645
5.750000	-0.321071	57.188579	-46.524475	16.055230	-46.524475	16.055230	-0.136748	-81.654127
5.800000	-0.328731	54.636624	-46.448319	15.056287	-46.448319	15.056287	-0.138767	-82.290268
5.850000	-0.336950	52.048143	-46.372876	14.092800	-46.372876	14.092800	-0.140814	-82.925074
5.900000	-0.345795	49.420003	-46.297737	13.166171	-46.297737	13.166171	-0.142891	-83.558553
5.950000	-0.355341	46.748701	-46.222448	12.277765	-46.222448	12.277765	-0.144997	-84.190710
6.000000	-0.365676	44.030299	-46.146507	11.428884	-46.146507	11.428884	-0.147132	-84.821552
6.050000	-0.376901	41.260365	-46.069360	10.620737	-46.069360	10.620737	-0.149297	-85.451088
6.100000	-0.389132	38.433892	-45.990391	9.854402	-45.990391	9.854402	-0.151493	-86.079323
6.150000	-0.402506	35.545200	-45.908922	9.130778	-45.908922	9.130778	-0.153720	-86.706266
6.200000	-0.417179	32.587830	-45.824203	8.450527	-45.824203	8.450527	-0.155977	-87.331924
6.250000	-0.433338	29.554409	-45.735406	7.814005	-45.735406	7.814005	-0.158266	-87.956306
6.300000	-0.451242	26.434425	-45.641462	7.222113	-45.641462	7.222113	-0.160588	-88.579392
6.350000	-0.471120	23.219707	-45.541465	6.673320	-45.541465	6.673320	-0.162942	-89.201219
6.400000	-0.493282	19.898905	-45.434306	6.166407	-45.434306	6.166407	-0.165329	-89.821795
6.450000	-0.518097	16.458849	-45.318771	5.699352	-45.318771	5.699352	-0.167748	-90.441130
6.500000	-0.546010	12.884187	-45.193540	5.269140	-45.193540	5.269140	-0.170201	-91.059231
6.550000	-0.577553	9.156944	-45.057187	4.871523	-45.057187	4.871523	-0.172687	-91.676110
6.600000	-0.613374	5.255988	-44.908183	4.500745	-44.908183	4.500745	-0.175208	-92.291775
6.650000	-0.654258	1.156350	-44.744908	4.149194	-44.744908	4.149194	-0.177763	-92.906235
6.700000	-0.701155	-3.171289	-44.565695	3.807029	-44.565695	3.807029	-0.180354	-93.519503
6.750000	-0.755291	-7.764262	-44.368650	3.461549	-44.368650	3.461549	-0.182979	-94.131579
6.800000	-0.817907	-12.657811	-44.152613	3.097343	-44.152613	3.097343	-0.185640	-94.742501
6.850000	-0.891068	-17.914060	-43.915093	2.693609	-43.915093	2.693609	-0.188338	-95.352239
6.900000	-0.976839	-23.591491	-43.654972	2.225666	-43.654972	2.225666	-0.191073	-95.960817
6.950000	-1.077842	-29.765488	-43.371239	1.663153	-43.371239	1.663153	-0.193845	-96.568247
7.000000	-1.197013	-36.521475	-43.063865	0.971019	-43.063865	0.971019	-0.196654	-97.174548
7.050000	-1.337969	-43.971552	-42.733354	0.106105	-42.733354	0.106105	-0.199502	-97.779724
7.100000	-1.504584	-52.249527	-42.381804	-0.981274	-42.381804	-0.981274	-0.202388	-98.383778
7.150000	-1.700087	-61.497188	-42.013935	-2.341396	-42.013935	-2.341396	-0.205313	-98.986733
7.200000	-1.926729	-71.888394	-41.636751	-4.028991	-41.636751	-4.028991	-0.208278	-99.588594
7.250000	-2.183445	-83.607637	-41.260821	-6.093818	-41.260821	-6.093818	-0.211281	-100.189368
7.300000	-2.462608	-96.821410	-40.900706	-8.569104	-40.900706	-8.569104	-0.214325	-100.789063
7.350000	-2.746347	-111.630317	-40.574313	-11.457952	-40.574313	-11.457952	-0.217407	-101.387696
7.400000	-3.003772	-128.011566	-40.301630	-14.723154	-40.301630	-14.723154	-0.220529	-101.985274
7.450000	-3.194036	-145.711193	-40.101308	-18.272183	-40.101308	-18.272183	-0.223691	-102.581811
7.500000	-3.278454	-164.212077	-39.986813	-21.963298	-39.986813	-21.963298	-0.226892	-103.177323
7.550000	-3.237499	177.209052	-39.963342	-25.622142	-39.963342	-25.622142	-0.230132	-103.771818
7.600000	-3.083390	159.299887	-40.024716	-29.073562	-40.024716	-29.073562	-0.233411	-104.365317
7.650000	-2.851302	142.632552	-40.156111	-32.173565	-40.156111	-32.173565	-0.236731	-104.957832
7.700000	-2.582779	127.517942	-40.337046	-34.828755	-40.337046	-34.828755	-0.240090	-105.549377
7.750000	-2.311624	114.018815	-40.545381	-37.005218	-40.545381	-37.005218	-0.243489	-106.139969
7.800000	-2.058758	102.057728	-40.761097	-38.712678	-40.761097	-38.712678	-0.246930	-106.729618
7.850000	-1.833929	91.466199	-40.968002	-39.998581	-40.968002	-39.998581	-0.250411	-107.318343
7.900000	-1.639724	82.066147	-41.154267	-40.924351	-41.154267	-40.924351	-0.253933	-107.906157
7.950000	-1.474911	73.687521	-41.311874	-41.557251	-41.311874	-41.557251	-0.257498	-108.493069
8.000000	-1.336438	66.174958	-41.436122	-41.964687	-41.436122	-41.964687	-0.261104	-109.079088
8.050000	-1.220453	59.384741	-41.525389	-42.210801	-41.525389	-42.210801	-0.264753	-109.664237
8.100000	-1.123565	53.206358	-41.579350	-42.349015	-41.579350	-42.349015	-0.268444	-110.248526
8.150000	-1.042717	47.545840	-41.598930	-42.425577	-41.598930	-42.425577	-0.272177	-110.831969
8.200000	-0.975312	42.325095	-41.585759	-42.479521	-41.585759	-42.479521	-0.275953	-111.414576
8.250000	-0.919205	37.479226	-41.541839	-42.543646	-41.541839	-42.543646	-0.279771	-111.996359
8.300000	-0.872654	32.954132	-41.469284	-42.645743	-41.469284	-42.645743	-0.283631	-112.577330
8.350000	-0.834305	28.705603	-41.370023	-42.810345	-41.370023	-42.810345	-0.287532	-113.157495
8.400000	-0.803094	24.695814	-41.245810	-43.060195	-41.245810	-43.060195	-0.291474	-113.736860
8.450000	-0.778145	20.889612	-41.098464	-43.416023	-41.098464	-43.416023	-0.295455	-114.315441
8.500000	-0.758915	17.258814	-40.929171	-43.900570	-40.929171	-43.900570	-0.299474	-114.893245
8.550000	-0.745126	13.778484	-40.738683	-44.540475	-40.738683	-44.540475	-0.303528	-115.470275
8.600000	-0.736806	10.425949	-40.527255	-45.369819	-40.527255	-45.369819	-0.307612	-116.046535
8.650000	-0.734394	7.179813	-40.294598	-46.435589	-40.294598	-46.435589	-0.311721	-116.622022
8.700000	-0.738955	4.018901	-40.039902	-47.806767	-40.039902	-47.806767	-0.315843	-117.196731
8.750000	-0.752623	0.921145	-39.762077	-49.590450	-39.762077	-49.590450	-0.319964	-117.770656
8.800000	-0.779831	-2.137105	-39.460271	-51.975303	-39.460271	-51.975303	-0.324054	-118.343790
8.850000	-0.828944	-5.180821	-39.139178	-55.270583	-39.139178	-55.270583	-0.328059	-118.916205
8.900000	-0.916832	-8.219956	-38.820360	-60.031293	-38.820360	-60.031293	-0.331887	-119.488174
8.950000	-1.082555	-11.171279	-38.594290	-67.447599	-38.594290	-67.447599	-0.335360	-120.060773
9.000000	-1.385404	-13.512983	-38.809931	-79.454827	-38.809931	-79.454827	-0.338361	-120.637758
9.050000	-1.741669	-13.543094	-40.731729	-96.849618	-40.731729	-96.849618	-0.341936	-121.226296
9.100000	-1.593295	-11.968206	-46.734202	-101.289919	-46.734202	-101.289919	-0.348502	-121.814811
9.150000	-1.160153	-13.232612	-49.398306	-48.886765	-49.398306	-48.886765	-0.355694	-122.385433
9.200000	-0.903292	-16.037494	-45.316046	-31.496633	-45.316046	-31.496633	-0.361677	-122.949583
9.250000	-0.780479	-18.938783	-43.059286	-31.163656	-43.059286	-31.163656	-0.366996	-123.513925
9.300000	-0.721536	-21.670635	-41.760684	-33.123883	-41.760684	-33.123883	-0.372068	-124.079142
9.350000	-0.692601	-24.234681	-40.898007	-35.273646	-40.898007	-35.273646	-0.377070	-124.644907
9.400000	-0.678174	-26.676308	-40.250846	-37.304340	-40.250846	-37.304340	-0.382071	-125.210895
9.450000	-0.672399	-29.020464	-39.732290	-39.185497	-39.732290	-39.185497	-0.387098	-125.776931
9.500000	-0.672221	-31.282888	-39.296490	-40.931683	-39.296490	-40.931683	-0.392167	-126.342880
9.550000	-0.675382	-33.485731	-38.911470	-42.585652	-38.911470	-42.585652	-0.397282	-126.908679
9.600000	-0.680973	-35.638914	-38.562279	-44.171302	-38.562279	-44.171302	-0.402445	-127.474291
9.650000	-0.688475	-37.748853	-38.239430	-45.706697	-38.239430	-45.706697	-0.407661	-128.039687
9.700000	-0.697534	-39.821157	-37.936140	-47.207526	-37.936140	-47.207526	-0.412932	-128.604850
9.750000	-0.707833	-41.862734	-37.647473	-48.687339	-37.647473	-48.687339	-0.418255	-129.169793
9.800000	-0.719389	-43.873472	-37.370529	-50.153622	-37.370529	-50.153622	-0.423638	-129.734485
9.850000	-0.731829	-45.863444	-37.102601	-51.615821	-37.102601	-51.615821	-0.429068	-130.298992
9.900000	-0.745215	-47.832203	-36.842340	-53.077620	-36.842340	-53.077620	-0.434552	-130.863301
9.950000	-0.759508	-49.782027	-36.588482	-54.543264	-36.588482	-54.543264	-0.440089	-131.427420
10.000000	-0.774685	-51.714941	-36.340049	-56.016247	-36.340049	-56.016247	-0.445679	-131.991365
