! freq	dB(S11)	phase(S11)	dB(S12)	phase(S12)	
!     	dB(S21)	phase(S21)	dB(S22)	phase(S22)	
!S-par simulation data
#  GHz  S  DB  R 50
0.000000	-0.000000	0.000000	-358.374231	180.000000	-358.374231	180.000000	-0.000000	0.000000
0.050000	-0.002049	-3.173956	-97.525695	88.067014	-97.525695	88.067014	-0.000629	-0.815758
0.100000	-0.007003	-6.332196	-91.535742	86.137699	-91.535742	86.137699	-0.001821	-1.633626
0.150000	-0.012809	-9.471613	-88.065342	84.216254	-88.065342	84.216254	-0.003143	-2.450297
0.200000	-0.018318	-12.597121	-85.637510	82.307239	-85.637510	82.307239	-0.004520	-3.264559
0.250000	-0.023225	-15.713099	-83.792045	80.416909	-83.792045	80.416909	-0.005886	-4.076386
0.300000	-0.027608	-18.822150	-82.324207	78.552627	-82.324207	78.552627	-0.007185	-4.886189
0.350000	-0.031643	-21.925348	-81.122601	76.721182	-81.122601	76.721182	-0.008394	-5.694496
0.400000	-0.035455	-25.022508	-80.122691	74.931104	-80.122691	74.931104	-0.009511	-6.501670
0.450000	-0.039130	-28.112675	-79.285736	73.194307	-79.285736	73.194307	-0.010539	-7.307956
0.500000	-0.042729	-31.195334	-78.580359	71.518682	-78.580359	71.518682	-0.011497	-8.113583
0.550000	-0.046281	-34.269587	-77.986837	69.915489	-77.986837	69.915489	-0.012400	-8.918660
0.600000	-0.049802	-37.334046	-77.493943	68.402167	-77.493943	68.402167	-0.013258	-9.723227
0.650000	-0.053298	-40.388127	-77.088844	66.991234	-77.088844	66.991234	-0.014085	-10.527332
0.700000	-0.056772	-43.431105	-76.763066	65.699094	-76.763066	65.699094	-0.014890	-11.330988
0.750000	-0.060222	-46.461820	-76.512720	64.551151	-76.512720	64.551151	-0.015681	-12.134176
0.800000	-0.063644	-49.479545	-76.333172	63.573491	-76.333172	63.573491	-0.016462	-12.936886
0.850000	-0.067035	-52.483764	-76.220207	62.795618	-76.220207	62.795618	-0.017240	-13.739107
0.900000	-0.070391	-55.473913	-76.170920	62.255068	-76.170920	62.255068	-0.018016	-14.540827
0.950000	-0.073708	-58.449405	-76.183115	61.999485	-76.183115	61.999485	-0.018795	-15.342032
1.000000	-0.076982	-61.409767	-76.254155	62.086668	-76.254155	62.086668	-0.019579	-16.142715
1.050000	-0.080210	-64.354592	-76.380564	62.587626	-76.380564	62.587626	-0.020372	-16.942874
1.100000	-0.083389	-67.283536	-76.557076	63.588724	-76.557076	63.588724	-0.021180	-17.742513
1.150000	-0.086515	-70.196312	-76.775229	65.192685	-76.775229	65.192685	-0.022011	-18.541636
1.200000	-0.089588	-73.092691	-77.021369	67.516346	-77.021369	67.516346	-0.022877	-19.340240
1.250000	-0.092605	-75.972498	-77.274057	70.681447	-77.274057	70.681447	-0.023796	-20.138293
1.300000	-0.095563	-78.835246	-77.499660	74.814370	-77.499660	74.814370	-0.024792	-20.935687
1.350000	-0.098463	-81.681224	-77.653602	79.936810	-77.653602	79.936810	-0.025883	-21.732241
1.400000	-0.101306	-84.510406	-77.682670	85.968030	-77.682670	85.968030	-0.027075	-22.527666
1.450000	-0.104090	-87.322811	-77.535618	92.659393	-77.535618	92.659393	-0.028348	-23.321652
1.500000	-0.106816	-90.118499	-77.179579	99.603900	-77.179579	99.603900	-0.029657	-24.114000
1.550000	-0.109486	-92.897565	-76.613349	106.327395	-76.613349	106.327395	-0.030951	-24.904710
1.600000	-0.112100	-95.660143	-75.867490	112.420204	-75.867490	112.420204	-0.032192	-25.693952
1.650000	-0.114661	-98.406397	-74.991219	117.628767	-74.991219	117.628767	-0.033368	-26.481947
1.700000	-0.117169	-101.136523	-74.036024	121.866705	-74.036024	121.866705	-0.034482	-27.268879
1.750000	-0.119628	-103.850745	-73.044914	125.169342	-73.044914	125.169342	-0.035548	-28.054854
1.800000	-0.122040	-106.549312	-72.048965	127.636292	-72.048965	127.636292	-0.036581	-28.839916
1.850000	-0.124406	-109.232498	-71.068399	129.388330	-71.068399	129.388330	-0.037593	-29.624063
1.900000	-0.126730	-111.900437	-70.114507	130.537755	-70.114507	130.537755	-0.038593	-30.407261
1.950000	-0.129015	-114.553453	-69.194053	131.191381	-69.194053	131.191381	-0.039587	-31.189479
2.000000	-0.131263	-117.192045	-68.310596	131.441918	-68.310596	131.441918	-0.040580	-31.970691
2.050000	-0.133478	-119.816559	-67.464688	131.360083	-67.464688	131.360083	-0.041574	-32.750865
2.100000	-0.135662	-122.427358	-66.655636	131.003251	-66.655636	131.003251	-0.042571	-33.529969
2.150000	-0.137820	-125.024815	-65.882059	130.417801	-65.882059	130.417801	-0.043572	-34.307976
2.200000	-0.139953	-127.609315	-65.142239	129.641245	-65.142239	129.641245	-0.044578	-35.084860
2.250000	-0.142064	-130.181250	-64.434324	128.704017	-64.434324	128.704017	-0.045588	-35.860598
2.300000	-0.144157	-132.741022	-63.756452	127.630927	-63.756452	127.630927	-0.046604	-36.635167
2.350000	-0.146233	-135.289036	-63.106818	126.442310	-63.106818	126.442310	-0.047625	-37.408549
2.400000	-0.148296	-137.825704	-62.483714	125.154937	-62.483714	125.154937	-0.048651	-38.180724
2.450000	-0.150348	-140.351441	-61.885541	123.782727	-61.885541	123.782727	-0.049683	-38.951676
2.500000	-0.152392	-142.866664	-61.310820	122.337302	-61.310820	122.337302	-0.050720	-39.721388
2.550000	-0.154428	-145.371583	-60.757902	120.827244	-60.757902	120.827244	-0.051764	-40.489817
2.600000	-0.156460	-147.866846	-60.225873	119.262313	-60.225873	119.262313	-0.052813	-41.256976
2.650000	-0.158488	-150.352871	-59.713574	117.649466	-59.713574	117.649466	-0.053868	-42.022850
2.700000	-0.160516	-152.830076	-59.219941	115.994660	-59.219941	115.994660	-0.054929	-42.787427
2.750000	-0.162543	-155.298874	-58.743998	114.303031	-58.743998	114.303031	-0.055997	-43.550693
2.800000	-0.164572	-157.759677	-58.284850	112.579022	-58.284850	112.579022	-0.057070	-44.312637
2.850000	-0.166604	-160.212894	-57.841676	110.826507	-57.841676	110.826507	-0.058151	-45.073246
2.900000	-0.168638	-162.658926	-57.413718	109.048871	-57.413718	109.048871	-0.059239	-45.832511
2.950000	-0.170677	-165.098172	-57.000279	107.249096	-57.000279	107.249096	-0.060334	-46.590419
3.000000	-0.172721	-167.531024	-56.600716	105.429813	-56.600716	105.429813	-0.061436	-47.346960
3.050000	-0.174770	-169.957866	-56.214435	103.593360	-56.214435	103.593360	-0.062546	-48.102125
3.100000	-0.176824	-172.379076	-55.840885	101.741820	-55.840885	101.741820	-0.063664	-48.855904
3.150000	-0.178884	-174.794973	-55.479526	99.876936	-55.479526	99.876936	-0.064791	-49.608272
3.200000	-0.180950	-177.205932	-55.129898	98.000436	-55.129898	98.000436	-0.065927	-50.359221
3.250000	-0.183021	-179.612361	-54.791596	96.113969	-54.791596	96.113969	-0.067072	-51.108756
3.300000	-0.185097	177.985393	-54.464206	94.218899	-54.464206	94.218899	-0.068226	-51.856871
3.350000	-0.187178	175.586997	-54.147344	92.316467	-54.147344	92.316467	-0.069391	-52.603558
3.400000	-0.189263	173.192125	-53.840648	90.407805	-53.840648	90.407805	-0.070565	-53.348809
3.450000	-0.191353	170.800463	-53.543784	88.493952	-53.543784	88.493952	-0.071750	-54.092617
3.500000	-0.193445	168.411705	-53.256436	86.575861	-53.256436	86.575861	-0.072947	-54.834975
3.550000	-0.195540	166.025560	-52.978310	84.654411	-52.978310	84.654411	-0.074155	-55.575879
3.600000	-0.197636	163.641746	-52.709131	82.730415	-52.709131	82.730415	-0.075374	-56.315321
3.650000	-0.199734	161.259991	-52.448638	80.804626	-52.448638	80.804626	-0.076607	-57.053297
3.700000	-0.201831	158.880037	-52.196591	78.877746	-52.196591	78.877746	-0.077851	-57.789801
3.750000	-0.203927	156.501637	-51.952761	76.950429	-51.952761	76.950429	-0.079109	-58.524829
3.800000	-0.206021	154.124583	-51.716972	75.023306	-51.716972	75.023306	-0.080381	-59.258344
3.850000	-0.208112	151.748617	-51.488999	73.096963	-51.488999	73.096963	-0.081667	-59.990374
3.900000	-0.210199	149.373534	-51.268653	71.171941	-51.268653	71.171941	-0.082967	-60.720916
3.950000	-0.212280	146.999138	-51.055761	69.248757	-51.055761	69.248757	-0.084282	-61.449966
4.000000	-0.214356	144.625248	-50.850160	67.327904	-50.850160	67.327904	-0.085613	-62.177522
4.050000	-0.216424	142.251694	-50.651698	65.409854	-50.651698	65.409854	-0.086959	-62.903581
4.100000	-0.218484	139.878324	-50.460233	63.495064	-50.460233	63.495064	-0.088321	-63.628141
4.150000	-0.220534	137.504994	-50.275636	61.583980	-50.275636	61.583980	-0.089700	-64.351201
4.200000	-0.222575	135.131578	-50.097786	59.677038	-50.097786	59.677038	-0.091096	-65.072758
4.250000	-0.224604	132.757962	-49.926572	57.774669	-49.926572	57.774669	-0.092510	-65.792812
4.300000	-0.226622	130.384045	-49.761895	55.877303	-49.761895	55.877303	-0.093941	-66.511362
4.350000	-0.228627	128.009740	-49.603660	53.985371	-49.603660	53.985371	-0.095391	-67.228408
4.400000	-0.230618	125.634969	-49.451827	52.099380	-49.451827	52.099380	-0.096859	-67.943934
4.450000	-0.232595	123.259671	-49.306325	50.219794	-49.306325	50.219794	-0.098347	-68.657940
4.500000	-0.234557	120.883806	-49.167049	48.347010	-49.167049	48.347010	-0.099855	-69.370443
4.550000	-0.236504	118.507342	-49.033940	46.481509	-49.033940	46.481509	-0.101383	-70.081444
4.600000	-0.238436	116.130262	-48.906947	44.623792	-48.906947	44.623792	-0.102931	-70.790946
4.650000	-0.240352	113.752558	-48.786026	42.774387	-48.786026	42.774387	-0.104501	-71.498949
4.700000	-0.242252	111.374240	-48.671140	40.933850	-48.671140	40.933850	-0.106091	-72.205456
4.750000	-0.244136	108.995325	-48.562259	39.102773	-48.562259	39.102773	-0.107704	-72.910469
4.800000	-0.246004	106.615847	-48.459357	37.281786	-48.459357	37.281786	-0.109338	-73.613992
4.850000	-0.247857	104.235848	-48.362418	35.471564	-48.362418	35.471564	-0.110996	-74.316027
4.900000	-0.249695	101.855384	-48.271425	33.672824	-48.271425	33.672824	-0.112676	-75.016579
4.950000	-0.251519	99.474521	-48.186370	31.886341	-48.186370	31.886341	-0.114380	-75.715651
5.000000	-0.253329	97.093334	-48.107248	30.112943	-48.107248	30.112943	-0.116108	-76.413247
5.050000	-0.255126	94.711906	-48.034172	28.353844	-48.034172	28.353844	-0.117860	-77.109340
5.100000	-0.256911	92.330342	-47.967031	26.609721	-47.967031	26.609721	-0.119637	-77.803967
5.150000	-0.258686	89.948745	-47.905824	24.881602	-47.905824	24.881602	-0.121440	-78.497133
5.200000	-0.260453	87.567228	-47.850554	23.170593	-47.850554	23.170593	-0.123268	-79.188845
5.250000	-0.262213	85.185911	-47.801221	21.477874	-47.801221	21.477874	-0.125122	-79.879107
5.300000	-0.263967	82.804921	-47.757824	19.804713	-47.757824	19.804713	-0.127002	-80.567926
5.350000	-0.265719	80.424389	-47.720362	18.152460	-47.720362	18.152460	-0.128909	-81.255309
5.400000	-0.267471	78.044453	-47.688825	16.522557	-47.688825	16.522557	-0.130844	-81.941262
5.450000	-0.269224	75.665253	-47.663203	14.916539	-47.663203	14.916539	-0.132806	-82.625793
5.500000	-0.270983	73.286933	-47.643474	13.336038	-47.643474	13.336038	-0.134796	-83.308909
5.550000	-0.272750	70.909641	-47.629612	11.782783	-47.629612	11.782783	-0.136814	-83.990618
5.600000	-0.274528	68.533522	-47.621578	10.258605	-47.621578	10.258605	-0.138861	-84.670927
5.650000	-0.276321	66.158740	-47.619385	8.765797	-47.619385	8.765797	-0.140938	-85.349831
5.700000	-0.278134	63.785448	-47.622964	7.306467	-47.622964	7.306467	-0.143044	-86.027338
5.750000	-0.279970	61.413774	-47.632171	5.882422	-47.632171	5.882422	-0.145181	-86.703472
5.800000	-0.281834	59.043859	-47.646906	4.495908	-47.646906	4.495908	-0.147348	-87.378243
5.850000	-0.283730	56.675841	-47.667045	3.149269	-47.667045	3.149269	-0.149545	-88.051660
5.900000	-0.285663	54.309849	-47.692442	1.844942	-47.692442	1.844942	-0.151774	-88.723733
5.950000	-0.287639	51.946008	-47.722925	0.585454	-47.722925	0.585454	-0.154035	-89.394472
6.000000	-0.289663	49.584433	-47.758292	-0.626589	-47.758292	-0.626589	-0.156327	-90.063887
6.050000	-0.291740	47.225231	-47.798307	-1.788507	-47.798307	-1.788507	-0.158652	-90.731989
6.100000	-0.293878	44.868498	-47.842698	-2.897565	-47.842698	-2.897565	-0.161009	-91.398789
6.150000	-0.296082	42.514316	-47.891156	-3.950983	-47.891156	-3.950983	-0.163399	-92.064298
6.200000	-0.298359	40.162755	-47.943326	-4.945957	-47.943326	-4.945957	-0.165823	-92.728528
6.250000	-0.300716	37.813872	-47.998809	-5.879684	-47.998809	-5.879684	-0.168281	-93.391490
6.300000	-0.303163	35.467764	-48.057195	-6.747933	-48.057195	-6.747933	-0.170774	-94.053169
6.350000	-0.305706	33.124393	-48.117914	-7.549323	-48.117914	-7.549323	-0.173301	-94.713606
6.400000	-0.308353	30.783758	-48.180401	-8.281247	-48.180401	-8.281247	-0.175863	-95.372812
6.450000	-0.311112	28.445839	-48.244034	-8.941246	-48.244034	-8.941246	-0.178460	-96.030800
6.500000	-0.313992	26.110592	-48.308130	-9.527060	-48.308130	-9.527060	-0.181094	-96.687584
6.550000	-0.317004	23.777949	-48.371943	-10.036687	-48.371943	-10.036687	-0.183763	-97.343176
6.600000	-0.320156	21.447815	-48.434665	-10.468447	-48.434665	-10.468447	-0.186469	-97.997590
6.650000	-0.323459	19.120069	-48.495430	-10.821053	-48.495430	-10.821053	-0.189211	-98.650839
6.700000	-0.326923	16.794546	-48.553334	-11.094146	-48.553334	-11.094146	-0.191991	-99.302945
6.750000	-0.330561	14.471091	-48.607355	-11.286378	-48.607355	-11.286378	-0.194808	-99.953907
6.800000	-0.334390	12.149512	-48.656312	-11.396498	-48.656312	-11.396498	-0.197664	-100.603715
6.850000	-0.338413	9.829463	-48.699434	-11.429642	-48.699434	-11.429642	-0.200557	-101.252443
6.900000	-0.342641	7.510674	-48.735722	-11.387487	-48.735722	-11.387487	-0.203488	-101.900104
6.950000	-0.347105	5.192875	-48.763521	-11.267476	-48.763521	-11.267476	-0.206460	-102.546637
7.000000	-0.351809	2.875620	-48.782106	-11.076929	-48.782106	-11.076929	-0.209471	-103.192112
7.050000	-0.356763	0.558492	-48.790699	-10.821563	-48.790699	-10.821563	-0.212521	-103.836565
7.100000	-0.361984	-1.758956	-48.788299	-10.505776	-48.788299	-10.505776	-0.215610	-104.480002
7.150000	-0.367514	-4.077338	-48.773063	-10.131787	-48.773063	-10.131787	-0.218742	-105.122366
7.200000	-0.373346	-6.397184	-48.745193	-9.711209	-48.745193	-9.711209	-0.221914	-105.763755
7.250000	-0.379501	-8.719095	-48.704077	-9.251043	-48.704077	-9.251043	-0.225125	-106.404186
7.300000	-0.386011	-11.043863	-48.648665	-8.757869	-48.648665	-8.757869	-0.228379	-107.043638
7.350000	-0.392907	-13.372392	-48.578294	-8.240424	-48.578294	-8.240424	-0.231676	-107.682114
7.400000	-0.400195	-15.705337	-48.493560	-7.708543	-48.493560	-7.708543	-0.235013	-108.319681
7.450000	-0.407899	-18.043568	-48.394439	-7.170304	-48.394439	-7.170304	-0.238392	-108.956356
7.500000	-0.416078	-20.388550	-48.279961	-6.634469	-48.279961	-6.634469	-0.241816	-109.592097
7.550000	-0.424746	-22.741201	-48.151065	-6.109711	-48.151065	-6.109711	-0.245282	-110.226959
7.600000	-0.433925	-25.102509	-48.008546	-5.603179	-48.008546	-5.603179	-0.248791	-110.860981
7.650000	-0.443652	-27.473775	-47.852832	-5.121757	-47.852832	-5.121757	-0.252343	-111.494176
7.700000	-0.454016	-29.857456	-47.683268	-4.674868	-47.683268	-4.674868	-0.255941	-112.126497
7.750000	-0.465014	-32.254192	-47.501926	-4.265633	-47.501926	-4.265633	-0.259583	-112.758032
7.800000	-0.476689	-34.665599	-47.309550	-3.898659	-47.309550	-3.898659	-0.263268	-113.388799
7.850000	-0.489119	-37.094095	-47.106396	-3.579696	-47.106396	-3.579696	-0.266998	-114.018790
7.900000	-0.502384	-39.542319	-46.892977	-3.313547	-46.892977	-3.313547	-0.270776	-114.648009
7.950000	-0.516504	-42.011447	-46.670934	-3.100003	-46.670934	-3.100003	-0.274597	-115.276516
8.000000	-0.531547	-44.503775	-46.441032	-2.940970	-46.441032	-2.940970	-0.278464	-115.904331
8.050000	-0.547656	-47.023716	-46.203152	-2.841619	-46.203152	-2.841619	-0.282378	-116.531428
8.100000	-0.564888	-49.573445	-45.958548	-2.800789	-45.958548	-2.800789	-0.286340	-117.157855
8.150000	-0.583309	-52.155291	-45.708243	-2.817374	-45.708243	-2.817374	-0.290346	-117.783648
8.200000	-0.603026	-54.772667	-45.452811	-2.891667	-45.452811	-2.891667	-0.294399	-118.408824
8.250000	-0.624285	-57.433113	-45.191759	-3.028555	-45.191759	-3.028555	-0.298502	-119.033353
8.300000	-0.647106	-60.137519	-44.926715	-3.222443	-44.926715	-3.222443	-0.302652	-119.657310
8.350000	-0.671633	-62.890323	-44.658126	-3.472839	-44.658126	-3.472839	-0.306848	-120.280713
8.400000	-0.698094	-65.698337	-44.386020	-3.780992	-44.386020	-3.780992	-0.311093	-120.903566
8.450000	-0.726752	-68.569434	-44.110449	-4.147714	-44.110449	-4.147714	-0.315388	-121.525877
8.500000	-0.757708	-71.506448	-43.832416	-4.569025	-43.832416	-4.569025	-0.319731	-122.147698
8.550000	-0.791174	-74.515382	-43.552272	-5.043971	-43.552272	-5.043971	-0.324121	-122.769052
8.600000	-0.827616	-77.609692	-43.269468	-5.575802	-43.269468	-5.575802	-0.328562	-123.389931
8.650000	-0.867232	-80.794590	-42.984729	-6.161594	-42.984729	-6.161594	-0.333052	-124.010377
8.700000	-0.910462	-84.082298	-42.697959	-6.802409	-42.697959	-6.802409	-0.337592	-124.630404
8.750000	-0.957605	-87.480522	-42.409646	-7.496552	-42.409646	-7.496552	-0.342182	-125.250045
8.800000	-1.009275	-91.006203	-42.119481	-8.246302	-42.119481	-8.246302	-0.346823	-125.869310
8.850000	-1.065828	-94.668156	-41.828002	-9.050028	-41.828002	-9.050028	-0.351514	-126.488235
8.900000	-1.127993	-98.486238	-41.534957	-9.910167	-41.534957	-9.910167	-0.356256	-127.106833
8.950000	-1.196294	-102.473893	-41.240708	-10.826454	-41.240708	-10.826454	-0.361048	-127.725135
9.000000	-1.271542	-106.653186	-40.945174	-11.801201	-40.945174	-11.801201	-0.365892	-128.343160
9.050000	-1.354462	-111.043834	-40.648570	-12.835667	-40.648570	-12.835667	-0.370788	-128.960934
9.100000	-1.445900	-115.669891	-40.351024	-13.932106	-40.351024	-13.932106	-0.375735	-129.578481
9.150000	-1.546784	-120.559315	-40.052652	-15.093530	-40.052652	-15.093530	-0.380734	-130.195824
9.200000	-1.657879	-125.737371	-39.753842	-16.322136	-39.753842	-16.322136	-0.385785	-130.812989
9.250000	-1.780215	-131.242301	-39.454693	-17.622972	-39.454693	-17.622972	-0.390889	-131.430000
9.300000	-1.914224	-137.098660	-39.155921	-18.998049	-39.155921	-18.998049	-0.396045	-132.046884
9.350000	-2.060712	-143.356321	-38.857753	-20.454725	-38.857753	-20.454725	-0.401254	-132.663663
9.400000	-2.219345	-150.037821	-38.561279	-21.994959	-38.561279	-21.994959	-0.406516	-133.280365
9.450000	-2.389764	-157.193309	-38.267256	-23.626493	-38.267256	-23.626493	-0.411832	-133.897016
9.500000	-2.570252	-164.849345	-37.977113	-25.352926	-37.977113	-25.352926	-0.417201	-134.513642
9.550000	-2.758020	-173.038655	-37.692474	-27.179654	-37.692474	-27.179654	-0.422624	-135.130271
9.600000	-2.948644	178.220817	-37.415461	-29.109976	-37.415461	-29.109976	-0.428102	-135.746929
9.650000	-3.135840	168.924514	-37.148711	-31.145336	-37.148711	-31.145336	-0.433636	-136.363648
9.700000	-3.311634	159.095827	-36.895342	-33.282227	-36.895342	-33.282227	-0.439225	-136.980459
9.750000	-3.466621	148.783925	-36.658918	-35.511729	-36.658918	-35.511729	-0.444872	-137.597400
9.800000	-3.590899	138.073149	-36.443209	-37.816108	-36.443209	-37.816108	-0.450580	-138.214520
9.850000	-3.676297	127.086683	-36.251286	-40.166072	-36.251286	-40.166072	-0.456351	-138.831901
9.900000	-3.716095	115.968165	-36.085588	-42.521849	-36.085588	-42.521849	-0.462190	-139.449749
9.950000	-3.708350	104.881920	-35.945909	-44.833139	-35.945909	-44.833139	-0.468052	-140.068703
10.000000	-3.655231	93.988241	-35.828960	-47.046938	-35.828960	-47.046938	-0.473504	-140.687846
