! freq	dB(S11)	phase(S11)	dB(S12)	phase(S12)	
!     	dB(S21)	phase(S21)	dB(S22)	phase(S22)	
!S-par simulation data
#  GHz  S  DB  R 50
0.000000	-0.000000	0.000000	-385.722112	0.000000	-385.722112	0.000000	-0.000000	0.000000
0.050000	-0.000076	-0.807472	-106.092759	107.608270	-106.092759	107.608270	-0.000084	-0.900973
0.100000	-0.000302	-1.614879	-101.912811	117.894357	-101.912811	117.894357	-0.000336	-1.801779
0.150000	-0.000671	-2.422157	-100.263708	121.629194	-100.263708	121.629194	-0.000748	-2.702257
0.200000	-0.001174	-3.229236	-99.367807	121.555958	-99.367807	121.555958	-0.001312	-3.602264
0.250000	-0.001807	-4.036026	-98.745991	119.411944	-98.745991	119.411944	-0.002026	-4.501625
0.300000	-0.002546	-4.842473	-98.220298	116.447428	-98.220298	116.447428	-0.002863	-5.400276
0.350000	-0.003384	-5.648491	-97.745865	113.194100	-97.745865	113.194100	-0.003816	-6.298092
0.400000	-0.004308	-6.454001	-97.309891	110.025434	-97.309891	110.025434	-0.004869	-7.194985
0.450000	-0.005305	-7.258934	-96.916492	107.157490	-96.916492	107.157490	-0.006010	-8.090889
0.500000	-0.006364	-8.063225	-96.575434	104.712894	-96.575434	104.712894	-0.007222	-8.985751
0.550000	-0.007474	-8.866815	-96.297225	102.763640	-96.297225	102.763640	-0.008492	-9.879534
0.600000	-0.008626	-9.669657	-96.091182	101.360961	-96.091182	101.360961	-0.009806	-10.772213
0.650000	-0.009810	-10.471710	-95.964773	100.556854	-95.964773	100.556854	-0.011154	-11.663773
0.700000	-0.011018	-11.272943	-95.923298	100.420648	-95.923298	100.420648	-0.012525	-12.554208
0.750000	-0.012243	-12.073329	-95.969204	101.053238	-95.969204	101.053238	-0.013909	-13.443519
0.800000	-0.013479	-12.872849	-96.100386	102.600345	-96.100386	102.600345	-0.015300	-14.331709
0.850000	-0.014722	-13.671489	-96.306585	105.263296	-96.306585	105.263296	-0.016689	-15.218786
0.900000	-0.015965	-14.469239	-96.562733	109.299217	-96.562733	109.299217	-0.018073	-16.104758
0.950000	-0.017206	-15.266090	-96.818599	114.989228	-96.818599	114.989228	-0.019447	-16.989633
1.000000	-0.018441	-16.062038	-96.987516	122.536715	-96.987516	122.536715	-0.020809	-17.873419
1.050000	-0.019668	-16.857078	-96.946495	131.867798	-96.946495	131.867798	-0.022155	-18.756121
1.100000	-0.020885	-17.651207	-96.569278	142.406278	-96.569278	142.406278	-0.023484	-19.637744
1.150000	-0.022091	-18.444421	-95.793853	153.077107	-95.793853	153.077107	-0.024796	-20.518290
1.200000	-0.023284	-19.236717	-94.667322	162.739818	-94.667322	162.739818	-0.026090	-21.397759
1.250000	-0.024464	-20.028091	-93.311747	170.714659	-93.311747	170.714659	-0.027366	-22.276148
1.300000	-0.025630	-20.818499	-91.841012	176.820987	-91.841012	176.820987	-0.028623	-23.153405
1.350000	-0.026782	-21.607974	-90.359779	-178.627791	-90.359779	-178.627791	-0.029864	-24.029570
1.400000	-0.027921	-22.396511	-88.916190	-175.323991	-88.916190	-175.323991	-0.031089	-24.904634
1.450000	-0.029047	-23.184101	-87.532731	-172.988546	-87.532731	-172.988546	-0.032299	-25.778586
1.500000	-0.030160	-23.970737	-86.217380	-171.397280	-86.217380	-171.397280	-0.033494	-26.651414
1.550000	-0.031262	-24.756410	-84.970656	-170.378933	-84.970656	-170.378933	-0.034677	-27.523102
1.600000	-0.032352	-25.541108	-83.789564	-169.805103	-83.789564	-169.805103	-0.035849	-28.393637
1.650000	-0.033432	-26.324822	-82.669659	-169.579821	-82.669659	-169.579821	-0.037009	-29.263002
1.700000	-0.034502	-27.107540	-81.606097	-169.631012	-81.606097	-169.631012	-0.038161	-30.131179
1.750000	-0.035563	-27.889249	-80.594128	-169.904068	-80.594128	-169.904068	-0.039304	-30.998150
1.800000	-0.036616	-28.669937	-79.629322	-170.357175	-79.629322	-170.357175	-0.040440	-31.863897
1.850000	-0.037663	-29.449589	-78.707646	-170.957946	-78.707646	-170.957946	-0.041571	-32.728400
1.900000	-0.038703	-30.228192	-77.825476	-171.681018	-77.825476	-171.681018	-0.042696	-33.591641
1.950000	-0.039738	-31.005732	-76.979577	-172.506306	-76.979577	-172.506306	-0.043818	-34.453599
2.000000	-0.040768	-31.782194	-76.167065	-173.417738	-76.167065	-173.417738	-0.044937	-35.314255
2.050000	-0.041795	-32.557564	-75.385370	-174.402328	-75.385370	-174.402328	-0.046054	-36.173588
2.100000	-0.042819	-33.331826	-74.632203	-175.449484	-74.632203	-175.449484	-0.047170	-37.031578
2.150000	-0.043841	-34.104966	-73.905514	-176.550493	-73.905514	-176.550493	-0.048285	-37.888207
2.200000	-0.044861	-34.876968	-73.203469	-177.698129	-73.203469	-177.698129	-0.049401	-38.743454
2.250000	-0.045881	-35.647817	-72.524419	-178.886354	-72.524419	-178.886354	-0.050519	-39.597300
2.300000	-0.046902	-36.417498	-71.866876	179.889912	-71.866876	179.889912	-0.051638	-40.449726
2.350000	-0.047923	-37.185997	-71.229499	178.634972	-71.229499	178.634972	-0.052760	-41.300714
2.400000	-0.048946	-37.953298	-70.611068	177.352494	-70.611068	177.352494	-0.053885	-42.150244
2.450000	-0.049971	-38.719386	-70.010477	176.045620	-70.010477	176.045620	-0.055015	-42.998300
2.500000	-0.050999	-39.484248	-69.426714	174.717059	-69.426714	174.717059	-0.056148	-43.844864
2.550000	-0.052030	-40.247814	-68.857940	173.368409	-68.857940	173.368409	-0.057287	-44.689851
2.600000	-0.053066	-41.010124	-68.304320	172.002617	-68.304320	172.002617	-0.058432	-45.533312
2.650000	-0.054106	-41.771164	-67.765065	170.621434	-67.765065	170.621434	-0.059583	-46.375230
2.700000	-0.055152	-42.530921	-67.239450	169.226402	-67.239450	169.226402	-0.060740	-47.215590
2.750000	-0.056203	-43.289381	-66.726806	167.818879	-66.726806	167.818879	-0.061905	-48.054377
2.800000	-0.057260	-44.046532	-66.226513	166.400070	-66.226513	166.400070	-0.063077	-48.891578
2.850000	-0.058323	-44.802362	-65.737999	164.971042	-65.737999	164.971042	-0.064256	-49.727178
2.900000	-0.059394	-45.556859	-65.260731	163.532749	-65.260731	163.532749	-0.065445	-50.561165
2.950000	-0.060473	-46.310011	-64.794214	162.086042	-64.794214	162.086042	-0.066641	-51.393526
3.000000	-0.061559	-47.061806	-64.337984	160.631683	-64.337984	160.631683	-0.067848	-52.224251
3.050000	-0.062654	-47.812235	-63.891612	159.170360	-63.891612	159.170360	-0.069063	-53.053327
3.100000	-0.063757	-48.561286	-63.454695	157.702690	-63.454695	157.702690	-0.070289	-53.880745
3.150000	-0.064870	-49.308950	-63.026854	156.229232	-63.026854	156.229232	-0.071525	-54.706496
3.200000	-0.065993	-50.055217	-62.607735	154.750492	-62.607735	154.750492	-0.072771	-55.530569
3.250000	-0.067125	-50.800078	-62.197005	153.266928	-62.197005	153.266928	-0.074029	-56.352957
3.300000	-0.068268	-51.543524	-61.794351	151.778958	-61.794351	151.778958	-0.075298	-57.173651
3.350000	-0.069422	-52.285548	-61.399479	150.286964	-61.399479	150.286964	-0.076579	-57.992646
3.400000	-0.070587	-53.026140	-61.012110	148.791293	-61.012110	148.791293	-0.077873	-58.809933
3.450000	-0.071764	-53.765294	-60.631981	147.292264	-60.631981	147.292264	-0.079178	-59.625509
3.500000	-0.072952	-54.503003	-60.258844	145.790168	-60.258844	145.790168	-0.080497	-60.439367
3.550000	-0.074153	-55.239260	-59.892463	144.285275	-59.892463	144.285275	-0.081830	-61.251502
3.600000	-0.075366	-55.974059	-59.532617	142.777831	-59.532617	142.777831	-0.083176	-62.061912
3.650000	-0.076593	-56.707395	-59.179094	141.268064	-59.179094	141.268064	-0.084536	-62.870593
3.700000	-0.077833	-57.439262	-58.831693	139.756186	-58.831693	139.756186	-0.085911	-63.677543
3.750000	-0.079087	-58.169655	-58.490224	138.242391	-58.490224	138.242391	-0.087300	-64.482759
3.800000	-0.080355	-58.898507	-58.154193	136.726793	-58.154193	136.726793	-0.088706	-65.286165
3.850000	-0.081638	-59.625877	-57.823761	135.209643	-57.823761	135.209643	-0.090128	-66.087835
3.900000	-0.082936	-60.351761	-57.498764	133.691095	-57.498764	133.691095	-0.091566	-66.887770
3.950000	-0.084249	-61.076158	-57.179043	132.171294	-57.179043	132.171294	-0.093021	-67.685970
4.000000	-0.085578	-61.799064	-56.864446	130.650376	-56.864446	130.650376	-0.094492	-68.482438
4.050000	-0.086922	-62.520478	-56.554831	129.128467	-56.554831	129.128467	-0.095982	-69.277173
4.100000	-0.088283	-63.240397	-56.250058	127.605688	-56.250058	127.605688	-0.097489	-70.070180
4.150000	-0.089661	-63.958822	-55.949998	126.082150	-55.949998	126.082150	-0.099015	-70.861461
4.200000	-0.091062	-64.675230	-55.652632	124.557780	-55.652632	124.557780	-0.100566	-71.650423
4.250000	-0.092472	-65.390857	-55.362369	123.033103	-55.362369	123.033103	-0.102128	-72.438489
4.300000	-0.093904	-66.104664	-55.075303	121.507912	-55.075303	121.507912	-0.103713	-73.224471
4.350000	-0.095352	-66.817170	-54.793143	119.982354	-54.793143	119.982354	-0.105317	-74.008966
4.400000	-0.096819	-67.528118	-54.514894	118.456542	-54.514894	118.456542	-0.106942	-74.791689
4.450000	-0.098306	-68.237507	-54.240470	116.930474	-54.240470	116.930474	-0.108589	-75.572640
4.500000	-0.099810	-68.945601	-53.970572	115.404335	-53.970572	115.404335	-0.110255	-76.352127
4.550000	-0.101337	-69.651882	-53.703544	113.878094	-53.703544	113.878094	-0.111947	-77.129565
4.600000	-0.102879	-70.357132	-53.441571	112.351898	-53.441571	112.351898	-0.113656	-77.905843
4.650000	-0.104450	-71.060317	-53.181620	110.825789	-53.181620	110.825789	-0.115397	-78.679804
4.700000	-0.106031	-71.762733	-52.927177	109.299785	-52.927177	109.299785	-0.117150	-79.452906
4.750000	-0.107646	-72.462840	-52.674010	107.774090	-52.674010	107.774090	-0.118941	-80.223430
4.800000	-0.109269	-73.162438	-52.426732	106.248508	-52.426732	106.248508	-0.120741	-80.993390
4.850000	-0.110930	-73.859487	-52.180072	104.723488	-52.180072	104.723488	-0.122584	-81.760523
4.900000	-0.112595	-74.556284	-51.939621	103.198544	-51.939621	103.198544	-0.124431	-82.527379
4.950000	-0.114304	-75.250301	-51.699209	101.674441	-51.699209	101.674441	-0.126328	-83.291171
5.000000	-0.116013	-75.944318	-51.465271	100.150337	-51.465271	100.150337	-0.128226	-84.054964
5.050000	-0.117771	-76.635332	-51.230863	98.627380	-51.230863	98.627380	-0.130179	-84.815470
5.100000	-0.119530	-77.326346	-51.002615	97.104423	-51.002615	97.104423	-0.132133	-85.575976
5.150000	-0.121336	-78.014640	-50.774514	95.582715	-50.774514	95.582715	-0.134140	-86.333522
5.200000	-0.123147	-78.702686	-50.551746	94.061120	-50.551746	94.061120	-0.136152	-87.090800
5.250000	-0.125002	-79.388291	-50.329672	92.540835	-50.329672	92.540835	-0.138215	-87.845439
5.300000	-0.126866	-80.073408	-50.112185	91.020812	-50.112185	91.020812	-0.140287	-88.599550
5.350000	-0.128772	-80.756362	-49.895878	89.502117	-49.895878	89.502117	-0.142407	-89.351337
5.400000	-0.130691	-81.438594	-49.683483	87.983865	-49.683483	87.983865	-0.144542	-90.102349
5.450000	-0.132649	-82.118938	-49.472697	86.466924	-49.472697	86.466924	-0.146720	-90.851341
5.500000	-0.134627	-82.798338	-49.265216	84.950639	-49.265216	84.950639	-0.148920	-91.599323
5.550000	-0.136638	-83.476118	-49.059720	83.435613	-49.059720	83.435613	-0.151158	-92.345581
5.600000	-0.138675	-84.152741	-48.856982	81.921487	-48.856982	81.921487	-0.153424	-93.090608
5.650000	-0.140743	-84.828009	-48.656559	80.408536	-48.656559	80.408536	-0.155725	-93.834195
5.700000	-0.142841	-85.501921	-48.458401	78.896761	-48.458401	78.896761	-0.158059	-94.576343
5.750000	-0.144966	-86.174735	-48.262847	77.386047	-48.262847	77.386047	-0.160423	-95.317325
5.800000	-0.147128	-86.846011	-48.069112	75.876817	-48.069112	75.876817	-0.162827	-96.056676
5.850000	-0.149313	-87.516436	-47.878231	74.368502	-47.878231	74.368502	-0.165256	-96.795121
5.900000	-0.151541	-88.185160	-47.688768	72.862018	-47.688768	72.862018	-0.167732	-97.531758
5.950000	-0.153787	-88.853271	-47.502375	71.356274	-47.502375	71.356274	-0.170228	-98.267739
6.000000	-0.156084	-89.519543	-47.317038	69.852749	-47.317038	69.852749	-0.172778	-99.001751
6.050000	-0.158393	-90.185425	-47.134958	68.349755	-47.134958	68.349755	-0.175341	-99.735340
6.100000	-0.160762	-90.849360	-46.953604	66.849419	-46.953604	66.849419	-0.177966	-100.466817
6.150000	-0.163137	-91.513112	-46.775668	65.349371	-46.775668	65.349371	-0.180599	-101.198090
6.200000	-0.165579	-92.174849	-46.598157	63.852485	-46.598157	63.852485	-0.183302	-101.927128
6.250000	-0.168023	-92.836587	-46.424202	62.355599	-46.424202	62.355599	-0.186005	-102.656165
6.300000	-0.170544	-93.496296	-46.250394	60.862467	-46.250394	60.862467	-0.188786	-103.382860
6.350000	-0.173066	-94.156006	-46.079996	59.369335	-46.079996	59.369335	-0.191569	-104.109556
6.400000	-0.175662	-94.814051	-45.910015	57.879983	-45.910015	57.879983	-0.194424	-104.834199
6.450000	-0.178267	-95.471945	-45.743042	56.390975	-45.743042	56.390975	-0.197286	-105.558654
6.500000	-0.180944	-96.128553	-45.576719	54.905797	-45.576719	54.905797	-0.200217	-106.281332
6.550000	-0.183637	-96.784905	-45.413031	53.421384	-45.413031	53.421384	-0.203161	-107.003654
6.600000	-0.186402	-97.440373	-45.250194	51.940889	-45.250194	51.940889	-0.206168	-107.724457
6.650000	-0.189192	-98.095547	-45.089640	50.461699	-45.089640	50.461699	-0.209197	-108.444755
6.700000	-0.192050	-98.750282	-44.930210	48.986323	-44.930210	48.986323	-0.212278	-109.163846
6.750000	-0.194942	-99.404798	-44.772774	47.512853	-44.772774	47.512853	-0.215387	-109.882336
6.800000	-0.197925	-100.059284	-44.616091	46.044596	-44.616091	46.044596	-0.218558	-110.599517
6.850000	-0.200929	-100.713763	-44.461726	44.577524	-44.461726	44.577524	-0.221744	-111.316402
6.900000	-0.204063	-101.368995	-44.307584	43.117996	-44.307584	43.117996	-0.225005	-112.031835
6.950000	-0.207223	-102.024483	-44.155729	41.659874	-44.155729	41.659874	-0.228278	-112.747055
7.000000	-0.210541	-102.681780	-44.004062	40.210669	-44.004062	40.210669	-0.231622	-113.461025
7.050000	-0.213927	-103.340131	-43.854188	38.764985	-43.854188	38.764985	-0.234987	-114.174657
7.100000	-0.217503	-104.001496	-43.704580	37.329358	-43.704580	37.329358	-0.238412	-114.887325
7.150000	-0.221251	-104.665967	-43.555921	35.901747	-43.555921	35.901747	-0.241871	-115.599506
7.200000	-0.225251	-105.334958	-43.407499	34.485795	-43.407499	34.485795	-0.245378	-116.310980
7.250000	-0.229704	-106.012000	-43.258457	33.087083	-43.258457	33.087083	-0.248932	-117.021855
7.300000	-0.234522	-106.695483	-43.109481	31.702163	-43.109481	31.702163	-0.252524	-117.732249
7.350000	-0.240708	-107.399790	-42.955966	30.355468	-42.955966	30.355468	-0.256176	-118.441966
7.400000	-0.247473	-108.112865	-42.802202	29.024868	-42.802202	29.024868	-0.259855	-119.151399
7.450000	-0.257151	-108.861746	-42.639047	27.752190	-42.639047	27.752190	-0.263589	-119.860291
7.500000	-0.272770	-109.668412	-42.457720	26.561563	-42.457720	26.561563	-0.267378	-120.568705
7.550000	-0.303045	-110.573530	-42.236166	25.476295	-42.236166	25.476295	-0.271223	-121.276725
7.600000	-0.376216	-111.632804	-41.915377	24.424171	-41.915377	24.424171	-0.275133	-121.984358
7.650000	-0.610027	-112.507631	-41.340418	22.138142	-41.340418	22.138142	-0.279157	-122.691079
7.700000	-0.783731	-110.307336	-41.190320	14.947410	-41.190320	14.947410	-0.282797	-123.397630
7.750000	-0.467687	-110.117720	-41.734596	13.029601	-41.734596	13.029601	-0.286862	-124.105482
7.800000	-0.351929	-111.186755	-41.814429	12.925670	-41.814429	12.925670	-0.290960	-124.812372
7.850000	-0.313726	-112.135657	-41.745051	12.316318	-41.745051	12.316318	-0.295093	-125.519024
7.900000	-0.299261	-112.965856	-41.637782	11.368198	-41.637782	11.368198	-0.299268	-126.225559
7.950000	-0.293697	-113.726253	-41.519817	10.238437	-41.519817	10.238437	-0.303492	-126.932043
8.000000	-0.292136	-114.444823	-41.398912	9.005894	-41.398912	9.005894	-0.307766	-127.638534
8.050000	-0.292483	-115.139230	-41.277788	7.716445	-41.277788	7.716445	-0.312086	-128.345078
8.100000	-0.294209	-115.812996	-41.157091	6.380532	-41.157091	6.380532	-0.316467	-129.051763
8.150000	-0.296470	-116.477569	-41.037568	5.024929	-41.037568	5.024929	-0.320889	-129.758596
8.200000	-0.299204	-117.133637	-40.919234	3.651432	-40.919234	3.651432	-0.325356	-130.465602
8.250000	-0.302384	-117.780870	-40.802028	2.260372	-40.802028	2.260372	-0.329886	-131.172940
8.300000	-0.305801	-118.423002	-40.686076	0.859877	-40.686076	0.859877	-0.334469	-131.880628
8.350000	-0.309403	-119.061072	-40.571380	-0.547789	-40.571380	-0.547789	-0.339103	-132.588711
8.400000	-0.313194	-119.694941	-40.457873	-1.962539	-40.457873	-1.962539	-0.343798	-133.297313
8.450000	-0.317047	-120.327452	-40.345707	-3.379323	-40.345707	-3.379323	-0.348523	-134.006211
8.500000	-0.321084	-120.955888	-40.234607	-4.802207	-40.234607	-4.802207	-0.353329	-134.715998
8.550000	-0.325153	-121.583669	-40.124840	-6.225933	-40.124840	-6.225933	-0.358157	-135.426032
8.600000	-0.329378	-122.208173	-40.016094	-7.653866	-40.016094	-7.653866	-0.363077	-136.137301
8.650000	-0.333619	-122.832430	-39.908664	-9.082066	-39.908664	-9.082066	-0.368010	-136.848721
8.700000	-0.338004	-123.453968	-39.802230	-10.513209	-39.802230	-10.513209	-0.373046	-137.561792
8.750000	-0.342391	-124.075506	-39.697083	-11.944352	-39.697083	-11.944352	-0.378084	-138.274864
8.800000	-0.346918	-124.694744	-39.592926	-13.377558	-39.592926	-13.377558	-0.383237	-138.990080
8.850000	-0.351448	-125.313981	-39.490003	-14.810764	-39.490003	-14.810764	-0.388393	-139.705297
8.900000	-0.356097	-125.931559	-39.388117	-16.245178	-39.388117	-16.245178	-0.393655	-140.422817
8.950000	-0.360759	-126.548986	-39.287396	-17.679701	-39.287396	-17.679701	-0.398931	-141.140546
9.000000	-0.365525	-127.165221	-39.187751	-19.114905	-39.187751	-19.114905	-0.404305	-141.860700
9.050000	-0.370314	-127.781218	-39.089220	-20.550245	-39.089220	-20.550245	-0.409701	-142.581338
9.100000	-0.375193	-128.396376	-38.991794	-21.985937	-38.991794	-21.985937	-0.415189	-143.304478
9.150000	-0.380106	-129.011255	-38.895448	-23.421747	-38.895448	-23.421747	-0.420710	-144.028452
9.200000	-0.385098	-129.625565	-38.800223	-24.857704	-38.800223	-24.857704	-0.426315	-144.754957
9.250000	-0.390132	-130.239592	-38.706063	-26.293734	-38.706063	-26.293734	-0.431963	-145.482728
9.300000	-0.395235	-130.853259	-38.613028	-27.729781	-38.613028	-27.729781	-0.437686	-146.213003
9.350000	-0.400390	-131.466669	-38.521060	-29.165842	-38.521060	-29.165842	-0.443465	-146.945067
9.400000	-0.405605	-132.079880	-38.430207	-30.601841	-38.430207	-30.601841	-0.449311	-147.679548
9.450000	-0.410880	-132.692891	-38.340444	-32.037780	-38.340444	-32.037780	-0.455224	-148.416446
9.500000	-0.416207	-133.305821	-38.251770	-33.473613	-38.251770	-33.473613	-0.461197	-149.155601
9.550000	-0.421604	-133.918636	-38.164228	-34.909298	-38.164228	-34.909298	-0.467251	-149.897917
9.600000	-0.427042	-134.531451	-38.077732	-36.344856	-38.077732	-36.344856	-0.473355	-150.642250
9.650000	-0.432562	-135.144266	-37.992432	-37.780161	-37.992432	-37.780161	-0.479556	-151.390619
9.700000	-0.438114	-135.757129	-37.908119	-39.215339	-37.908119	-39.215339	-0.485797	-152.140673
9.750000	-0.443758	-136.370135	-37.825085	-40.650138	-37.825085	-40.650138	-0.492151	-152.895786
9.800000	-0.449426	-136.983204	-37.742961	-42.084830	-37.742961	-42.084830	-0.498536	-153.652149
9.850000	-0.455196	-137.596590	-37.662220	-43.518988	-37.662220	-43.518988	-0.505055	-154.414759
9.900000	-0.460979	-138.210023	-37.582294	-44.953079	-37.582294	-44.953079	-0.511592	-155.178063
9.950000	-0.466878	-138.823978	-37.503875	-46.386447	-37.503875	-46.386447	-0.518285	-155.948993
10.000000	-0.472780	-139.437933	-37.426158	-47.819814	-37.426158	-47.819814	-0.524984	-156.719924
