! freq	dB(S11)	phase(S11)	dB(S12)	phase(S12)	
!     	dB(S21)	phase(S21)	dB(S22)	phase(S22)	
!S-par simulation data
#  GHz  S  DB  R 50
0.000000	-82.664557	0.000000	-0.000639	0.000000	-0.000639	0.000000	-82.664557	0.000000
0.050000	-65.798433	-37.638909	-0.005036	-2.389454	-0.005036	-2.389454	-65.593493	-35.882373
0.100000	-61.716232	-65.397343	-0.010279	-4.741132	-0.010279	-4.741132	-61.198561	-60.167654
0.150000	-58.776991	-79.533264	-0.013893	-7.084470	-0.013893	-7.084470	-58.164971	-70.426744
0.200000	-56.599772	-89.007573	-0.016849	-9.427539	-0.016849	-9.427539	-55.953056	-76.025475
0.250000	-54.911709	-96.775978	-0.019630	-11.770561	-0.019630	-11.770561	-54.253031	-79.865601
0.300000	-53.555421	-103.730806	-0.022351	-14.113046	-0.022351	-14.113046	-52.899544	-82.781000
0.350000	-52.433641	-110.334854	-0.025040	-16.454614	-0.025040	-16.454614	-51.795936	-85.180815
0.400000	-51.479454	-116.834636	-0.027685	-18.794992	-0.027685	-18.794992	-50.884464	-87.247781
0.450000	-50.634031	-123.333600	-0.030286	-21.134452	-0.030286	-21.134452	-50.106148	-89.118345
0.500000	-49.864030	-129.826080	-0.032835	-23.473064	-0.032835	-23.473064	-49.433984	-90.785855
0.550000	-49.148397	-136.264556	-0.035328	-25.810975	-0.035328	-25.810975	-48.848941	-92.215491
0.600000	-48.479555	-142.615574	-0.037777	-28.148431	-0.037777	-28.148431	-48.333392	-93.403038
0.650000	-47.855570	-148.851434	-0.040181	-30.485535	-0.040181	-30.485535	-47.885482	-94.271443
0.700000	-47.277631	-155.004965	-0.042555	-32.822459	-0.042555	-32.822459	-47.496085	-94.823921
0.750000	-46.744918	-161.120681	-0.044905	-35.159319	-0.044905	-35.159319	-47.160179	-95.045229
0.800000	-46.256120	-167.256635	-0.047241	-37.496218	-0.047241	-37.496218	-46.878570	-94.862410
0.850000	-45.803458	-173.461391	-0.049571	-39.833233	-0.049571	-39.833233	-46.638780	-94.317807
0.900000	-45.380118	-179.787630	-0.051902	-42.170452	-0.051902	-42.170452	-46.437005	-93.345777
0.950000	-44.976521	173.734435	-0.054242	-44.507939	-0.054242	-44.507939	-46.262989	-91.926690
1.000000	-44.583548	167.104580	-0.056594	-46.845724	-0.056594	-46.845724	-46.103832	-90.082496
1.050000	-44.188177	160.294227	-0.058967	-49.183927	-0.058967	-49.183927	-45.945320	-87.715212
1.100000	-43.784197	153.347141	-0.061359	-51.522533	-0.061359	-51.522533	-45.771551	-84.908440
1.150000	-43.362404	146.287704	-0.063774	-53.861607	-0.063774	-53.861607	-45.564336	-81.672342
1.200000	-42.912475	139.154864	-0.066214	-56.201235	-0.066214	-56.201235	-45.300856	-78.043341
1.250000	-42.436945	132.007472	-0.068676	-58.541381	-0.068676	-58.541381	-44.974810	-74.167618
1.300000	-41.925973	124.904194	-0.071161	-60.882157	-0.071161	-60.882157	-44.563458	-70.152320
1.350000	-41.384550	117.897842	-0.073665	-63.223543	-0.073665	-63.223543	-44.070082	-66.158339
1.400000	-40.818217	111.029171	-0.076184	-65.565518	-0.076184	-65.565518	-43.503643	-62.318620
1.450000	-40.221616	104.365730	-0.078718	-67.908172	-0.078718	-67.908172	-42.857334	-58.796422
1.500000	-39.608462	97.913151	-0.081263	-70.251402	-0.081263	-70.251402	-42.160419	-55.644579
1.550000	-38.982234	91.696477	-0.083823	-72.595204	-0.083823	-72.595204	-41.424778	-52.923682
1.600000	-38.344940	85.743096	-0.086402	-74.939587	-0.086402	-74.939587	-40.659894	-50.684974
1.650000	-37.706271	80.033802	-0.089007	-77.284493	-0.089007	-77.284493	-39.886578	-48.883114
1.700000	-37.071074	74.560635	-0.091647	-79.629915	-0.091647	-79.629915	-39.115806	-47.490241
1.750000	-36.438686	69.340916	-0.094336	-81.975941	-0.094336	-81.975941	-38.349239	-46.516952
1.800000	-35.818303	64.326560	-0.097075	-84.322518	-0.097075	-84.322518	-37.601643	-45.868365
1.850000	-35.208509	59.528060	-0.099876	-86.669763	-0.099876	-86.669763	-36.871657	-45.545391
1.900000	-34.613164	54.918635	-0.102740	-89.017684	-0.102740	-89.017684	-36.164675	-45.494715
1.950000	-34.033717	50.483272	-0.105670	-91.366327	-0.105670	-91.366327	-35.482360	-45.683511
2.000000	-33.470044	46.217173	-0.108670	-93.715774	-0.108670	-93.715774	-34.824129	-46.095409
2.050000	-32.925094	42.088771	-0.111734	-96.065967	-0.111734	-96.065967	-34.193115	-46.681429
2.100000	-32.396560	38.109688	-0.114873	-98.417074	-0.114873	-98.417074	-33.585892	-47.449003
2.150000	-31.887471	34.242907	-0.118072	-100.768952	-0.118072	-100.768952	-33.005499	-48.348059
2.200000	-31.395902	30.498369	-0.121344	-103.121765	-0.121344	-103.121765	-32.449064	-49.385344
2.250000	-30.923170	26.851579	-0.124678	-105.475406	-0.124678	-105.475406	-31.917562	-50.529516
2.300000	-30.468562	23.301509	-0.128078	-107.829949	-0.128078	-107.829949	-31.409654	-51.776151
2.350000	-30.032037	19.838489	-0.131543	-110.185381	-0.131543	-110.185381	-30.924818	-53.112290
2.400000	-29.613519	16.452236	-0.135068	-112.541669	-0.135068	-112.541669	-30.462532	-54.525089
2.450000	-29.212552	13.143684	-0.138658	-114.898900	-0.138658	-114.898900	-30.021909	-56.013378
2.500000	-28.829002	9.896348	-0.142302	-117.256935	-0.142302	-117.256935	-29.602425	-57.559583
2.550000	-28.462721	6.718672	-0.146010	-119.615961	-0.146010	-119.615961	-29.203642	-59.170010
2.600000	-28.113158	3.593145	-0.149769	-121.975787	-0.149769	-121.975787	-28.824629	-60.827316
2.650000	-27.780453	0.524299	-0.153585	-124.336548	-0.153585	-124.336548	-28.465321	-62.534406
2.700000	-27.464008	-2.496604	-0.157448	-126.698156	-0.157448	-126.698156	-28.124816	-64.282661
2.750000	-27.163785	-5.471033	-0.161359	-129.060643	-0.161359	-129.060643	-27.802883	-66.069950
2.800000	-26.879686	-8.401128	-0.165314	-131.424024	-0.165314	-131.424024	-27.499237	-67.893705
2.850000	-26.611023	-11.292801	-0.169306	-133.788233	-0.169306	-133.788233	-27.212958	-69.748419
2.900000	-26.358650	-14.143166	-0.173336	-136.153388	-0.173336	-136.153388	-26.944849	-71.635769
2.950000	-26.121012	-16.960821	-0.177394	-138.519341	-0.177394	-138.519341	-26.693077	-73.548463
3.000000	-25.899756	-19.740925	-0.181480	-140.886266	-0.181480	-140.886266	-26.459327	-75.489707
3.050000	-25.693132	-22.490990	-0.185584	-143.254017	-0.185584	-143.254017	-26.241595	-77.453362
3.100000	-25.502305	-25.208795	-0.189703	-145.622707	-0.189703	-145.622707	-26.041052	-79.440648
3.150000	-25.326615	-27.897387	-0.193832	-147.992296	-0.193832	-147.992296	-25.856908	-81.448941
3.200000	-25.166093	-30.557858	-0.197963	-150.362799	-0.197963	-150.362799	-25.689127	-83.477072
3.250000	-25.021512	-33.189501	-0.202090	-152.734291	-0.202090	-152.734291	-25.538477	-85.525148
3.300000	-24.891457	-35.796214	-0.206208	-155.106680	-0.206208	-155.106680	-25.403395	-87.590122
3.350000	-24.778023	-38.374703	-0.210310	-157.480135	-0.210310	-157.480135	-25.286076	-89.673824
3.400000	-24.680159	-40.927766	-0.214389	-159.854597	-0.214389	-159.854597	-25.185363	-91.773986
3.450000	-24.598337	-43.455141	-0.218440	-162.230115	-0.218440	-162.230115	-25.101736	-93.890376
3.500000	-24.532831	-45.956860	-0.222456	-164.606727	-0.222456	-164.606727	-25.035470	-96.022544
3.550000	-24.483967	-48.432758	-0.226432	-166.984474	-0.226432	-166.984474	-24.986905	-98.170135
3.600000	-24.452129	-50.882467	-0.230361	-169.363399	-0.230361	-169.363399	-24.956455	-100.332884
3.650000	-24.437765	-53.305390	-0.234238	-171.743551	-0.234238	-171.743551	-24.944610	-102.510623
3.700000	-24.441397	-55.700678	-0.238058	-174.124983	-0.238058	-174.124983	-24.951951	-104.703275
3.750000	-24.463622	-58.067205	-0.241817	-176.507748	-0.241817	-176.507748	-24.979157	-106.910866
3.800000	-24.505559	-60.402822	-0.245508	-178.891937	-0.245508	-178.891937	-25.027478	-109.133860
3.850000	-24.567593	-62.706305	-0.249130	178.722418	-0.249130	178.722418	-25.097402	-111.372192
3.900000	-24.650629	-64.975366	-0.252681	176.335251	-0.252681	176.335251	-25.189996	-113.626257
3.950000	-24.755702	-67.207194	-0.256156	173.946496	-0.256156	173.946496	-25.306498	-115.896606
4.000000	-24.883998	-69.398347	-0.259556	171.556084	-0.259556	171.556084	-25.448344	-118.183975
4.050000	-25.036879	-71.544620	-0.262880	169.163945	-0.262880	169.163945	-25.617213	-120.489326
4.100000	-25.215914	-73.640866	-0.266127	166.770008	-0.266127	166.770008	-25.815066	-122.813896
4.150000	-25.422910	-75.680761	-0.269300	164.374199	-0.269300	164.374199	-26.044208	-125.159267
4.200000	-25.659962	-77.656503	-0.272398	161.976447	-0.272398	161.976447	-26.307371	-127.527463
4.250000	-25.929502	-79.558400	-0.275427	159.576678	-0.275427	159.576678	-26.607805	-129.921079
4.300000	-26.234371	-81.374311	-0.278389	157.174823	-0.278389	157.174823	-26.949421	-132.343466
4.350000	-26.577897	-83.088886	-0.281289	154.770811	-0.281289	154.770811	-27.336964	-134.798996
4.400000	-26.964300	-84.680901	-0.284132	152.364550	-0.284132	152.364550	-27.776630	-137.293953
4.450000	-27.398229	-86.123793	-0.286926	149.955972	-0.286926	149.955972	-28.275741	-139.836463
4.500000	-27.884865	-87.384737	-0.289678	147.545041	-0.289678	147.545041	-28.843151	-142.437018
4.550000	-28.430696	-88.417988	-0.292397	145.131699	-0.292397	145.131699	-29.490732	-145.111026
4.600000	-29.043377	-89.161107	-0.295093	142.715894	-0.295093	142.715894	-30.234140	-147.880920
4.650000	-29.731814	-89.527147	-0.297776	140.297578	-0.297776	140.297578	-31.094596	-150.780609
4.700000	-30.506029	-89.392464	-0.300457	137.876711	-0.300457	137.876711	-32.101825	-153.863801
4.750000	-31.376392	-88.577556	-0.303147	135.453258	-0.303147	135.453258	-33.299217	-157.220762
4.800000	-32.351286	-86.817412	-0.305860	133.027190	-0.305860	133.027190	-34.753495	-161.015384
4.850000	-33.430890	-83.718779	-0.308608	130.598488	-0.308608	130.598488	-36.574400	-165.578053
4.900000	-34.592016	-78.713049	-0.311404	128.167139	-0.311404	128.167139	-38.958789	-171.681521
4.950000	-35.755327	-71.062375	-0.314262	125.733140	-0.314262	125.733140	-42.295998	178.416097
5.000000	-36.733050	-60.113482	-0.317197	123.296495	-0.317197	123.296495	-47.282325	155.612057
5.050000	-37.197172	-46.095334	-0.320224	120.857163	-0.320224	120.857163	-50.012614	89.610744
5.100000	-36.906291	-31.237273	-0.323357	118.415225	-0.323357	118.415225	-44.557244	44.944385
5.150000	-35.938604	-18.327634	-0.326608	115.970715	-0.326608	115.970715	-40.120505	29.495348
5.200000	-34.604764	-8.696358	-0.329992	113.523677	-0.329992	113.523677	-36.998080	21.613606
5.250000	-33.173141	-2.139822	-0.333522	111.074163	-0.333522	111.074163	-34.625753	16.258820
5.300000	-31.783525	2.076438	-0.337211	108.622237	-0.337211	108.622237	-32.716950	12.020434
5.350000	-30.488479	4.634590	-0.341070	106.167970	-0.341070	106.167970	-31.120392	8.367136
5.400000	-29.299580	6.032315	-0.345111	103.711443	-0.345111	103.711443	-29.748275	5.056329
5.450000	-28.212371	6.608346	-0.349343	101.252747	-0.349343	101.252747	-28.545519	1.961924
5.500000	-27.217266	6.590755	-0.353775	98.791978	-0.353775	98.791978	-27.475433	-0.987978
5.550000	-26.303879	6.134862	-0.358416	96.329243	-0.358416	96.329243	-26.512399	-3.837329
5.600000	-25.462586	5.348530	-0.363271	93.864653	-0.363271	93.864653	-25.637849	-6.614494
5.650000	-24.684882	4.306190	-0.368346	91.398310	-0.368346	91.398310	-24.837868	-9.338164
5.700000	-23.963674	3.064727	-0.373646	88.930341	-0.373646	88.930341	-24.101889	-12.022009
5.750000	-23.292973	1.667243	-0.379168	86.460893	-0.379168	86.460893	-23.421642	-14.676025
5.800000	-22.667622	0.144296	-0.384911	83.990096	-0.384911	83.990096	-22.790491	-17.307195
5.850000	-22.083265	-1.480590	-0.390873	81.518085	-0.390873	81.518085	-22.203073	-19.920810
5.900000	-21.536210	-3.189014	-0.397048	79.044992	-0.397048	79.044992	-21.654993	-22.520952
5.950000	-21.023311	-4.966374	-0.403429	76.570949	-0.403429	76.570949	-21.142610	-25.110830
6.000000	-20.541876	-6.800922	-0.410007	74.096088	-0.410007	74.096088	-20.662882	-27.693008
6.050000	-20.089593	-8.683084	-0.416771	71.620535	-0.416771	71.620535	-20.213238	-30.269569
6.100000	-19.664464	-10.604959	-0.423707	69.144413	-0.423707	69.144413	-19.791499	-32.842233
6.150000	-19.264759	-12.559956	-0.430799	66.667839	-0.430799	66.667839	-19.395797	-35.412446
6.200000	-18.888972	-14.542505	-0.438029	64.190919	-0.438029	64.190919	-19.024532	-37.981444
6.250000	-18.535790	-16.547853	-0.445378	61.713755	-0.445378	61.713755	-18.676320	-40.550306
6.300000	-18.204253	-18.572219	-0.452825	59.236431	-0.452825	59.236431	-18.350170	-43.120032
6.350000	-17.893194	-20.611557	-0.460344	56.759030	-0.460344	56.759030	-18.044865	-45.691496
6.400000	-17.601730	-22.662730	-0.467910	54.281612	-0.467910	54.281612	-17.759505	-48.265511
6.450000	-17.329088	-24.722933	-0.475495	51.804225	-0.475495	51.804225	-17.493306	-50.842852
6.500000	-17.074590	-26.789634	-0.483072	49.326899	-0.483072	49.326899	-17.245595	-53.424279
6.550000	-16.837647	-28.860515	-0.490610	46.849648	-0.490610	46.849648	-17.015788	-56.010547
6.600000	-16.617746	-30.933431	-0.498079	44.372466	-0.498079	44.372466	-16.803390	-58.602426
6.650000	-16.414446	-33.006373	-0.505448	41.895329	-0.505448	41.895329	-16.607979	-61.200710
6.700000	-16.227369	-35.077433	-0.512686	39.418192	-0.512686	39.418192	-16.429208	-63.806236
6.750000	-16.056198	-37.144774	-0.519759	36.940988	-0.519759	36.940988	-16.266794	-66.419887
6.800000	-15.900674	-39.206604	-0.526636	34.463630	-0.526636	34.463630	-16.120516	-69.042616
6.850000	-15.760589	-41.261149	-0.533284	31.986008	-0.533284	31.986008	-15.990215	-71.675452
6.900000	-15.635935	-43.306511	-0.539671	29.507982	-0.539671	29.507982	-15.875947	-74.319651
6.950000	-15.526617	-45.340814	-0.545763	27.029389	-0.545763	27.029389	-15.777683	-76.976487
7.000000	-15.432431	-47.362280	-0.551534	24.550055	-0.551534	24.550055	-15.695282	-79.647202
7.050000	-15.353369	-49.368944	-0.556958	22.069774	-0.556958	22.069774	-15.628817	-82.333301
7.100000	-15.289467	-51.358719	-0.562007	19.588320	-0.562007	19.588320	-15.578420	-85.036460
7.150000	-15.240812	-53.329364	-0.566659	17.105445	-0.566659	17.105445	-15.544289	-87.758544
7.200000	-15.207540	-55.278447	-0.570892	14.620877	-0.570892	14.620877	-15.526684	-90.501642
7.250000	-15.189839	-57.203295	-0.574687	12.134325	-0.574687	12.134325	-15.525937	-93.268099
7.300000	-15.187945	-59.100950	-0.578029	9.645476	-0.578029	9.645476	-15.542455	-96.060560
7.350000	-15.202153	-60.968102	-0.580907	7.154000	-0.580907	7.154000	-15.576727	-98.882018
7.400000	-15.232810	-62.801026	-0.583312	4.659548	-0.583312	4.659548	-15.629330	-101.735879
7.450000	-15.280323	-64.595493	-0.585240	2.161754	-0.585240	2.161754	-15.700939	-104.626036
7.500000	-15.345159	-66.346678	-0.586691	-0.339760	-0.586691	-0.339760	-15.792339	-107.556961
7.550000	-15.428225	-68.047822	-0.587661	-2.845487	-0.587661	-2.845487	-15.904868	-110.534960
7.600000	-15.529740	-69.693389	-0.588170	-5.355749	-0.588170	-5.355749	-16.039154	-113.565231
7.650000	-15.650351	-71.275850	-0.588233	-7.870958	-0.588233	-7.870958	-16.196388	-116.654901
7.700000	-15.790766	-72.786413	-0.587873	-10.391532	-0.587873	-10.391532	-16.377932	-119.812390
7.750000	-15.951252	-74.217299	-0.587125	-12.917723	-0.587125	-12.917723	-16.584740	-123.045306
7.800000	-16.133489	-75.552268	-0.586003	-15.450240	-0.586003	-15.450240	-16.819644	-126.369540
7.850000	-16.338050	-76.777732	-0.584552	-17.989433	-0.584552	-17.989433	-17.084371	-129.798936
7.900000	-16.565639	-77.876976	-0.582820	-20.535681	-0.582820	-20.535681	-17.381083	-133.351001
7.950000	-16.816948	-78.829935	-0.580859	-23.089369	-0.580859	-23.089369	-17.712283	-137.047542
8.000000	-17.092576	-79.612324	-0.578727	-25.650883	-0.578727	-25.650883	-18.080835	-140.916150
8.050000	-17.392869	-80.195159	-0.576488	-28.220591	-0.576488	-28.220591	-18.489897	-144.991666
8.100000	-17.717745	-80.543896	-0.574213	-30.798842	-0.574213	-30.798842	-18.942865	-149.318567
8.150000	-18.066476	-80.615793	-0.571980	-33.386005	-0.571980	-33.386005	-19.443335	-153.956316
8.200000	-18.437160	-80.361719	-0.569874	-35.982376	-0.569874	-35.982376	-19.994517	-158.981311
8.250000	-18.826284	-79.727204	-0.567984	-38.588161	-0.567984	-38.588161	-20.598655	-164.490894
8.300000	-19.228083	-78.649477	-0.566404	-41.203576	-0.566404	-41.203576	-21.256005	-170.615208
8.350000	-19.633571	-77.061610	-0.565236	-43.828792	-0.565236	-43.828792	-21.962433	-177.523769
8.400000	-20.029493	-74.898483	-0.564584	-46.463933	-0.564584	-46.463933	-22.705366	174.568977
8.450000	-20.397222	-72.105938	-0.564561	-49.109095	-0.564561	-49.109095	-23.456849	165.406230
8.500000	-20.712115	-68.658249	-0.565284	-51.764349	-0.565284	-51.764349	-24.163316	154.726838
8.550000	-20.946181	-64.592122	-0.566866	-54.429562	-0.566866	-54.429562	-24.740424	142.407742
8.600000	-21.070278	-60.012265	-0.569425	-57.104624	-0.569425	-57.104624	-25.077989	128.619303
8.650000	-21.060252	-55.103250	-0.573083	-59.789353	-0.573083	-59.789353	-25.076947	113.988217
8.700000	-20.903302	-50.111313	-0.577959	-62.483503	-0.577959	-62.483503	-24.704514	99.487500
8.750000	-20.601938	-45.301171	-0.584174	-65.186750	-0.584174	-65.186750	-24.016661	86.029224
8.800000	-20.171840	-40.910729	-0.591864	-67.898791	-0.591864	-67.898791	-23.119077	74.130354
8.850000	-19.641420	-37.096449	-0.601131	-70.619056	-0.601131	-70.619056	-22.121005	63.834757
8.900000	-19.040298	-33.936537	-0.612088	-73.347000	-0.612088	-73.347000	-21.097629	54.957909
8.950000	-18.395844	-31.442038	-0.624843	-76.082006	-0.624843	-76.082006	-20.093478	47.242721
9.000000	-17.730509	-29.578827	-0.639497	-78.823385	-0.639497	-78.823385	-19.131407	40.445669
9.050000	-17.061208	-28.288462	-0.656145	-81.570380	-0.656145	-81.570380	-18.221252	34.365444
9.100000	-16.399622	-27.507005	-0.674892	-84.322196	-0.674892	-84.322196	-17.365515	28.848495
9.150000	-15.754061	-27.163696	-0.695806	-87.077905	-0.695806	-87.077905	-16.563539	23.770976
9.200000	-15.129695	-27.194172	-0.718939	-89.836532	-0.718939	-89.836532	-15.812773	19.040407
9.250000	-14.529189	-27.547980	-0.744380	-92.597085	-0.744380	-92.597085	-15.109716	14.592099
9.300000	-13.954250	-28.174528	-0.772150	-95.358454	-0.772150	-95.358454	-14.451057	10.370839
9.350000	-13.405406	-29.033691	-0.802280	-98.119489	-0.802280	-98.119489	-13.833449	6.336608
9.400000	-12.882572	-30.091471	-0.834776	-100.878978	-0.834776	-100.878978	-13.253784	2.458301
9.450000	-12.385275	-31.319122	-0.869622	-103.635673	-0.869622	-103.635673	-12.709234	-1.288463
9.500000	-11.912808	-32.692330	-0.906763	-106.388371	-0.906763	-106.388371	-12.197247	-4.922949
9.550000	-11.464330	-34.190484	-0.946121	-109.136026	-0.946121	-109.136026	-11.715536	-8.460492
9.600000	-11.038948	-35.796496	-0.987620	-111.877787	-0.987620	-111.877787	-11.262068	-11.913031
9.650000	-10.635767	-37.495584	-1.031198	-114.612927	-1.031198	-114.612927	-10.835040	-15.290289
9.700000	-10.253847	-39.273961	-1.076789	-117.340770	-1.076789	-117.340770	-10.432760	-18.601067
9.750000	-9.892284	-41.120635	-1.124343	-120.060444	-1.124343	-120.060444	-10.053734	-21.851888
9.800000	-9.550205	-43.026093	-1.173788	-122.770991	-1.173788	-122.770991	-9.696607	-25.048113
9.850000	-9.226781	-44.982061	-1.225027	-125.471454	-1.225027	-125.471454	-9.360153	-28.194170
9.900000	-8.921223	-46.981321	-1.277942	-128.160945	-1.277942	-128.160945	-9.043252	-31.293735
9.950000	-8.632786	-49.017545	-1.332396	-130.838670	-1.332396	-130.838670	-8.744884	-34.349878
10.000000	-8.360766	-51.085171	-1.388243	-133.503943	-1.388243	-133.503943	-8.464111	-37.365173
