! freq	dB(S11)	phase(S11)	dB(S12)	phase(S12)	
!     	dB(S21)	phase(S21)	dB(S22)	phase(S22)	
!S-par simulation data
#  GHz  S  DB  R 50
0.000000	-0.000000	0.000000	-376.892267	0.000000	-376.892267	0.000000	-0.000000	0.000000
0.050000	-0.000105	-0.807370	-117.284952	90.647306	-117.284952	90.647306	-0.000101	-0.767246
0.100000	-0.000417	-1.614480	-111.208030	89.594722	-111.208030	89.594722	-0.000401	-1.534239
0.150000	-0.000920	-2.421095	-107.742592	88.661829	-107.742592	88.661829	-0.000885	-2.300750
0.200000	-0.001596	-3.227018	-105.354996	87.869398	-105.354996	87.869398	-0.001533	-3.066592
0.250000	-0.002428	-4.032035	-103.577370	87.190425	-103.577370	87.190425	-0.002330	-3.831560
0.300000	-0.003376	-4.836111	-102.192080	86.606974	-102.192080	86.606974	-0.003235	-4.595628
0.350000	-0.004422	-5.639140	-101.094096	86.130507	-101.094096	86.130507	-0.004231	-5.358702
0.400000	-0.005541	-6.441088	-100.219900	85.777867	-100.219900	85.777867	-0.005294	-6.120755
0.450000	-0.006711	-7.241950	-99.530148	85.574688	-99.530148	85.574688	-0.006402	-6.881791
0.500000	-0.007913	-8.041744	-98.999685	85.556254	-98.999685	85.556254	-0.007539	-7.641833
0.550000	-0.009133	-8.840502	-98.612367	85.770004	-98.612367	85.770004	-0.008691	-8.400917
0.600000	-0.010358	-9.638263	-98.358098	86.279773	-98.358098	86.279773	-0.009846	-9.159085
0.650000	-0.011579	-10.435071	-98.230895	87.172288	-98.230895	87.172288	-0.010997	-9.916381
0.700000	-0.012791	-11.230967	-98.227253	88.566804	-98.227253	88.566804	-0.012138	-10.672845
0.750000	-0.013988	-12.025986	-98.344126	90.628896	-98.344126	90.628896	-0.013267	-11.428512
0.800000	-0.015169	-12.820162	-98.575576	93.588786	-98.575576	93.588786	-0.014380	-12.183414
0.850000	-0.016333	-13.613520	-98.906395	97.760804	-98.906395	97.760804	-0.015478	-12.937574
0.900000	-0.017478	-14.406078	-99.300148	103.548095	-99.300148	103.548095	-0.016560	-13.691011
0.950000	-0.018607	-15.197851	-99.679704	111.386365	-99.679704	111.386365	-0.017626	-14.443735
1.000000	-0.019719	-15.988846	-99.906920	121.541391	-99.906920	121.541391	-0.018678	-15.195755
1.050000	-0.020815	-16.779067	-99.792684	133.720059	-99.792684	133.720059	-0.019718	-15.947073
1.100000	-0.021898	-17.568512	-99.181982	146.749076	-99.181982	146.749076	-0.020745	-16.697686
1.150000	-0.022969	-18.357175	-98.073793	158.923693	-98.073793	158.923693	-0.021761	-17.447592
1.200000	-0.024028	-19.145050	-96.623686	169.001508	-96.623686	169.001508	-0.022768	-18.196781
1.250000	-0.025077	-19.932125	-95.020569	176.689672	-95.020569	176.689672	-0.023767	-18.945245
1.300000	-0.026118	-20.718352	-93.386723	-177.768739	-93.386723	-177.768739	-0.024758	-19.692940
1.350000	-0.027152	-21.503751	-91.806560	-173.802522	-91.806560	-173.802522	-0.025743	-20.439884
1.400000	-0.028180	-22.288308	-90.306517	-171.012967	-90.306517	-171.012967	-0.026723	-21.186063
1.450000	-0.029202	-23.072004	-88.893122	-169.097834	-88.893122	-169.097834	-0.027698	-21.931464
1.500000	-0.030221	-23.854824	-87.563935	-167.837453	-87.563935	-167.837453	-0.028670	-22.676069
1.550000	-0.031236	-24.636748	-86.312982	-167.073845	-86.312982	-167.073845	-0.029638	-23.419864
1.600000	-0.032248	-25.417760	-85.133279	-166.692916	-85.133279	-166.692916	-0.030604	-24.162833
1.650000	-0.033258	-26.197841	-84.017938	-166.611355	-84.017938	-166.611355	-0.031568	-24.904960
1.700000	-0.034266	-26.976634	-82.936170	-166.828734	-82.936170	-166.828734	-0.032530	-25.645921
1.750000	-0.035274	-27.754925	-81.942008	-167.153203	-81.942008	-167.153203	-0.033492	-26.386429
1.800000	-0.036282	-28.532006	-80.980244	-167.654099	-80.980244	-167.654099	-0.034452	-27.125844
1.850000	-0.037289	-29.308224	-80.069610	-168.281013	-80.069610	-168.281013	-0.035413	-27.864478
1.900000	-0.038297	-30.083366	-79.194882	-169.010944	-79.194882	-169.010944	-0.036374	-28.602141
1.950000	-0.039305	-30.857433	-78.354349	-169.843891	-78.354349	-169.843891	-0.037335	-29.338832
2.000000	-0.040314	-31.630572	-77.551824	-170.737726	-77.551824	-170.737726	-0.038296	-30.074686
2.050000	-0.041325	-32.402411	-76.770866	-171.716806	-76.770866	-171.716806	-0.039259	-30.809366
2.100000	-0.042337	-33.173484	-76.029178	-172.731588	-76.029178	-172.731588	-0.040223	-31.543353
2.150000	-0.043351	-33.943023	-75.299492	-173.817775	-75.299492	-173.817775	-0.041189	-32.275956
2.200000	-0.044367	-34.711969	-74.609785	-174.924122	-74.609785	-174.924122	-0.042156	-33.008023
2.250000	-0.045387	-35.479138	-73.924741	-176.090953	-73.924741	-176.090953	-0.043127	-33.738483
2.300000	-0.046408	-36.245900	-73.279996	-177.268129	-73.279996	-177.268129	-0.044098	-34.468577
2.350000	-0.047434	-37.010630	-72.634229	-178.497036	-72.634229	-178.497036	-0.045075	-35.196834
2.400000	-0.048461	-37.775153	-72.028796	-179.729999	-72.028796	-179.729999	-0.046051	-35.924902
2.450000	-0.049495	-38.537381	-71.417902	178.992427	-71.417902	178.992427	-0.047035	-36.650895
2.500000	-0.050529	-39.299610	-70.847164	177.714852	-70.847164	177.714852	-0.048018	-37.376888
2.550000	-0.051572	-40.059275	-70.267486	176.398541	-70.267486	176.398541	-0.049010	-38.100561
2.600000	-0.052615	-40.818941	-69.724085	175.082229	-69.724085	175.082229	-0.050002	-38.824233
2.650000	-0.053667	-41.576205	-69.176084	173.737298	-69.176084	173.737298	-0.051002	-39.545727
2.700000	-0.054721	-42.333250	-68.657485	172.389766	-68.657485	172.389766	-0.052004	-40.267024
2.750000	-0.055784	-43.088067	-68.137884	171.021047	-68.137884	171.021047	-0.053014	-40.986296
2.800000	-0.056849	-43.842437	-67.641916	169.648091	-67.641916	169.648091	-0.054027	-41.705164
2.850000	-0.057924	-44.594764	-67.147937	168.259479	-67.147937	168.259479	-0.055049	-42.422173
2.900000	-0.059002	-45.346408	-66.672724	166.865648	-66.672724	166.865648	-0.056074	-43.138563
2.950000	-0.060091	-46.096204	-66.201992	165.460315	-66.201992	165.460315	-0.057108	-43.853269
3.000000	-0.061184	-46.845075	-65.745899	164.049231	-65.745899	164.049231	-0.058148	-44.567132
3.050000	-0.062287	-47.592303	-65.296364	162.629788	-65.296364	162.629788	-0.059196	-45.279497
3.100000	-0.063396	-48.338356	-64.857957	161.204373	-64.857957	161.204373	-0.060251	-45.990790
3.150000	-0.064515	-49.082980	-64.427841	159.772987	-64.427841	159.772987	-0.061314	-46.700777
3.200000	-0.065643	-49.826173	-64.005852	158.335628	-64.005852	158.335628	-0.062386	-47.409458
3.250000	-0.066778	-50.568160	-63.593598	156.894114	-63.593598	156.894114	-0.063465	-48.117033
3.300000	-0.067926	-51.308457	-63.186902	155.446781	-63.186902	155.446781	-0.064556	-48.823062
3.350000	-0.069080	-52.047777	-62.791137	153.996671	-62.791137	153.996671	-0.065653	-49.528194
3.400000	-0.070249	-52.785142	-62.398730	152.541005	-62.398730	152.541005	-0.066763	-50.231535
3.450000	-0.071424	-53.521767	-62.018241	151.083602	-62.018241	151.083602	-0.067880	-50.934194
3.500000	-0.072615	-54.256169	-61.639220	149.620984	-61.639220	149.620984	-0.069012	-51.634812
3.550000	-0.073811	-54.990073	-61.272926	148.157402	-61.272926	148.157402	-0.070148	-52.334971
3.600000	-0.075028	-55.721485	-60.906478	146.689001	-60.906478	146.689001	-0.071304	-53.032836
3.650000	-0.076247	-56.452646	-60.553414	145.220201	-60.553414	145.220201	-0.072462	-53.730468
3.700000	-0.077491	-57.181044	-60.198800	143.747016	-60.198800	143.747016	-0.073643	-54.425551
3.750000	-0.078734	-57.909441	-59.858099	142.273831	-59.858099	142.273831	-0.074824	-55.120634
3.800000	-0.080006	-58.634802	-59.514651	140.796720	-59.514651	140.796720	-0.076031	-55.812911
3.850000	-0.081278	-59.360164	-59.184269	139.319608	-59.184269	139.319608	-0.077238	-56.505187
3.900000	-0.082577	-60.082726	-58.852637	137.839579	-58.852637	137.839579	-0.078471	-57.194870
3.950000	-0.083879	-60.805034	-58.532033	136.359285	-58.532033	136.359285	-0.079707	-57.884317
4.000000	-0.085208	-61.524786	-58.211491	134.876876	-58.211491	134.876876	-0.080968	-58.571391
4.050000	-0.086542	-62.244026	-57.900169	133.394044	-57.900169	133.394044	-0.082233	-59.257990
4.100000	-0.087902	-62.960958	-57.590058	131.909735	-57.590058	131.909735	-0.083522	-59.942439
4.150000	-0.089270	-63.677120	-57.287561	130.424932	-57.287561	130.424932	-0.084819	-60.626173
4.200000	-0.090662	-64.391225	-56.987281	128.939148	-56.987281	128.939148	-0.086138	-61.307987
4.250000	-0.092065	-65.104301	-56.693186	127.452873	-56.693186	127.452873	-0.087468	-61.988841
4.300000	-0.093491	-65.815575	-56.402188	125.965996	-56.402188	125.965996	-0.088819	-62.668010
4.350000	-0.094932	-66.525561	-56.116106	124.478690	-56.116106	124.478690	-0.090184	-63.345974
4.400000	-0.096393	-67.234003	-55.833887	122.991065	-55.833887	122.991065	-0.091567	-64.022490
4.450000	-0.097873	-67.940899	-55.555456	121.503121	-55.555456	121.503121	-0.092968	-64.697556
4.500000	-0.099370	-68.646508	-55.281555	120.015058	-55.281555	120.015058	-0.094385	-65.371413
4.550000	-0.100892	-69.350316	-55.010439	118.526829	-55.010439	118.526829	-0.095825	-66.043576
4.600000	-0.102428	-70.053098	-54.744431	117.038612	-54.744431	117.038612	-0.097278	-66.714770
4.650000	-0.103992	-70.753824	-54.480316	115.550417	-54.480316	115.550417	-0.098757	-67.384027
4.700000	-0.105567	-71.453783	-54.221809	114.062302	-54.221809	114.062302	-0.100247	-68.052558
4.750000	-0.107176	-72.151437	-53.964404	112.574430	-53.964404	112.574430	-0.101767	-68.718909
4.800000	-0.108792	-72.848581	-53.713035	111.086655	-53.713035	111.086655	-0.103295	-69.384776
4.850000	-0.110447	-73.543175	-53.462067	109.599371	-53.462067	109.599371	-0.104859	-70.048225
4.900000	-0.112107	-74.237516	-53.217501	108.112156	-53.217501	108.112156	-0.106426	-70.711431
4.950000	-0.113810	-74.929066	-52.972715	106.625705	-52.972715	106.625705	-0.108035	-71.371982
5.000000	-0.115513	-75.620617	-52.734639	105.139253	-52.734639	105.139253	-0.109644	-72.032533
5.050000	-0.117266	-76.309142	-52.495797	103.653862	-52.495797	103.653862	-0.111298	-72.690195
5.100000	-0.119019	-76.997668	-52.263347	102.168471	-52.263347	102.168471	-0.112954	-73.347856
5.150000	-0.120819	-77.683441	-52.030798	100.684248	-52.030798	100.684248	-0.114653	-74.002879
5.200000	-0.122624	-78.368964	-51.803769	99.200131	-51.803769	99.200131	-0.116356	-74.657662
5.250000	-0.124473	-79.052005	-51.577238	97.717246	-51.577238	97.717246	-0.118100	-75.310057
5.300000	-0.126332	-79.734551	-51.355436	96.234607	-51.355436	96.234607	-0.119853	-75.961974
5.350000	-0.128231	-80.414885	-51.134666	94.753222	-51.134666	94.753222	-0.121645	-76.611754
5.400000	-0.130144	-81.094483	-50.917908	93.272256	-50.917908	93.272256	-0.123449	-77.260822
5.450000	-0.132095	-81.772135	-50.702658	91.792529	-50.702658	91.792529	-0.125289	-77.908001
5.500000	-0.134066	-82.448815	-50.490774	90.313423	-50.490774	90.313423	-0.127147	-78.554237
5.550000	-0.136070	-83.123815	-50.280819	88.835508	-50.280819	88.835508	-0.129036	-79.198833
5.600000	-0.138099	-83.797613	-50.073645	87.358446	-50.073645	87.358446	-0.130949	-79.842257
5.650000	-0.140158	-84.469989	-49.868773	85.882497	-49.868773	85.882497	-0.132889	-80.484287
5.700000	-0.142247	-85.140944	-49.666155	84.407660	-49.666155	84.407660	-0.134858	-81.124922
5.750000	-0.144362	-85.810730	-49.466168	82.933827	-49.466168	82.933827	-0.136852	-81.764405
5.800000	-0.146513	-86.478882	-49.267960	81.461397	-49.267960	81.461397	-0.138879	-82.402277
5.850000	-0.148686	-87.146114	-49.072671	79.989830	-49.072671	79.989830	-0.140926	-83.039236
5.900000	-0.150901	-87.811507	-48.878735	78.519989	-48.878735	78.519989	-0.143013	-83.674370
5.950000	-0.153133	-88.476222	-48.687968	77.050841	-48.687968	77.050841	-0.145116	-84.308828
6.000000	-0.155413	-89.138904	-48.498170	75.583773	-48.498170	75.583773	-0.147264	-84.941254
6.050000	-0.157706	-89.801142	-48.311759	74.117198	-48.311759	74.117198	-0.149424	-85.573235
6.100000	-0.160054	-90.461164	-48.125974	72.653092	-48.125974	72.653092	-0.151635	-86.202985
6.150000	-0.162408	-91.120967	-47.943762	71.189249	-47.943762	71.189249	-0.153853	-86.832515
6.200000	-0.164826	-91.778382	-47.761870	69.728300	-47.761870	69.728300	-0.156129	-87.459622
6.250000	-0.167244	-92.435796	-47.583708	68.267351	-47.583708	68.267351	-0.158407	-88.086729
6.300000	-0.169732	-93.090660	-47.405592	66.809761	-47.405592	66.809761	-0.160750	-88.711227
6.350000	-0.172221	-93.745525	-47.231056	65.352171	-47.231056	65.352171	-0.163093	-89.335726
6.400000	-0.174776	-94.398107	-47.056890	63.897854	-47.056890	63.897854	-0.165499	-89.957869
6.450000	-0.177339	-95.050482	-46.885876	62.443835	-46.885876	62.443835	-0.167911	-90.579797
6.500000	-0.179962	-95.700836	-46.715524	60.992979	-46.715524	60.992979	-0.170381	-91.199615
6.550000	-0.182599	-96.350786	-46.547932	59.542755	-46.547932	59.542755	-0.172863	-91.819011
6.600000	-0.185293	-96.998968	-46.381263	58.095555	-46.381263	58.095555	-0.175398	-92.436539
6.650000	-0.188007	-97.646560	-46.216998	56.649363	-46.216998	56.649363	-0.177951	-93.053444
6.700000	-0.190773	-98.292629	-46.053888	55.206029	-46.053888	55.206029	-0.180553	-93.668717
6.750000	-0.193566	-98.937935	-45.892856	53.764123	-45.892856	53.764123	-0.183179	-94.283173
6.800000	-0.196405	-99.581952	-45.733186	52.324878	-45.733186	52.324878	-0.185849	-94.896227
6.850000	-0.199278	-100.225048	-45.575297	50.887532	-45.575297	50.887532	-0.188550	-95.508280
6.900000	-0.202193	-100.867080	-45.418953	49.452616	-45.418953	49.452616	-0.191290	-96.119153
6.950000	-0.205150	-101.508046	-45.264121	48.020129	-45.264121	48.020129	-0.194067	-96.728847
7.000000	-0.208142	-102.148160	-45.110994	46.589803	-45.110994	46.589803	-0.196877	-97.337578
7.050000	-0.211183	-102.787082	-44.959133	45.162501	-44.959133	45.162501	-0.199733	-97.944961
7.100000	-0.214254	-103.425352	-44.809117	43.737048	-44.809117	43.737048	-0.202615	-98.551591
7.150000	-0.217383	-104.062320	-44.660144	42.315293	-44.660144	42.315293	-0.205550	-99.156712
7.200000	-0.220535	-104.698823	-44.513139	40.895025	-44.513139	40.895025	-0.208506	-99.761281
7.250000	-0.223754	-105.333933	-44.366972	39.479219	-44.366972	39.479219	-0.211522	-100.364191
7.300000	-0.226989	-105.968751	-44.222879	38.064482	-44.222879	38.064482	-0.214553	-100.966742
7.350000	-0.230301	-106.602107	-44.079438	36.655082	-44.079438	36.655082	-0.217651	-101.567493
7.400000	-0.233622	-107.235327	-43.938163	35.246260	-43.938163	35.246260	-0.220758	-102.168069
7.450000	-0.237029	-107.867042	-43.797367	33.843785	-43.797367	33.843785	-0.223941	-102.766715
7.500000	-0.240437	-108.498757	-43.658818	32.441311	-43.658818	32.441311	-0.227125	-103.365361
7.550000	-0.243943	-109.128951	-43.520590	31.046360	-43.520590	31.046360	-0.230394	-103.961957
7.600000	-0.247451	-109.759145	-43.384526	29.651410	-43.384526	29.651410	-0.233663	-104.558552
7.650000	-0.251050	-110.388066	-43.248935	28.263997	-43.248935	28.263997	-0.237012	-105.153320
7.700000	-0.254660	-111.016872	-43.115282	26.877269	-43.115282	26.877269	-0.240369	-105.747921
7.750000	-0.258357	-111.644643	-42.982234	25.498081	-42.982234	25.498081	-0.243799	-106.340907
7.800000	-0.262072	-112.272207	-42.850914	24.120401	-42.850914	24.120401	-0.247245	-106.933571
7.850000	-0.265870	-112.898961	-42.720318	22.750247	-42.720318	22.750247	-0.250758	-107.524827
7.900000	-0.269696	-113.525446	-42.591252	21.382602	-42.591252	21.382602	-0.254294	-108.115612
7.950000	-0.273599	-114.151333	-42.463013	20.022442	-42.463013	20.022442	-0.257890	-108.705185
8.000000	-0.277542	-114.776922	-42.336117	18.666026	-42.336117	18.666026	-0.261518	-109.294152
8.050000	-0.281555	-115.402110	-42.210139	17.317015	-42.210139	17.317015	-0.265200	-109.882093
8.100000	-0.285619	-116.027013	-42.085324	15.973294	-42.085324	15.973294	-0.268921	-110.469301
8.150000	-0.289749	-116.651695	-41.961506	14.636834	-41.961506	14.636834	-0.272689	-111.055661
8.200000	-0.293944	-117.276156	-41.838671	13.307634	-41.838671	13.307634	-0.276504	-111.641173
8.250000	-0.298197	-117.900554	-41.716905	11.985445	-41.716905	11.985445	-0.280360	-112.226003
8.300000	-0.302532	-118.524862	-41.595934	10.673072	-41.595934	10.673072	-0.284271	-112.809879
8.350000	-0.306913	-119.149223	-41.476143	9.366685	-41.476143	9.366685	-0.288214	-113.393273
8.400000	-0.311387	-119.773690	-41.357032	8.072268	-41.357032	8.072268	-0.292215	-113.975704
8.450000	-0.315944	-120.398429	-41.238716	6.789247	-41.238716	6.789247	-0.296265	-114.557377
8.500000	-0.320557	-121.023351	-41.121446	5.513912	-41.121446	5.513912	-0.300350	-115.138539
8.550000	-0.325300	-121.648970	-41.004485	4.257850	-41.004485	4.257850	-0.304506	-115.718646
8.600000	-0.330088	-122.274857	-40.888676	3.008223	-40.888676	3.008223	-0.308685	-116.298435
8.650000	-0.335026	-122.901837	-40.772990	1.781881	-40.772990	1.781881	-0.312937	-116.877186
8.700000	-0.340041	-123.529518	-40.658104	0.568027	-40.658104	0.568027	-0.317223	-117.455493
8.750000	-0.345178	-124.158301	-40.543600	-0.626202	-40.543600	-0.626202	-0.321563	-118.033099
8.800000	-0.350469	-124.788726	-40.429139	-1.794721	-40.429139	-1.794721	-0.325959	-118.609982
8.850000	-0.355843	-125.420026	-40.315408	-2.949563	-40.315408	-2.949563	-0.330387	-119.186480
8.900000	-0.361480	-126.054499	-40.200595	-4.059322	-40.200595	-4.059322	-0.334895	-119.761992
8.950000	-0.367209	-126.690117	-40.086373	-5.153672	-40.086373	-5.153672	-0.339429	-120.337223
9.000000	-0.373239	-127.329626	-39.970606	-6.196689	-39.970606	-6.196689	-0.344037	-120.911592
9.050000	-0.379488	-127.972047	-39.854021	-7.203457	-39.854021	-7.203457	-0.348687	-121.485499
9.100000	-0.386011	-128.618107	-39.736096	-8.164916	-39.736096	-8.164916	-0.353389	-122.058829
9.150000	-0.393022	-129.270664	-39.614190	-9.049326	-39.614190	-9.049326	-0.358159	-122.631416
9.200000	-0.400239	-129.925896	-39.491716	-9.902010	-39.491716	-9.902010	-0.362959	-123.203698
9.250000	-0.408461	-130.593900	-39.358840	-10.609930	-39.358840	-10.609930	-0.367853	-123.774917
9.300000	-0.417112	-131.266856	-39.222562	-11.264304	-39.222562	-11.264304	-0.372777	-124.345823
9.350000	-0.427042	-131.954648	-39.072276	-11.758819	-39.072276	-11.758819	-0.377778	-124.915808
9.400000	-0.437964	-132.652754	-38.911638	-12.147887	-38.911638	-12.147887	-0.382820	-125.485275
9.450000	-0.451127	-133.372910	-38.724606	-12.318336	-38.724606	-12.318336	-0.387933	-126.053705
9.500000	-0.467178	-134.118023	-38.503432	-12.259096	-38.503432	-12.259096	-0.393101	-126.621092
9.550000	-0.487745	-134.897009	-38.228797	-11.917266	-38.228797	-11.917266	-0.398316	-127.187145
9.600000	-0.516188	-135.724626	-37.863010	-11.233510	-37.863010	-11.233510	-0.403554	-127.751307
9.650000	-0.557374	-136.612702	-37.361555	-10.243731	-37.361555	-10.243731	-0.408749	-128.312987
9.700000	-0.623334	-137.578858	-36.628505	-9.125579	-36.628505	-9.125579	-0.413728	-128.870850
9.750000	-0.739370	-138.602488	-35.529397	-8.631558	-35.529397	-8.631558	-0.418012	-129.423214
9.800000	-0.955437	-139.450045	-33.953983	-10.868780	-33.953983	-10.868780	-0.420344	-129.970287
9.850000	-1.295072	-139.036639	-32.168560	-20.037880	-32.168560	-20.037880	-0.418600	-130.527738
9.900000	-1.403348	-136.319090	-31.424503	-37.045138	-31.424503	-37.045138	-0.416200	-131.134998
9.950000	-1.076792	-134.924978	-32.327686	-51.494232	-32.327686	-51.494232	-0.421896	-131.760666
10.000000	-0.806564	-135.572312	-33.635795	-58.217793	-33.635795	-58.217793	-0.431261	-132.356089
