! freq	dB(S11)	phase(S11)	dB(S12)	phase(S12)	
!     	dB(S21)	phase(S21)	dB(S22)	phase(S22)	
!S-par simulation data
#  GHz  S  DB  R 50
0.000000	-0.000000	0.000000	-370.519479	0.000000	-370.519479	0.000000	-0.000000	0.000000
0.050000	-0.000101	-0.761469	-117.772306	85.501285	-117.772306	85.501285	-0.000101	-0.761480
0.100000	-0.000399	-1.522686	-112.234996	84.438249	-112.234996	84.438249	-0.000400	-1.522707
0.150000	-0.000886	-2.283402	-109.037262	84.380194	-109.037262	84.380194	-0.000888	-2.283431
0.200000	-0.001529	-3.043472	-106.787343	84.376453	-106.787343	84.376453	-0.001532	-3.043506
0.250000	-0.002311	-3.802733	-105.087244	84.307762	-105.087244	84.307762	-0.002316	-3.802769
0.300000	-0.003217	-4.560989	-103.769482	84.202907	-103.769482	84.202907	-0.003223	-4.561023
0.350000	-0.004203	-5.318340	-102.719991	84.116397	-102.719991	84.116397	-0.004210	-5.318371
0.400000	-0.005259	-6.074623	-101.898370	84.101475	-101.898370	84.101475	-0.005267	-6.074649
0.450000	-0.006358	-6.829935	-101.258845	84.204922	-101.258845	84.204922	-0.006367	-6.829954
0.500000	-0.007486	-7.584256	-100.784194	84.488758	-100.784194	84.488758	-0.007495	-7.584269
0.550000	-0.008628	-8.337632	-100.459759	85.022945	-100.459759	85.022945	-0.008637	-8.337639
0.600000	-0.009773	-9.090104	-100.277676	85.898637	-100.277676	85.898637	-0.009782	-9.090106
0.650000	-0.010915	-9.841717	-100.234013	87.238672	-100.234013	87.238672	-0.010923	-9.841714
0.700000	-0.012047	-10.592509	-100.326759	89.213859	-100.326759	89.213859	-0.012054	-10.592504
0.750000	-0.013167	-11.342518	-100.552648	92.066066	-100.552648	92.066066	-0.013173	-11.342510
0.800000	-0.014272	-12.091771	-100.900859	96.137267	-100.900859	96.137267	-0.014277	-12.091763
0.850000	-0.015359	-12.840172	-101.323610	102.349837	-101.323610	102.349837	-0.015363	-12.840164
0.900000	-0.016430	-13.587828	-101.755792	110.910177	-101.755792	110.910177	-0.016434	-13.587822
0.950000	-0.017494	-14.335120	-102.040775	120.722224	-102.040775	120.722224	-0.017497	-14.335117
1.000000	-0.018536	-15.081322	-101.828546	134.289397	-101.828546	134.289397	-0.018538	-15.081321
1.050000	-0.019574	-15.827281	-101.393519	147.647811	-101.393519	147.647811	-0.019576	-15.827284
1.100000	-0.020592	-16.572033	-99.968313	159.962432	-99.968313	159.962432	-0.020593	-16.572039
1.150000	-0.021608	-17.316661	-98.661891	171.827335	-98.661891	171.827335	-0.021609	-17.316672
1.200000	-0.022606	-18.059937	-96.768628	178.745343	-96.768628	178.745343	-0.022607	-18.059952
1.250000	-0.023605	-18.803214	-95.215091	-174.336650	-95.215091	-174.336650	-0.023605	-18.803233
1.300000	-0.024592	-19.545357	-93.543846	-170.408348	-93.543846	-170.408348	-0.024592	-19.545381
1.350000	-0.025573	-20.286760	-91.971392	-167.699630	-91.971392	-167.699630	-0.025573	-20.286788
1.400000	-0.026549	-21.027409	-90.499572	-165.877817	-90.499572	-165.877817	-0.026549	-21.027440
1.450000	-0.027520	-21.767288	-89.122262	-164.709612	-89.122262	-164.709612	-0.027520	-21.767324
1.500000	-0.028488	-22.506384	-87.830817	-164.031459	-87.830817	-164.031459	-0.028488	-22.506423
1.550000	-0.029453	-23.244680	-86.616358	-163.727452	-86.616358	-163.727452	-0.029453	-23.244723
1.600000	-0.030415	-23.982163	-85.470654	-163.714159	-85.470654	-163.714159	-0.030415	-23.982209
1.650000	-0.031375	-24.718814	-84.386396	-163.930485	-84.386396	-163.930485	-0.031375	-24.718864
1.700000	-0.032333	-25.454318	-83.333950	-164.379015	-83.333950	-164.379015	-0.032333	-25.454370
1.750000	-0.033291	-26.189374	-82.364578	-164.911039	-82.364578	-164.911039	-0.033291	-26.189430
1.800000	-0.034247	-26.923355	-81.425672	-165.582769	-81.425672	-165.582769	-0.034248	-26.923413
1.850000	-0.035204	-27.656566	-80.535333	-166.354290	-80.535333	-166.354290	-0.035204	-27.656626
1.900000	-0.036160	-28.388820	-79.678928	-167.208834	-79.678928	-167.208834	-0.036161	-28.388883
1.950000	-0.037116	-29.120118	-78.854970	-168.146401	-78.854970	-168.146401	-0.037117	-29.120183
2.000000	-0.038073	-29.850591	-78.067216	-169.133806	-78.067216	-169.133806	-0.038074	-29.850658
2.050000	-0.039032	-30.579909	-77.299826	-170.190987	-77.299826	-170.190987	-0.039033	-30.579978
2.100000	-0.039991	-31.308545	-76.570127	-171.277795	-76.570127	-171.277795	-0.039992	-31.308616
2.150000	-0.040952	-32.035818	-75.851588	-172.423859	-75.851588	-172.423859	-0.040953	-32.035891
2.200000	-0.041914	-32.762563	-75.171674	-173.586861	-75.171674	-173.586861	-0.041915	-32.762638
2.250000	-0.042879	-33.487728	-74.495819	-174.800674	-74.495819	-174.800674	-0.042880	-33.487805
2.300000	-0.043845	-34.212531	-73.859115	-176.023277	-73.859115	-176.023277	-0.043846	-34.212610
2.350000	-0.044816	-34.935527	-73.220937	-177.289826	-73.220937	-177.289826	-0.044817	-34.935608
2.400000	-0.045787	-35.658337	-72.622133	-178.559855	-72.622133	-178.559855	-0.045788	-35.658420
2.450000	-0.046764	-36.379105	-72.017511	-179.868174	-72.017511	-179.868174	-0.046766	-36.379190
2.500000	-0.047742	-37.099874	-71.452251	178.823507	-71.452251	178.823507	-0.047743	-37.099960
2.550000	-0.048727	-37.818357	-70.877748	177.481621	-70.877748	177.481621	-0.048729	-37.818445
2.600000	-0.049713	-38.536841	-70.338898	176.139734	-70.338898	176.139734	-0.049714	-38.536931
2.650000	-0.050708	-39.253181	-69.795131	174.772820	-69.795131	174.772820	-0.050709	-39.253273
2.700000	-0.051703	-39.969326	-69.280296	173.403630	-69.280296	173.403630	-0.051704	-39.969419
2.750000	-0.052707	-40.683478	-68.764147	172.015748	-68.764147	172.015748	-0.052708	-40.683574
2.800000	-0.053713	-41.397233	-68.271272	170.624128	-68.271272	170.624128	-0.053715	-41.397330
2.850000	-0.054729	-42.109157	-67.780090	169.218572	-67.780090	169.218572	-0.054730	-42.109257
2.900000	-0.055748	-42.820471	-67.307390	167.808372	-67.307390	167.808372	-0.055749	-42.820573
2.950000	-0.056775	-43.530126	-66.838903	166.387843	-66.838903	166.387843	-0.056776	-43.530231
3.000000	-0.057808	-44.238953	-66.384821	164.962150	-66.384821	164.962150	-0.057809	-44.239059
3.050000	-0.058850	-44.946302	-65.937061	163.528882	-65.937061	163.528882	-0.058850	-44.946411
3.100000	-0.059898	-45.652597	-65.500226	162.090203	-65.500226	162.090203	-0.059898	-45.652708
3.150000	-0.060954	-46.357604	-65.071481	160.646060	-65.071481	160.646060	-0.060955	-46.357717
3.200000	-0.062019	-47.061324	-64.650682	159.196455	-64.650682	159.196455	-0.062020	-47.061440
3.250000	-0.063092	-47.763956	-64.239449	157.743008	-64.239449	157.743008	-0.063092	-47.764074
3.300000	-0.064175	-48.465063	-63.833604	156.284184	-63.833604	156.284184	-0.064176	-48.465183
3.350000	-0.065265	-49.165286	-63.438559	154.822765	-63.438559	154.822765	-0.065266	-49.165409
3.400000	-0.066369	-49.863743	-63.046701	153.356153	-63.046701	153.356153	-0.066370	-49.863868
3.450000	-0.067478	-50.561528	-62.666668	151.887897	-62.666668	151.887897	-0.067479	-50.561656
3.500000	-0.068603	-51.257300	-62.287929	150.414706	-62.287929	150.414706	-0.068604	-51.257431
3.550000	-0.069733	-51.952620	-61.921860	148.940591	-61.921860	148.940591	-0.069733	-51.952754
3.600000	-0.070881	-52.645677	-61.555453	147.461849	-61.555453	147.461849	-0.070882	-52.645813
3.650000	-0.072032	-53.338505	-61.202409	145.982718	-61.202409	145.982718	-0.072032	-53.338644
3.700000	-0.073205	-54.028817	-60.847622	144.499306	-60.847622	144.499306	-0.073206	-54.028959
3.750000	-0.074379	-54.719130	-60.506759	143.015894	-60.506759	143.015894	-0.074379	-54.719274
3.800000	-0.075578	-55.406673	-60.162942	141.528572	-60.162942	141.528572	-0.075579	-55.406820
3.850000	-0.076778	-56.094216	-59.832219	140.041249	-59.832219	140.041249	-0.076779	-56.094366
3.900000	-0.078004	-56.779198	-59.500060	138.550945	-59.500060	138.550945	-0.078004	-56.779351
3.950000	-0.079232	-57.463949	-59.178950	137.060369	-59.178950	137.060369	-0.079233	-57.464104
4.000000	-0.080485	-58.146355	-58.857741	135.567562	-58.857741	135.567562	-0.080485	-58.146513
4.050000	-0.081742	-58.828292	-58.545761	134.074309	-58.545761	134.074309	-0.081743	-58.828453
4.100000	-0.083024	-59.508106	-58.234857	132.579423	-58.234857	132.579423	-0.083024	-59.508270
4.150000	-0.084313	-60.187213	-57.931562	131.083994	-57.931562	131.083994	-0.084313	-60.187380
4.200000	-0.085624	-60.864424	-57.630374	129.587409	-57.630374	129.587409	-0.085624	-60.864593
4.250000	-0.086946	-61.540686	-57.335354	128.090246	-57.335354	128.090246	-0.086947	-61.540858
4.300000	-0.088288	-62.215282	-57.043344	126.592300	-57.043344	126.592300	-0.088289	-62.215457
4.350000	-0.089645	-62.888688	-56.756216	125.093795	-56.756216	125.093795	-0.089646	-62.888866
4.400000	-0.091020	-63.560661	-56.472892	123.594792	-56.472892	123.594792	-0.091020	-63.560841
4.450000	-0.092412	-64.231201	-56.193303	122.095291	-56.193303	122.095291	-0.092413	-64.231384
4.500000	-0.093821	-64.900545	-55.918209	120.595504	-55.918209	120.595504	-0.093822	-64.900731
4.550000	-0.095252	-65.568214	-55.645829	119.095317	-55.645829	119.095317	-0.095253	-65.568402
4.600000	-0.096696	-66.234924	-55.378548	117.594993	-55.378548	117.594993	-0.096697	-66.235115
4.650000	-0.098166	-66.899717	-55.113070	116.094396	-55.113070	116.094396	-0.098167	-66.899911
4.700000	-0.099647	-67.563791	-54.853215	114.593758	-54.853215	114.593758	-0.099648	-67.563988
4.750000	-0.101159	-68.225708	-54.594353	113.092998	-54.594353	113.092998	-0.101160	-68.225908
4.800000	-0.102678	-68.887146	-54.341567	111.592249	-54.341567	111.592249	-0.102679	-68.887349
4.850000	-0.104232	-69.546188	-54.089051	110.091552	-54.089051	110.091552	-0.104233	-69.546394
4.900000	-0.105790	-70.204992	-53.843001	108.590876	-53.843001	108.590876	-0.105792	-70.205200
4.950000	-0.107389	-70.861164	-53.596581	107.090442	-53.596581	107.090442	-0.107390	-70.861375
5.000000	-0.108988	-71.517336	-53.356959	105.590008	-53.356959	105.590008	-0.108990	-71.517550
5.050000	-0.110634	-72.170645	-53.116398	104.090021	-53.116398	104.090021	-0.110635	-72.170862
5.100000	-0.112279	-72.823954	-52.882321	102.590035	-52.882321	102.590035	-0.112280	-72.824174
5.150000	-0.113968	-73.474647	-52.647994	101.090612	-52.647994	101.090612	-0.113969	-73.474869
5.200000	-0.115661	-74.125102	-52.419257	99.591240	-52.419257	99.591240	-0.115663	-74.125327
5.250000	-0.117395	-74.773188	-52.190891	98.092509	-52.190891	98.092509	-0.117397	-74.773416
5.300000	-0.119138	-75.420801	-51.967304	96.593905	-51.967304	96.593905	-0.119140	-75.421032
5.350000	-0.120919	-76.066292	-51.744643	95.095983	-51.744643	95.095983	-0.120921	-76.066526
5.400000	-0.122713	-76.711077	-51.526025	93.598288	-51.526025	93.598288	-0.122715	-76.711313
5.450000	-0.124542	-77.353987	-51.308829	92.101285	-51.308829	92.101285	-0.124544	-77.354226
5.500000	-0.126389	-77.995960	-51.095009	90.604629	-51.095009	90.604629	-0.126391	-77.996202
5.550000	-0.128268	-78.636304	-50.883056	89.108648	-50.883056	89.108648	-0.128270	-78.636549
5.600000	-0.130170	-79.275484	-50.673871	87.613150	-50.673871	87.613150	-0.130171	-79.275732
5.650000	-0.132099	-79.913279	-50.466949	86.118288	-50.466949	86.118288	-0.132101	-79.913529
5.700000	-0.134057	-80.549687	-50.262248	84.624060	-50.262248	84.624060	-0.134059	-80.549941
5.750000	-0.136039	-81.184950	-50.060160	83.130406	-50.060160	83.130406	-0.136041	-81.185207
5.800000	-0.138055	-81.818610	-49.859795	81.637553	-49.859795	81.637553	-0.138057	-81.818870
5.850000	-0.140091	-82.451362	-49.662355	80.145190	-49.662355	80.145190	-0.140092	-82.451625
5.900000	-0.142166	-83.082299	-49.466189	78.653809	-49.466189	78.653809	-0.142168	-83.082564
5.950000	-0.144257	-83.712561	-49.273223	77.162818	-49.273223	77.162818	-0.144259	-83.712830
6.000000	-0.146394	-84.340802	-49.081124	75.672999	-49.081124	75.672999	-0.146395	-84.341074
6.050000	-0.148541	-84.968598	-48.892464	74.183454	-48.892464	74.183454	-0.148543	-84.968873
6.100000	-0.150741	-85.594172	-48.704307	72.695283	-48.704307	72.695283	-0.150743	-85.594450
6.150000	-0.152947	-86.219527	-48.519799	71.207256	-48.519799	71.207256	-0.152948	-86.219808
6.200000	-0.155211	-86.842466	-48.335464	69.720813	-48.335464	69.720813	-0.155213	-86.842750
6.250000	-0.157476	-87.465405	-48.154959	68.234370	-48.154959	68.234370	-0.157478	-87.465692
6.300000	-0.159807	-88.085742	-47.974331	66.749730	-47.974331	66.749730	-0.159809	-88.086033
6.350000	-0.162138	-88.706079	-47.797383	65.265090	-47.797383	65.265090	-0.162140	-88.706373
6.400000	-0.164532	-89.324064	-47.620661	63.782168	-47.620661	63.782168	-0.164533	-89.324360
6.450000	-0.166931	-89.941834	-47.447168	62.299402	-47.447168	62.299402	-0.166933	-89.942134
6.500000	-0.169388	-90.557496	-47.274215	60.818251	-47.274215	60.818251	-0.169390	-90.557799
6.550000	-0.171857	-91.172737	-47.104078	59.337424	-47.104078	59.337424	-0.171859	-91.173043
6.600000	-0.174380	-91.786109	-46.934766	57.858097	-46.934766	57.858097	-0.174382	-91.786419
6.650000	-0.176920	-92.398858	-46.767892	56.379270	-46.767892	56.379270	-0.176922	-92.399171
6.700000	-0.179509	-93.009974	-46.602098	54.901814	-46.602098	54.901814	-0.179511	-93.010290
6.750000	-0.182123	-93.620272	-46.438396	53.425043	-46.438396	53.425043	-0.182125	-93.620592
6.800000	-0.184780	-94.229166	-46.276005	51.949501	-46.276005	51.949501	-0.184782	-94.229488
6.850000	-0.187468	-94.837055	-46.115388	50.474838	-46.115388	50.474838	-0.187470	-94.837381
6.900000	-0.190195	-95.443763	-45.956287	49.001252	-45.956287	49.001252	-0.190197	-95.444092
6.950000	-0.192959	-96.049287	-45.798672	47.528742	-45.798672	47.528742	-0.192961	-96.049620
7.000000	-0.195756	-96.653845	-45.642756	46.057147	-45.642756	46.057147	-0.195758	-96.654181
7.050000	-0.198599	-97.257050	-45.488061	44.586832	-45.488061	44.586832	-0.198601	-97.257390
7.100000	-0.201468	-97.859498	-45.335228	43.117259	-45.335228	43.117259	-0.201470	-97.859840
7.150000	-0.204390	-98.460430	-45.183376	41.649174	-45.183376	41.649174	-0.204392	-98.460775
7.200000	-0.207332	-99.060805	-45.033530	40.181652	-45.033530	40.181652	-0.207335	-99.061154
7.250000	-0.210335	-99.659513	-44.884444	38.715825	-44.884444	38.715825	-0.210337	-99.659865
7.300000	-0.213353	-100.257858	-44.737492	37.250377	-44.737492	37.250377	-0.213355	-100.258213
7.350000	-0.216438	-100.854390	-44.591100	35.786830	-44.591100	35.786830	-0.216440	-100.854749
7.400000	-0.219531	-101.450745	-44.446952	34.323474	-44.446952	34.323474	-0.219534	-101.451107
7.450000	-0.222701	-102.045154	-44.303184	32.862223	-44.303184	32.862223	-0.222703	-102.045519
7.500000	-0.225871	-102.639563	-44.161756	31.400972	-44.161756	31.400972	-0.225874	-102.639931
7.550000	-0.229126	-103.231901	-44.020542	29.942025	-44.020542	29.942025	-0.229129	-103.232272
7.600000	-0.232383	-103.824239	-43.881587	28.483077	-43.881587	28.483077	-0.232385	-103.824613
7.650000	-0.235717	-104.414728	-43.743026	27.026241	-43.743026	27.026241	-0.235720	-104.415105
7.700000	-0.239061	-105.005049	-43.606481	25.569598	-43.606481	25.569598	-0.239063	-105.005429
7.750000	-0.242477	-105.593735	-43.470495	24.114867	-43.470495	24.114867	-0.242479	-105.594118
7.800000	-0.245909	-106.182095	-43.336298	22.660518	-43.336298	22.660518	-0.245911	-106.182480
7.850000	-0.249407	-106.769026	-43.202810	21.207878	-43.202810	21.207878	-0.249409	-106.769414
7.900000	-0.252929	-107.355481	-43.070903	19.755807	-43.070903	19.755807	-0.252931	-107.355872
7.950000	-0.256510	-107.940704	-42.939839	18.305237	-42.939839	18.305237	-0.256513	-107.941098
8.000000	-0.260123	-108.525312	-42.810166	16.855417	-42.810166	16.855417	-0.260126	-108.525708
8.050000	-0.263790	-109.108878	-42.681456	15.406888	-42.681456	15.406888	-0.263792	-109.109276
8.100000	-0.267495	-109.691699	-42.553960	13.959282	-42.553960	13.959282	-0.267498	-109.692100
8.150000	-0.271247	-110.273657	-42.427537	12.512760	-42.427537	12.512760	-0.271250	-110.274060
8.200000	-0.275047	-110.854751	-42.302166	11.067321	-42.302166	11.067321	-0.275049	-110.855156
8.250000	-0.278886	-111.435152	-42.177965	9.622760	-42.177965	9.622760	-0.278888	-111.435559
8.300000	-0.282780	-112.014582	-42.054668	8.179431	-42.054668	8.179431	-0.282782	-112.014991
8.350000	-0.286707	-112.593479	-41.932627	6.736781	-41.932627	6.736781	-0.286709	-112.593889
8.400000	-0.290697	-113.171308	-41.811354	5.295491	-41.811354	5.295491	-0.290699	-113.171719
8.450000	-0.294713	-113.748752	-41.691416	3.854690	-41.691416	3.854690	-0.294715	-113.749166
8.500000	-0.298801	-114.325045	-41.572119	2.415360	-41.572119	2.415360	-0.298803	-114.325459
8.550000	-0.302906	-114.901092	-41.454226	0.976341	-41.454226	0.976341	-0.302908	-114.901507
8.600000	-0.307092	-115.475913	-41.336862	-0.461123	-41.336862	-0.461123	-0.307094	-115.476330
8.650000	-0.311288	-116.050618	-41.220962	-1.898439	-41.220962	-1.898439	-0.311290	-116.051035
8.700000	-0.315574	-116.624036	-41.105487	-3.334139	-41.105487	-3.334139	-0.315576	-116.624454
8.750000	-0.319862	-117.197454	-40.991528	-4.769840	-40.991528	-4.769840	-0.319863	-117.197872
8.800000	-0.324248	-117.769537	-40.877903	-6.203893	-40.877903	-6.203893	-0.324249	-117.769955
8.850000	-0.328636	-118.341620	-40.765746	-7.637947	-40.765746	-7.637947	-0.328637	-118.342038
8.900000	-0.333115	-118.912543	-40.654024	-9.070608	-40.654024	-9.070608	-0.333116	-118.912961
8.950000	-0.337605	-119.483361	-40.543633	-10.503143	-40.543633	-10.503143	-0.337606	-119.483778
9.000000	-0.342178	-120.053183	-40.433770	-11.934530	-40.433770	-11.934530	-0.342179	-120.053600
9.050000	-0.346769	-120.622807	-40.325111	-13.365687	-40.325111	-13.365687	-0.346770	-120.623222
9.100000	-0.351437	-121.191588	-40.217067	-14.795924	-40.217067	-14.795924	-0.351437	-121.192003
9.150000	-0.356132	-121.760090	-40.110110	-16.225855	-40.110110	-16.225855	-0.356132	-121.760503
9.200000	-0.360895	-122.327893	-40.003845	-17.655078	-40.003845	-17.655078	-0.360894	-122.328303
9.250000	-0.365693	-122.895346	-39.898563	-19.083947	-39.898563	-19.083947	-0.365692	-122.895755
9.300000	-0.370551	-123.462232	-39.794041	-20.512298	-39.794041	-20.512298	-0.370550	-123.462638
9.350000	-0.375454	-124.028712	-39.690410	-21.940280	-39.690410	-21.940280	-0.375452	-124.029116
9.400000	-0.380409	-124.594744	-39.587600	-23.367910	-39.587600	-23.367910	-0.380406	-124.595145
9.450000	-0.385416	-125.160328	-39.485598	-24.795190	-39.485598	-24.795190	-0.385413	-125.160725
9.500000	-0.390467	-125.725571	-39.384471	-26.222259	-39.384471	-26.222259	-0.390464	-125.725964
9.550000	-0.395579	-126.290336	-39.284081	-27.649033	-39.284081	-27.649033	-0.395575	-126.290725
9.600000	-0.400728	-126.854855	-39.184611	-29.075707	-39.184611	-29.075707	-0.400723	-126.855240
9.650000	-0.405945	-127.418881	-39.085820	-30.502179	-39.085820	-30.502179	-0.405940	-127.419261
9.700000	-0.411191	-127.982743	-38.987984	-31.928630	-38.987984	-31.928630	-0.411185	-127.983118
9.750000	-0.416514	-128.546110	-38.890781	-33.355013	-38.890781	-33.355013	-0.416507	-128.546480
9.800000	-0.421857	-129.109382	-38.794562	-34.781419	-38.794562	-34.781419	-0.421849	-129.109746
9.850000	-0.427286	-129.672174	-38.698942	-36.207934	-38.698942	-36.207934	-0.427277	-129.672531
9.900000	-0.432727	-130.234925	-38.604323	-37.634479	-38.604323	-37.634479	-0.432717	-130.235276
9.950000	-0.438261	-130.797225	-38.510285	-39.061350	-38.510285	-39.061350	-0.438250	-130.797568
10.000000	-0.443800	-131.359525	-38.417254	-40.488222	-38.417254	-40.488222	-0.443787	-131.359861
