! freq	dB(S11)	phase(S11)	dB(S12)	phase(S12)	
!     	dB(S21)	phase(S21)	dB(S22)	phase(S22)	
!S-par simulation data
#  GHz  S  DB  R 50
0.000000	-0.000000	0.000000	-369.764961	180.000000	-369.764961	180.000000	0.000000	0.000000
0.050000	-0.000111	-0.974111	-111.916069	88.763009	-111.916069	88.763009	-0.000111	-0.974045
0.100000	-0.000439	-1.947972	-105.957250	87.549349	-105.957250	87.549349	-0.000440	-1.947837
0.150000	-0.000974	-2.921345	-102.537359	86.380696	-102.537359	86.380696	-0.000977	-2.921139
0.200000	-0.001698	-3.894028	-100.178678	85.275496	-100.178678	85.275496	-0.001703	-3.893747
0.250000	-0.002603	-4.865781	-98.424980	84.255948	-98.424980	84.255948	-0.002611	-4.865419
0.300000	-0.003650	-5.836538	-97.060052	83.329777	-97.060052	83.329777	-0.003660	-5.836093
0.350000	-0.004823	-6.806152	-95.978993	82.515278	-95.978993	82.515278	-0.004835	-6.805617
0.400000	-0.006098	-7.774539	-95.117476	81.829115	-95.117476	81.829115	-0.006112	-7.773913
0.450000	-0.007454	-8.741649	-94.435230	81.291409	-94.435230	81.291409	-0.007470	-8.740928
0.500000	-0.008869	-9.707454	-93.906214	80.928030	-93.906214	80.928030	-0.008886	-9.706637
0.550000	-0.010325	-10.671947	-93.513494	80.773370	-93.513494	80.773370	-0.010343	-10.671033
0.600000	-0.011807	-11.635136	-93.246327	80.873940	-93.246327	80.873940	-0.011825	-11.634123
0.650000	-0.013302	-12.597036	-93.098335	81.293295	-93.098335	81.293295	-0.013319	-12.595927
0.700000	-0.014798	-13.557671	-93.066152	82.119039	-93.066152	82.119039	-0.014814	-13.556466
0.750000	-0.016289	-14.517066	-93.148065	83.472894	-93.148065	83.472894	-0.016303	-14.515767
0.800000	-0.017766	-15.475244	-93.342065	85.524842	-93.342065	85.524842	-0.017780	-15.473853
0.850000	-0.019228	-16.432228	-93.642335	88.511434	-93.642335	88.511434	-0.019239	-16.430747
0.900000	-0.020669	-17.388037	-94.032466	92.753908	-94.032466	92.753908	-0.020679	-17.386467
0.950000	-0.022090	-18.342684	-94.472840	98.657958	-94.472840	98.657958	-0.022098	-18.341028
1.000000	-0.023488	-19.296180	-94.880809	106.645430	-94.880809	106.645430	-0.023495	-19.294439
1.050000	-0.024865	-20.248529	-95.112285	116.932856	-95.112285	116.932856	-0.024871	-20.246706
1.100000	-0.026221	-21.199732	-94.978712	129.132327	-94.978712	129.132327	-0.026225	-21.197828
1.150000	-0.027557	-22.149786	-94.340336	141.974440	-94.340336	141.974440	-0.027559	-22.147802
1.200000	-0.028873	-23.098684	-93.218878	153.767134	-93.218878	153.767134	-0.028874	-23.096620
1.250000	-0.030172	-24.046415	-91.779653	163.393447	-91.779653	163.393447	-0.030172	-24.044273
1.300000	-0.031455	-24.992914	-90.192768	170.581309	-90.192768	170.581309	-0.031453	-24.990693
1.350000	-0.032723	-25.938215	-88.600789	175.802810	-88.600789	175.802810	-0.032721	-25.935917
1.400000	-0.033978	-26.882300	-87.063693	179.508271	-87.063693	179.508271	-0.033975	-26.879924
1.450000	-0.035222	-27.825149	-85.605283	-177.920627	-85.605283	-177.920627	-0.035219	-27.822695
1.500000	-0.036456	-28.766741	-84.231150	-176.194629	-84.231150	-176.194629	-0.036452	-28.764210
1.550000	-0.037681	-29.707054	-82.938679	-175.103203	-82.938679	-175.103203	-0.037678	-29.704445
1.600000	-0.038900	-30.646064	-81.722027	-174.494609	-81.722027	-174.494609	-0.038896	-30.643377
1.650000	-0.040112	-31.583750	-80.574447	-174.258987	-80.574447	-174.258987	-0.040108	-31.580984
1.700000	-0.041320	-32.520085	-79.489302	-174.315906	-79.489302	-174.315906	-0.041316	-32.517240
1.750000	-0.042524	-33.455047	-78.460484	-174.605656	-78.460484	-174.605656	-0.042520	-33.452123
1.800000	-0.043725	-34.388612	-77.482528	-175.083251	-77.482528	-175.083251	-0.043721	-34.385607
1.850000	-0.044924	-35.320755	-76.550618	-175.714298	-76.550618	-175.714298	-0.044921	-35.317670
1.900000	-0.046122	-36.251454	-75.660533	-176.472134	-75.660533	-176.472134	-0.046119	-36.248287
1.950000	-0.047320	-37.180683	-74.808576	-177.335813	-74.808576	-177.335813	-0.047317	-37.177435
2.000000	-0.048518	-38.108422	-73.991510	-178.288681	-73.991510	-178.288681	-0.048515	-38.105092
2.050000	-0.049717	-39.034646	-73.206488	-179.317340	-73.206488	-179.317340	-0.049714	-39.031234
2.100000	-0.050918	-39.959335	-72.451004	179.589099	-72.451004	179.589099	-0.050916	-39.955840
2.150000	-0.052122	-40.882467	-71.722838	178.439572	-71.722838	178.439572	-0.052119	-40.878888
2.200000	-0.053328	-41.804021	-71.020020	177.241481	-71.020020	177.241481	-0.053325	-41.800358
2.250000	-0.054537	-42.723977	-70.340793	176.001006	-70.340793	176.001006	-0.054534	-42.720230
2.300000	-0.055750	-43.642315	-69.683583	174.723348	-69.683583	174.723348	-0.055747	-43.638484
2.350000	-0.056967	-44.559018	-69.046977	173.412916	-69.046977	173.412916	-0.056965	-44.555102
2.400000	-0.058189	-45.474066	-68.429701	172.073472	-68.429701	172.073472	-0.058187	-45.470066
2.450000	-0.059416	-46.387444	-67.830601	170.708244	-67.830601	170.708244	-0.059414	-46.383358
2.500000	-0.060649	-47.299134	-67.248630	169.320023	-67.248630	169.320023	-0.060647	-47.294962
2.550000	-0.061888	-48.209045	-66.681940	167.910434	-66.681940	167.910434	-0.061885	-48.204789
2.600000	-0.063133	-49.117237	-66.130648	166.482551	-66.130648	166.482551	-0.063131	-49.112896
2.650000	-0.064386	-50.023696	-65.593946	165.038198	-65.593946	165.038198	-0.064383	-50.019269
2.700000	-0.065645	-50.928408	-65.071089	163.578980	-65.071089	163.578980	-0.065642	-50.923895
2.750000	-0.066912	-51.831360	-64.561397	162.106324	-64.561397	162.106324	-0.066908	-51.826762
2.800000	-0.068187	-52.732542	-64.064236	160.621494	-64.064236	160.621494	-0.068183	-52.727858
2.850000	-0.069470	-53.631942	-63.579025	159.125620	-63.579025	159.125620	-0.069466	-53.627173
2.900000	-0.070762	-54.529550	-63.105222	157.619715	-63.105222	157.619715	-0.070758	-54.524696
2.950000	-0.072064	-55.425356	-62.642324	156.104686	-62.642324	156.104686	-0.072058	-55.420417
3.000000	-0.073374	-56.319353	-62.189864	154.581353	-62.189864	154.581353	-0.073369	-56.314329
3.050000	-0.074695	-57.211533	-61.747406	153.050455	-61.747406	153.050455	-0.074689	-57.206424
3.100000	-0.076027	-58.101888	-61.314541	151.512663	-61.314541	151.512663	-0.076020	-58.096694
3.150000	-0.077369	-58.990412	-60.890888	149.968587	-60.890888	149.968587	-0.077362	-58.985134
3.200000	-0.078722	-59.877100	-60.476089	148.418780	-60.476089	148.418780	-0.078715	-59.871737
3.250000	-0.080087	-60.761948	-60.069807	146.863750	-60.069807	146.863750	-0.080079	-60.756500
3.300000	-0.081464	-61.644950	-59.671728	145.303960	-59.671728	145.303960	-0.081456	-61.639418
3.350000	-0.082854	-62.526105	-59.281552	143.739836	-59.281552	143.739836	-0.082845	-62.520488
3.400000	-0.084257	-63.405408	-58.898999	142.171766	-58.898999	142.171766	-0.084248	-63.399708
3.450000	-0.085673	-64.282860	-58.523804	140.600112	-58.523804	140.600112	-0.085664	-64.277075
3.500000	-0.087104	-65.158459	-58.155716	139.025205	-58.155716	139.025205	-0.087094	-65.152590
3.550000	-0.088548	-66.032204	-57.794497	137.447350	-57.794497	137.447350	-0.088538	-66.026251
3.600000	-0.090008	-66.904096	-57.439922	135.866832	-57.439922	135.866832	-0.089997	-66.898060
3.650000	-0.091483	-67.774137	-57.091778	134.283913	-57.091778	134.283913	-0.091472	-67.768016
3.700000	-0.092974	-68.642328	-56.749862	132.698838	-56.749862	132.698838	-0.092962	-68.636123
3.750000	-0.094481	-69.508671	-56.413980	131.111832	-56.413980	131.111832	-0.094469	-69.502383
3.800000	-0.096006	-70.373091	-56.083661	129.523041	-56.083661	129.523041	-0.095993	-70.366718
3.850000	-0.097548	-71.235671	-55.759039	127.932745	-55.759039	127.932745	-0.097535	-71.229214
3.900000	-0.099108	-72.096417	-55.439947	126.341125	-55.439947	126.341125	-0.099095	-72.089876
3.950000	-0.100686	-72.955333	-55.126223	124.748351	-55.126223	124.748351	-0.100673	-72.948708
4.000000	-0.102284	-73.812426	-54.817715	123.154582	-54.817715	123.154582	-0.102270	-73.805717
4.050000	-0.103900	-74.667703	-54.514276	121.559967	-54.514276	121.559967	-0.103886	-74.660909
4.100000	-0.105537	-75.521171	-54.215765	119.964646	-54.215765	119.964646	-0.105523	-75.514293
4.150000	-0.107194	-76.372838	-53.922048	118.368749	-53.922048	118.368749	-0.107180	-76.365876
4.200000	-0.108872	-77.222714	-53.632997	116.772401	-53.632997	116.772401	-0.108857	-77.215667
4.250000	-0.110571	-78.070807	-53.348488	115.175716	-53.348488	115.175716	-0.110556	-78.063675
4.300000	-0.112292	-78.917128	-53.068403	113.578803	-53.068403	113.578803	-0.112277	-78.909911
4.350000	-0.114036	-79.761687	-52.792629	111.981766	-52.792629	111.981766	-0.114021	-79.754385
4.400000	-0.115803	-80.604497	-52.521056	110.384699	-52.521056	110.384699	-0.115788	-80.597109
4.450000	-0.117593	-81.445567	-52.253579	108.787695	-52.253579	108.787695	-0.117578	-81.438094
4.500000	-0.119407	-82.284913	-51.990098	107.190839	-51.990098	107.190839	-0.119392	-82.277353
4.550000	-0.121246	-83.122545	-51.730516	105.594212	-51.730516	105.594212	-0.121230	-83.114899
4.600000	-0.123109	-83.958479	-51.474739	103.997890	-51.474739	103.997890	-0.123094	-83.950747
4.650000	-0.124999	-84.792729	-51.222678	102.401945	-51.222678	102.401945	-0.124983	-84.784910
4.700000	-0.126914	-85.625310	-50.974245	100.806447	-50.974245	100.806447	-0.126898	-85.617404
4.750000	-0.128856	-86.456238	-50.729358	99.211459	-50.729358	99.211459	-0.128840	-86.448244
4.800000	-0.130824	-87.285528	-50.487935	97.617042	-50.487935	97.617042	-0.130809	-87.277446
4.850000	-0.132821	-88.113197	-50.249899	96.023254	-50.249899	96.023254	-0.132805	-88.105027
4.900000	-0.134845	-88.939264	-50.015175	94.430150	-50.015175	94.430150	-0.134829	-88.931006
4.950000	-0.136898	-89.763746	-49.783690	92.837781	-49.783690	92.837781	-0.136882	-89.755398
5.000000	-0.138980	-90.586661	-49.555374	91.246196	-49.555374	91.246196	-0.138964	-90.578224
5.050000	-0.141093	-91.407962	-49.330041	89.655480	-49.330041	89.655480	-0.141077	-91.399436
5.100000	-0.143236	-92.227737	-49.107752	88.065643	-49.107752	88.065643	-0.143220	-92.219121
5.150000	-0.145409	-93.046006	-48.888442	86.476725	-48.888442	86.476725	-0.145393	-93.037300
5.200000	-0.147614	-93.862791	-48.672051	84.888766	-48.672051	84.888766	-0.147597	-93.853995
5.250000	-0.149850	-94.678113	-48.458518	83.301803	-48.458518	83.301803	-0.149833	-94.669225
5.300000	-0.152118	-95.491993	-48.247786	81.715872	-48.247786	81.715872	-0.152101	-95.483014
5.350000	-0.154418	-96.304454	-48.039798	80.131004	-48.039798	80.131004	-0.154401	-96.295383
5.400000	-0.156751	-97.115519	-47.834501	78.547234	-47.834501	78.547234	-0.156734	-97.106357
5.450000	-0.159130	-97.924747	-47.631119	76.964994	-47.631119	76.964994	-0.159112	-97.915491
5.500000	-0.161526	-98.733266	-47.431327	75.383352	-47.431327	75.383352	-0.161508	-98.723918
5.550000	-0.163964	-99.540187	-47.233642	73.803160	-47.233642	73.803160	-0.163946	-99.530746
5.600000	-0.166432	-100.345966	-47.038690	72.224005	-47.038690	72.224005	-0.166414	-100.336431
5.650000	-0.168937	-101.150431	-46.846108	70.646147	-46.846108	70.646147	-0.168919	-101.140802
5.700000	-0.171479	-101.953582	-46.655834	69.069585	-46.655834	69.069585	-0.171460	-101.943858
5.750000	-0.174053	-102.755686	-46.468152	67.494142	-46.468152	67.494142	-0.174034	-102.745867
5.800000	-0.176671	-103.556324	-46.282402	65.920267	-46.282402	65.920267	-0.176651	-103.546410
5.850000	-0.179315	-104.356166	-46.099430	64.347316	-46.099430	64.347316	-0.179295	-104.346156
5.900000	-0.182010	-105.154415	-45.918057	62.776212	-45.918057	62.776212	-0.181990	-105.144308
5.950000	-0.184726	-105.952097	-45.739616	61.205819	-45.739616	61.205819	-0.184705	-105.941893
6.000000	-0.187501	-106.748081	-45.562482	59.637560	-45.562482	59.637560	-0.187479	-106.737780
6.050000	-0.190290	-107.543709	-45.388405	58.069786	-45.388405	58.069786	-0.190268	-107.533311
6.100000	-0.193146	-108.337560	-45.215379	56.504438	-45.215379	56.504438	-0.193124	-108.327063
6.150000	-0.196010	-109.131244	-45.045506	54.939337	-45.045506	54.939337	-0.195987	-109.120649
6.200000	-0.198949	-109.923096	-44.876463	53.376958	-44.876463	53.376958	-0.198926	-109.912402
6.250000	-0.201890	-110.714949	-44.710646	51.814578	-44.710646	51.814578	-0.201866	-110.704155
6.300000	-0.204914	-111.504943	-44.545467	50.255218	-44.545467	50.255218	-0.204889	-111.494048
6.350000	-0.207939	-112.294937	-44.383371	48.695857	-44.383371	48.695857	-0.207914	-112.283942
6.400000	-0.211043	-113.083360	-44.222140	47.139305	-44.222140	47.139305	-0.211017	-113.072263
6.450000	-0.214154	-113.871640	-44.063659	45.583008	-44.063659	45.583008	-0.214128	-113.860442
6.500000	-0.217339	-114.658617	-43.906241	44.029295	-43.906241	44.029295	-0.217311	-114.647315
6.550000	-0.220539	-115.445333	-43.751277	42.476099	-43.751277	42.476099	-0.220511	-115.433928
6.600000	-0.223805	-116.230990	-43.597546	40.925252	-43.597546	40.925252	-0.223776	-116.219481
6.650000	-0.227095	-117.016295	-43.446002	39.375189	-43.446002	39.375189	-0.227065	-117.004682
6.700000	-0.230445	-117.800764	-43.295839	37.827233	-43.295839	37.827233	-0.230415	-117.789045
6.750000	-0.233826	-118.584816	-43.147627	36.280331	-43.147627	36.280331	-0.233795	-118.572991
6.800000	-0.237261	-119.368232	-43.000918	34.735284	-43.000918	34.735284	-0.237229	-119.356300
6.850000	-0.240735	-120.151194	-42.855953	33.191564	-42.855953	33.191564	-0.240702	-120.139154
6.900000	-0.244256	-120.933695	-42.712591	31.649444	-42.712591	31.649444	-0.244223	-120.921546
6.950000	-0.247825	-121.715734	-42.570793	30.108924	-42.570793	30.108924	-0.247790	-121.703476
7.000000	-0.251433	-122.497461	-42.430678	28.569743	-42.430678	28.569743	-0.251398	-122.485092
7.050000	-0.255097	-123.278750	-42.291969	27.032438	-42.291969	27.032438	-0.255062	-123.266269
7.100000	-0.258795	-124.059848	-42.155007	25.496206	-42.155007	25.496206	-0.258758	-124.047255
7.150000	-0.262556	-124.840564	-42.019315	23.962124	-42.019315	23.962124	-0.262519	-124.827856
7.200000	-0.266343	-125.621181	-41.885415	22.428850	-41.885415	22.428850	-0.266305	-125.608359
7.250000	-0.270203	-126.401505	-41.752672	20.897999	-41.752672	20.897999	-0.270165	-126.388566
7.300000	-0.274082	-127.181795	-41.621749	19.367687	-41.621749	19.367687	-0.274042	-127.168738
7.350000	-0.278042	-127.961913	-41.491891	17.840070	-41.491891	17.840070	-0.278001	-127.948736
7.400000	-0.282012	-128.742030	-41.363865	16.312722	-41.363865	16.312722	-0.281971	-128.728734
7.450000	-0.286074	-129.522134	-41.236830	14.788340	-41.236830	14.788340	-0.286032	-129.508715
7.500000	-0.290137	-130.302239	-41.111627	13.263958	-41.111627	13.263958	-0.290095	-130.288696
7.550000	-0.294302	-131.082525	-40.987357	11.742810	-40.987357	11.742810	-0.294258	-131.068856
7.600000	-0.298468	-131.862812	-40.864841	10.221661	-40.864841	10.221661	-0.298424	-131.849016
7.650000	-0.302728	-132.643450	-40.743347	8.703473	-40.743347	8.703473	-0.302683	-132.629523
7.700000	-0.306998	-133.424120	-40.623468	7.185555	-40.623468	7.185555	-0.306953	-133.410063
7.750000	-0.311355	-134.205282	-40.504681	5.670323	-40.504681	5.670323	-0.311309	-134.191090
7.800000	-0.315730	-134.986542	-40.387391	4.155630	-40.387391	4.155630	-0.315684	-134.972215
7.850000	-0.320184	-135.768404	-40.271250	2.643350	-40.271250	2.643350	-0.320137	-135.753938
7.900000	-0.324666	-136.550466	-40.156505	1.131874	-40.156505	1.131874	-0.324618	-136.535860
7.950000	-0.329219	-137.333208	-40.042950	-0.377460	-40.042950	-0.377460	-0.329170	-137.318458
8.000000	-0.333808	-138.116289	-39.930708	-1.885724	-39.930708	-1.885724	-0.333759	-138.101394
8.050000	-0.338460	-138.900095	-39.819683	-3.392120	-39.819683	-3.392120	-0.338411	-138.885050
8.100000	-0.343158	-139.684418	-39.709907	-4.897180	-39.709907	-4.897180	-0.343108	-139.669222
8.150000	-0.347911	-140.469476	-39.601361	-6.400643	-39.601361	-6.400643	-0.347860	-140.454125
8.200000	-0.352718	-141.255269	-39.494015	-7.902507	-39.494015	-7.902507	-0.352667	-141.239760
8.250000	-0.357572	-142.041772	-39.387898	-9.403042	-39.387898	-9.403042	-0.357520	-142.026101
8.300000	-0.362490	-142.829269	-39.282950	-10.901716	-39.282950	-10.901716	-0.362437	-142.813433
8.350000	-0.367446	-143.617414	-39.179217	-12.399330	-39.179217	-12.399330	-0.367393	-143.601410
8.400000	-0.372475	-144.406855	-39.076637	-13.894820	-39.076637	-13.894820	-0.372422	-144.390677
8.450000	-0.377534	-145.196843	-38.975247	-15.389516	-38.975247	-15.389516	-0.377480	-145.180489
8.500000	-0.382676	-145.988474	-38.875008	-16.881826	-38.875008	-16.881826	-0.382621	-145.971937
8.550000	-0.387838	-146.780511	-38.775921	-18.373607	-38.775921	-18.373607	-0.387783	-146.763791
8.600000	-0.393093	-147.574583	-38.677998	-19.862738	-38.677998	-19.862738	-0.393037	-147.557671
8.650000	-0.398360	-148.368881	-38.581179	-21.351604	-38.581179	-21.351604	-0.398303	-148.351775
8.700000	-0.403729	-149.165653	-38.485551	-22.837555	-38.485551	-22.837555	-0.403671	-149.148345
8.750000	-0.409101	-149.962425	-38.390965	-24.323506	-38.390965	-24.323506	-0.409042	-149.944914
8.800000	-0.414584	-150.762162	-38.297614	-25.806271	-38.297614	-25.806271	-0.414524	-150.744438
8.850000	-0.420070	-151.561900	-38.205255	-27.289037	-38.205255	-27.289037	-0.420010	-151.543961
8.900000	-0.425659	-152.364603	-38.114139	-28.768872	-38.114139	-28.768872	-0.425598	-152.346439
8.950000	-0.431261	-153.167577	-38.023993	-30.248442	-38.023993	-30.248442	-0.431198	-153.149186
9.000000	-0.436957	-153.973479	-37.935084	-31.725336	-37.935084	-31.725336	-0.436893	-153.954851
9.050000	-0.442674	-154.779967	-37.847138	-33.201696	-37.847138	-33.201696	-0.442609	-154.761099
9.100000	-0.448476	-155.589305	-37.760412	-34.675632	-37.760412	-34.675632	-0.448410	-155.570186
9.150000	-0.454310	-156.399593	-37.674656	-36.148760	-37.674656	-36.148760	-0.454241	-156.380219
9.200000	-0.460219	-157.212609	-37.590090	-37.619716	-37.590090	-37.619716	-0.460149	-157.192970
9.250000	-0.466169	-158.026989	-37.506515	-39.089587	-37.506515	-39.089587	-0.466097	-158.007079
9.300000	-0.472186	-158.843931	-37.424090	-40.557536	-37.424090	-40.557536	-0.472112	-158.823741
9.350000	-0.478253	-159.662703	-37.342690	-42.024114	-37.342690	-42.024114	-0.478175	-159.642225
9.400000	-0.484377	-160.483824	-37.262387	-43.489024	-37.262387	-43.489024	-0.484297	-160.463049
9.450000	-0.490560	-161.307294	-37.183157	-44.952267	-37.183157	-44.952267	-0.490477	-161.286214
9.500000	-0.496792	-162.132854	-37.104960	-46.414098	-37.104960	-46.414098	-0.496706	-162.111459
9.550000	-0.503091	-162.961338	-37.027900	-47.873955	-37.027900	-47.873955	-0.503002	-162.939617
9.600000	-0.509431	-163.791600	-36.951795	-49.332662	-36.951795	-49.332662	-0.509337	-163.769547
9.650000	-0.515846	-164.625420	-36.876902	-50.789070	-36.876902	-50.789070	-0.515748	-164.603019
9.700000	-0.522293	-165.460656	-36.802877	-52.244600	-36.802877	-52.244600	-0.522190	-165.437902
9.750000	-0.528824	-166.300142	-36.730153	-53.697490	-36.730153	-53.697490	-0.528717	-166.277018
9.800000	-0.535377	-167.140628	-36.658196	-55.149780	-36.658196	-55.149780	-0.535265	-167.117130
9.850000	-0.542024	-167.986118	-36.587643	-56.599070	-36.587643	-56.599070	-0.541905	-167.962225
9.900000	-0.548684	-168.832137	-36.517747	-58.048052	-36.517747	-58.048052	-0.548559	-168.807847
9.950000	-0.555444	-169.683977	-36.449368	-59.493648	-36.449368	-59.493648	-0.555312	-169.659266
10.000000	-0.562210	-170.535817	-36.381524	-60.939244	-36.381524	-60.939244	-0.562071	-170.510685
