! freq	dB(S11)	phase(S11)	dB(S12)	phase(S12)	
!     	dB(S21)	phase(S21)	dB(S22)	phase(S22)	
!S-par simulation data
#  GHz  S  DB  R 50
0.000000	-0.000000	0.000000	-364.836439	0.000000	-364.836439	0.000000	-0.000000	0.000000
0.050000	-0.000100	-0.765574	-108.669958	144.636495	-108.669958	144.636495	-0.000105	-0.852030
0.100000	-0.000394	-1.530906	-106.301241	127.430957	-106.301241	127.430957	-0.000417	-1.703810
0.150000	-0.000871	-2.295770	-104.057495	116.592203	-104.057495	116.592203	-0.000923	-2.555108
0.200000	-0.001511	-3.059986	-102.179336	109.607921	-102.179336	109.607921	-0.001604	-3.405730
0.250000	-0.002298	-3.823351	-100.638351	104.886417	-100.638351	104.886417	-0.002448	-4.255456
0.300000	-0.003196	-4.585835	-99.370770	101.362355	-99.370770	101.362355	-0.003416	-5.104239
0.350000	-0.004186	-5.347338	-98.323756	98.681323	-98.323756	98.681323	-0.004491	-5.951961
0.400000	-0.005245	-6.107831	-97.458938	96.593407	-97.458938	96.593407	-0.005648	-6.798569
0.450000	-0.006352	-6.867311	-96.748795	94.960495	-96.748795	94.960495	-0.006865	-7.644042
0.500000	-0.007489	-7.625796	-96.173723	93.708383	-96.173723	93.708383	-0.008125	-8.488382
0.550000	-0.008643	-8.383319	-95.719830	92.803308	-95.719830	92.803308	-0.009410	-9.331607
0.600000	-0.009801	-9.139920	-95.377371	92.240585	-95.377371	92.240585	-0.010707	-10.173745
0.650000	-0.010957	-9.895641	-95.139617	92.039844	-95.139617	92.039844	-0.012006	-11.014829
0.700000	-0.012102	-10.650523	-95.001925	92.244451	-95.001925	92.244451	-0.013299	-11.854895
0.750000	-0.013235	-11.404602	-94.960807	92.924083	-94.960807	92.924083	-0.014581	-12.693975
0.800000	-0.014351	-12.157911	-95.012721	94.180000	-95.012721	94.180000	-0.015848	-13.532100
0.850000	-0.015451	-12.910475	-95.152192	96.152451	-95.152192	96.152451	-0.017098	-14.369292
0.900000	-0.016534	-13.662315	-95.368611	99.028293	-95.368611	99.028293	-0.018330	-15.205572
0.950000	-0.017601	-14.413445	-95.640859	103.042949	-95.640859	103.042949	-0.019544	-16.040953
1.000000	-0.018652	-15.163874	-95.928978	108.462170	-95.928978	108.462170	-0.020739	-16.875443
1.050000	-0.019688	-15.913607	-96.164039	115.515949	-96.164039	115.515949	-0.021918	-17.709047
1.100000	-0.020712	-16.662643	-96.243351	124.253537	-96.243351	124.253537	-0.023081	-18.541763
1.150000	-0.021724	-17.410980	-96.047242	134.338214	-96.047242	134.338214	-0.024228	-19.373587
1.200000	-0.022725	-18.158611	-95.489255	144.942923	-95.489255	144.942923	-0.025363	-20.204511
1.250000	-0.023717	-18.905528	-94.570843	154.990085	-94.570843	154.990085	-0.026485	-21.034523
1.300000	-0.024702	-19.651688	-93.366050	163.572338	-93.366050	163.572338	-0.027597	-21.863571
1.350000	-0.025680	-20.397110	-92.014746	170.455551	-92.014746	170.455551	-0.028699	-22.691679
1.400000	-0.026652	-21.141780	-90.613798	175.747124	-90.613798	175.747124	-0.029792	-23.518829
1.450000	-0.027619	-21.885684	-89.224014	179.701836	-89.224014	179.701836	-0.030879	-24.345004
1.500000	-0.028583	-22.628807	-87.877734	-177.409656	-87.877734	-177.409656	-0.031961	-25.170185
1.550000	-0.029544	-23.371132	-86.589423	-175.353474	-86.589423	-175.353474	-0.033037	-25.994353
1.600000	-0.030502	-24.112645	-85.363577	-173.943833	-85.363577	-173.943833	-0.034109	-26.817487
1.650000	-0.031459	-24.853328	-84.199571	-173.038337	-84.199571	-173.038337	-0.035177	-27.639568
1.700000	-0.032414	-25.592863	-83.066941	-172.629367	-83.066941	-172.629367	-0.036243	-28.460193
1.750000	-0.033369	-26.331951	-82.028726	-172.397438	-82.028726	-172.397438	-0.037307	-29.280250
1.800000	-0.034323	-27.069962	-81.024643	-172.449759	-81.024643	-172.449759	-0.038370	-30.098940
1.850000	-0.035278	-27.807203	-80.075584	-172.705117	-80.075584	-172.705117	-0.039432	-30.916653
1.900000	-0.036233	-28.543485	-79.165662	-173.120897	-79.165662	-173.120897	-0.040494	-31.733151
1.950000	-0.037189	-29.278808	-78.292883	-173.697100	-78.292883	-173.697100	-0.041556	-32.548433
2.000000	-0.038146	-30.013303	-77.461508	-174.365028	-77.461508	-174.365028	-0.042619	-33.362666
2.050000	-0.039105	-30.746639	-76.653861	-175.161373	-76.653861	-175.161373	-0.043682	-34.175432
2.100000	-0.040065	-31.479465	-75.895284	-175.998826	-75.895284	-175.998826	-0.044747	-34.987551
2.150000	-0.041027	-32.210966	-75.150713	-176.937791	-75.150713	-176.937791	-0.045814	-35.797992
2.200000	-0.041992	-32.941463	-74.432282	-177.937809	-74.432282	-177.937809	-0.046883	-36.607164
2.250000	-0.042959	-33.670943	-73.738165	-178.990643	-73.738165	-178.990643	-0.047955	-37.415048
2.300000	-0.043928	-34.399391	-73.066720	179.910585	-73.066720	179.910585	-0.049030	-38.221627
2.350000	-0.044901	-35.126793	-72.416469	178.771661	-72.416469	178.771661	-0.050108	-39.026885
2.400000	-0.045878	-35.853135	-71.786073	177.597480	-71.786073	177.597480	-0.051189	-39.830805
2.450000	-0.046857	-36.578405	-71.174323	176.392210	-71.174323	176.392210	-0.052275	-40.633370
2.500000	-0.047841	-37.302588	-70.580115	175.159423	-70.580115	175.159423	-0.053365	-41.434565
2.550000	-0.048829	-38.025625	-70.001501	173.901252	-70.001501	173.901252	-0.054459	-42.234314
2.600000	-0.049821	-38.747550	-69.438608	172.621502	-69.438608	172.621502	-0.055559	-43.032661
2.650000	-0.050818	-39.468351	-68.890583	171.322441	-68.890583	171.322441	-0.056664	-43.829593
2.700000	-0.051820	-40.188016	-68.356648	170.006056	-68.356648	170.006056	-0.057774	-44.625096
2.750000	-0.052827	-40.906533	-67.836084	168.674087	-67.836084	168.674087	-0.058891	-45.419155
2.800000	-0.053840	-41.623891	-67.328229	167.328070	-67.328229	167.328070	-0.060014	-46.211758
2.850000	-0.054859	-42.340080	-66.832470	165.969361	-66.832470	165.969361	-0.061143	-47.002894
2.900000	-0.055884	-43.055089	-66.348242	164.599163	-66.348242	164.599163	-0.062280	-47.792549
2.950000	-0.056916	-43.768907	-65.875018	163.218546	-65.875018	163.218546	-0.063424	-48.580711
3.000000	-0.057954	-44.481524	-65.412311	161.828466	-65.412311	161.828466	-0.064576	-49.367371
3.050000	-0.058999	-45.192931	-64.959665	160.429776	-64.959665	160.429776	-0.065737	-50.152517
3.100000	-0.060053	-45.903119	-64.516655	159.023244	-64.516655	159.023244	-0.066906	-50.936139
3.150000	-0.061114	-46.612077	-64.082885	157.609558	-64.082885	157.609558	-0.068084	-51.718227
3.200000	-0.062183	-47.319798	-63.657983	156.189341	-63.657983	156.189341	-0.069271	-52.498773
3.250000	-0.063261	-48.026273	-63.241601	154.763153	-63.241601	154.763153	-0.070468	-53.277766
3.300000	-0.064347	-48.731493	-62.833413	153.331505	-62.833413	153.331505	-0.071676	-54.055198
3.350000	-0.065445	-49.435230	-62.431277	151.894110	-62.431277	151.894110	-0.072895	-54.830787
3.400000	-0.066553	-50.137641	-62.036462	150.451950	-62.036462	150.451950	-0.074127	-55.604732
3.450000	-0.067666	-50.839383	-61.653754	149.007740	-61.653754	149.007740	-0.075364	-56.377847
3.500000	-0.068796	-51.539117	-61.272653	147.557383	-61.272653	147.557383	-0.076620	-57.148477
3.550000	-0.069929	-52.238401	-60.904442	146.105887	-60.904442	146.105887	-0.077881	-57.918550
3.600000	-0.071082	-52.935431	-60.536188	144.648697	-60.536188	144.648697	-0.079163	-58.685839
3.650000	-0.072236	-53.632233	-60.181460	143.191033	-60.181460	143.191033	-0.080448	-59.452848
3.700000	-0.073414	-54.326532	-59.825275	141.728155	-59.825275	141.728155	-0.081758	-60.216774
3.750000	-0.074591	-55.020831	-59.483123	140.265276	-59.483123	140.265276	-0.083068	-60.980699
3.800000	-0.075795	-55.712377	-59.138305	138.797678	-59.138305	138.797678	-0.084409	-61.741243
3.850000	-0.076999	-56.403923	-58.806654	137.330079	-58.806654	137.330079	-0.085749	-62.501788
3.900000	-0.078229	-57.092926	-58.473826	135.858914	-58.473826	135.858914	-0.087119	-63.259219
3.950000	-0.079461	-57.781699	-58.152112	134.387426	-58.152112	134.387426	-0.088492	-64.016367
4.000000	-0.080718	-58.468147	-57.830530	132.913292	-57.830530	132.913292	-0.089892	-64.770677
4.050000	-0.081979	-59.154130	-57.518239	131.438629	-57.518239	131.438629	-0.091299	-65.524419
4.100000	-0.083265	-59.838010	-57.207226	129.962056	-57.207226	129.962056	-0.092732	-66.275602
4.150000	-0.084558	-60.521189	-56.903889	128.484846	-56.903889	128.484846	-0.094174	-67.025931
4.200000	-0.085874	-61.202492	-56.602833	127.006309	-56.602833	127.006309	-0.095641	-67.773984
4.250000	-0.087201	-61.882856	-56.308020	125.527108	-56.308020	125.527108	-0.097120	-68.520898
4.300000	-0.088548	-62.561575	-56.016364	124.047036	-56.016364	124.047036	-0.098623	-69.265822
4.350000	-0.089909	-63.239118	-55.729679	122.566341	-55.729679	122.566341	-0.100142	-70.009322
4.400000	-0.091289	-63.915247	-55.446916	121.085127	-55.446916	121.085127	-0.101682	-70.751119
4.450000	-0.092687	-64.589963	-55.167995	119.603393	-55.167995	119.603393	-0.103242	-71.491211
4.500000	-0.094101	-65.263501	-54.893658	118.121399	-54.893658	118.121399	-0.104821	-72.229887
4.550000	-0.095538	-65.935389	-54.622166	116.639043	-54.622166	116.639043	-0.106424	-72.966579
4.600000	-0.096987	-66.606335	-54.355829	115.156610	-54.355829	115.156610	-0.108043	-73.702143
4.650000	-0.098463	-67.275398	-54.091454	113.674023	-54.091454	113.674023	-0.109692	-74.435448
4.700000	-0.099950	-67.943754	-53.832725	112.191471	-53.832725	112.191471	-0.111353	-75.167911
4.750000	-0.101468	-68.609995	-53.575178	110.709024	-53.575178	110.709024	-0.113048	-75.897846
4.800000	-0.102993	-69.275767	-53.323694	109.226661	-53.323694	109.226661	-0.114753	-76.627222
4.850000	-0.104554	-69.939196	-53.072707	107.744713	-53.072707	107.744713	-0.116497	-77.353806
4.900000	-0.106119	-70.602390	-52.828134	106.262836	-52.828134	106.262836	-0.118246	-78.080112
4.950000	-0.107724	-71.263017	-52.583456	104.781734	-52.583456	104.781734	-0.120042	-78.803367
5.000000	-0.109330	-71.923644	-52.345482	103.300633	-52.345482	103.300633	-0.121838	-79.526623
5.050000	-0.110982	-72.581485	-52.106879	101.820724	-52.106879	101.820724	-0.123686	-80.246578
5.100000	-0.112635	-73.239326	-51.874656	100.340815	-51.874656	100.340815	-0.125534	-80.966532
5.150000	-0.114331	-73.894631	-51.642469	98.862314	-51.642469	98.862314	-0.127432	-81.683488
5.200000	-0.116032	-74.549704	-51.415796	97.383941	-51.415796	97.383941	-0.129335	-82.400172
5.250000	-0.117773	-75.202491	-51.189750	95.907139	-51.189750	95.907139	-0.131284	-83.114157
5.300000	-0.119523	-75.854820	-50.968437	94.430651	-50.968437	94.430651	-0.133243	-83.827602
5.350000	-0.121312	-76.505109	-50.748277	92.955843	-50.748277	92.955843	-0.135245	-84.538646
5.400000	-0.123113	-77.154719	-50.532145	91.481596	-50.532145	91.481596	-0.137263	-85.248890
5.450000	-0.124950	-77.802537	-50.317629	90.009088	-50.317629	90.009088	-0.139320	-85.957026
5.500000	-0.126804	-78.449459	-50.106511	88.537450	-50.106511	88.537450	-0.141397	-86.664108
5.550000	-0.128690	-79.094832	-49.897413	87.067558	-49.897413	87.067558	-0.143510	-87.369370
5.600000	-0.130599	-79.739100	-49.691147	85.598912	-49.691147	85.598912	-0.145648	-88.073333
5.650000	-0.132536	-80.382061	-49.487256	84.131966	-49.487256	84.131966	-0.147819	-88.775759
5.700000	-0.134501	-81.023714	-49.285688	82.666718	-49.285688	82.666718	-0.150021	-89.476647
5.750000	-0.136490	-81.664296	-49.086804	81.203066	-49.086804	81.203066	-0.152251	-90.176276
5.800000	-0.138512	-82.303379	-48.889788	79.741647	-48.889788	79.741647	-0.154519	-90.874139
5.850000	-0.140555	-82.941621	-48.695722	78.281660	-48.695722	78.281660	-0.156809	-91.571011
5.900000	-0.142636	-83.578184	-48.503119	76.824537	-48.503119	76.824537	-0.159144	-92.265901
5.950000	-0.144734	-84.214130	-48.313692	75.368614	-48.313692	75.368614	-0.161496	-92.960060
6.000000	-0.146876	-84.848228	-48.125366	73.916294	-48.125366	73.916294	-0.163900	-93.652029
6.050000	-0.149030	-85.481926	-47.940409	72.464868	-47.940409	72.464868	-0.166315	-94.343521
6.100000	-0.151235	-86.113623	-47.756232	71.017914	-47.756232	71.017914	-0.168790	-95.032627
6.150000	-0.153446	-86.745126	-47.575583	69.571460	-47.575583	69.571460	-0.171271	-95.721498
6.200000	-0.155715	-87.374493	-47.395430	68.130505	-47.395430	68.130505	-0.173818	-96.407800
6.250000	-0.157985	-88.003861	-47.218937	66.689550	-47.218937	66.689550	-0.176365	-97.094101
6.300000	-0.160320	-88.630981	-47.042685	65.255315	-47.042685	65.255315	-0.178986	-97.777660
6.350000	-0.162656	-89.258100	-46.869939	63.821079	-46.869939	63.821079	-0.181608	-98.461218
6.400000	-0.165053	-89.883245	-46.697735	62.393769	-46.697735	62.393769	-0.184299	-99.142322
6.450000	-0.167457	-90.508210	-46.528627	60.967089	-46.528627	60.967089	-0.186998	-99.823202
6.500000	-0.169918	-91.131469	-46.360325	59.547527	-46.360325	59.547527	-0.189760	-100.501905
6.550000	-0.172391	-91.754387	-46.194746	58.129387	-46.194746	58.129387	-0.192536	-101.180173
6.600000	-0.174918	-92.375864	-46.030207	56.718541	-46.030207	56.718541	-0.195372	-101.856534
6.650000	-0.177462	-92.996860	-45.868053	55.310125	-45.868053	55.310125	-0.198227	-102.532259
6.700000	-0.180056	-93.616675	-45.707140	53.909155	-45.707140	53.909155	-0.201137	-103.206336
6.750000	-0.182675	-94.235899	-45.548305	52.511908	-45.548305	52.511908	-0.204075	-103.879588
6.800000	-0.185338	-94.854193	-45.390886	51.122226	-45.390886	51.122226	-0.207061	-104.551441
6.850000	-0.188033	-95.471824	-45.235261	49.737948	-45.235261	49.737948	-0.210082	-105.222295
6.900000	-0.190768	-96.088767	-45.081203	48.361298	-45.081203	48.361298	-0.213146	-105.891986
6.950000	-0.193543	-96.705023	-44.928676	46.992276	-44.928676	46.992276	-0.216253	-106.560515
7.000000	-0.196352	-97.320820	-44.777842	45.630846	-44.777842	45.630846	-0.219397	-107.228108
7.050000	-0.199211	-97.935975	-44.628290	44.280045	-44.628290	44.280045	-0.222591	-107.894390
7.100000	-0.202099	-98.550880	-44.480536	42.936628	-44.480536	42.936628	-0.225816	-108.559950
7.150000	-0.205047	-99.165285	-44.333812	41.607979	-44.333812	41.607979	-0.229101	-109.224063
7.200000	-0.208020	-99.779616	-44.188977	40.286202	-44.188977	40.286202	-0.232409	-109.887655
7.250000	-0.211064	-100.393730	-44.044899	38.985039	-44.044899	38.985039	-0.235786	-110.549680
7.300000	-0.214128	-101.007899	-43.902792	37.689695	-43.902792	37.689695	-0.239180	-111.211371
7.350000	-0.217282	-101.622346	-43.761103	36.423450	-43.761103	36.423450	-0.242652	-111.871389
7.400000	-0.220448	-102.236893	-43.621478	35.161002	-43.621478	35.161002	-0.246134	-112.531246
7.450000	-0.223730	-102.852548	-43.481786	33.940338	-43.481786	33.940338	-0.249705	-113.189339
7.500000	-0.227014	-103.468203	-43.344305	32.719675	-43.344305	32.719675	-0.253278	-113.847431
7.550000	-0.230458	-104.086345	-43.205951	31.560423	-43.205951	31.560423	-0.256951	-114.503679
7.600000	-0.233904	-104.704487	-43.069765	30.401171	-43.069765	30.401171	-0.260627	-115.159927
7.650000	-0.237554	-105.326706	-42.931889	29.320622	-42.931889	29.320622	-0.264400	-115.814555
7.700000	-0.241224	-105.949296	-42.795828	28.247228	-42.795828	28.247228	-0.268184	-116.469036
7.750000	-0.245183	-106.578245	-42.656417	27.278330	-42.656417	27.278330	-0.272064	-117.122102
7.800000	-0.249201	-107.208467	-42.518136	26.330332	-42.518136	26.330332	-0.275965	-117.774886
7.850000	-0.253682	-107.848574	-42.373043	25.526988	-42.373043	25.526988	-0.279962	-118.426434
7.900000	-0.258319	-108.491977	-42.227392	24.771861	-42.227392	24.771861	-0.283992	-119.077569
7.950000	-0.263504	-109.145931	-42.073424	24.159537	-42.073424	24.159537	-0.288096	-119.727884
8.000000	-0.269551	-109.815070	-41.905304	23.744411	-41.905304	23.744411	-0.292289	-120.377261
8.050000	-0.276834	-110.503152	-41.716257	23.560069	-41.716257	23.560069	-0.296571	-121.025797
8.100000	-0.286156	-111.217963	-41.492118	23.678541	-41.492118	23.678541	-0.300957	-121.673409
8.150000	-0.298259	-111.964221	-41.221965	24.126092	-41.221965	24.126092	-0.305449	-122.320109
8.200000	-0.317260	-112.772388	-40.838706	25.125337	-40.838706	25.125337	-0.310115	-122.965247
8.250000	-0.349261	-113.664214	-40.266356	26.648651	-40.266356	26.648651	-0.314975	-123.608265
8.300000	-0.411553	-114.674775	-39.333290	28.361377	-39.333290	28.361377	-0.320045	-124.247355
8.350000	-0.548562	-115.757187	-37.793856	28.470776	-37.793856	28.470776	-0.325054	-124.878424
8.400000	-0.842660	-116.165609	-35.662442	21.284335	-35.662442	21.284335	-0.328050	-125.496556
8.450000	-1.036638	-114.066102	-34.600890	2.531518	-34.600890	2.531518	-0.326101	-126.132519
8.500000	-0.780520	-112.790080	-35.719450	-12.723073	-35.719450	-12.723073	-0.327391	-126.806783
8.550000	-0.573017	-113.371148	-37.095888	-18.156237	-37.095888	-18.156237	-0.332554	-127.470846
8.600000	-0.474266	-114.272088	-38.001665	-19.435714	-38.001665	-19.435714	-0.338174	-128.123359
8.650000	-0.426200	-115.134204	-38.535136	-19.620278	-38.535136	-19.620278	-0.343625	-128.770740
8.700000	-0.400578	-115.930531	-38.848364	-19.671631	-38.848364	-19.671631	-0.348920	-129.415795
8.750000	-0.386725	-116.672721	-39.022938	-19.848109	-39.022938	-19.848109	-0.354116	-130.059532
8.800000	-0.379265	-117.375721	-39.112645	-20.207416	-39.112645	-20.207416	-0.359263	-130.702452
8.850000	-0.375287	-118.053063	-39.152758	-20.721392	-39.152758	-20.721392	-0.364394	-131.344852
8.900000	-0.373673	-118.710417	-39.157676	-21.374353	-39.157676	-21.374353	-0.369528	-131.986840
8.950000	-0.373655	-119.352646	-39.138279	-22.143244	-39.138279	-22.143244	-0.374677	-132.628502
9.000000	-0.375047	-119.979906	-39.097225	-23.036289	-39.097225	-23.036289	-0.379861	-133.269822
9.050000	-0.376755	-120.603620	-39.051522	-23.959770	-39.051522	-23.959770	-0.385060	-133.911058
9.100000	-0.379459	-121.215478	-38.990920	-24.988380	-38.990920	-24.988380	-0.390314	-134.552012
9.150000	-0.382423	-121.824000	-38.926919	-26.047794	-38.926919	-26.047794	-0.395597	-135.192891
9.200000	-0.385846	-122.426619	-38.856682	-27.161707	-38.856682	-27.161707	-0.400926	-135.833640
9.250000	-0.389586	-123.024997	-38.782643	-28.315724	-38.782643	-28.315724	-0.406306	-136.474321
9.300000	-0.393516	-123.620829	-38.706633	-29.493803	-38.706633	-29.493803	-0.411717	-137.114961
9.350000	-0.397786	-124.212074	-38.627018	-30.715931	-38.627018	-30.715931	-0.417203	-137.755585
9.400000	-0.402145	-124.802127	-38.547075	-31.949559	-38.547075	-31.949559	-0.422714	-138.396218
9.450000	-0.406763	-125.388759	-38.464989	-33.216427	-38.464989	-33.216427	-0.428298	-139.036912
9.500000	-0.411489	-125.974044	-38.382647	-34.496541	-38.382647	-34.496541	-0.433921	-139.677673
9.550000	-0.416364	-126.557443	-38.299659	-35.795199	-38.299659	-35.795199	-0.439597	-140.318527
9.600000	-0.421392	-127.139050	-38.216251	-37.111766	-38.216251	-37.111766	-0.445337	-140.959551
9.650000	-0.426492	-127.719816	-38.133076	-38.436738	-38.133076	-38.436738	-0.451107	-141.600654
9.700000	-0.431781	-128.298527	-38.049500	-39.782688	-38.049500	-39.782688	-0.456965	-142.242077
9.750000	-0.437123	-128.876739	-37.966471	-41.133848	-37.966471	-41.133848	-0.462850	-142.883609
9.800000	-0.442611	-129.453514	-37.883547	-42.500118	-37.883547	-42.500118	-0.468809	-143.525480
9.850000	-0.448184	-130.029569	-37.801151	-43.874259	-37.801151	-43.874259	-0.474815	-144.167596
9.900000	-0.453851	-130.604819	-37.719245	-45.257194	-37.719245	-45.257194	-0.480873	-144.809987
9.950000	-0.459641	-131.179124	-37.637909	-46.650996	-37.637909	-46.650996	-0.487001	-145.452829
10.000000	-0.465479	-131.753090	-37.557258	-48.048692	-37.557258	-48.048692	-0.493157	-146.095833
