! freq	dB(S11)	phase(S11)	dB(S12)	phase(S12)	
!     	dB(S21)	phase(S21)	dB(S22)	phase(S22)	
!S-par simulation data
#  GHz  S  DB  R 50
0.000000	-0.000000	0.000000	-321.498879	0.000000	-321.498879	0.000000	-0.000000	0.000000
0.050000	-0.005101	-1.898108	-78.681068	88.155408	-78.681068	88.155408	-0.004625	-1.707737
0.100000	-0.008483	-3.756290	-72.670440	86.391723	-72.670440	86.391723	-0.007499	-3.380601
0.150000	-0.010097	-5.613303	-69.158354	84.626311	-69.158354	84.626311	-0.008898	-5.053468
0.200000	-0.011352	-7.471083	-66.670955	82.859396	-66.670955	82.859396	-0.010040	-6.727534
0.250000	-0.012605	-9.328372	-64.746929	81.094150	-64.746929	81.094150	-0.011216	-8.401809
0.300000	-0.013975	-11.184016	-63.180868	79.333119	-63.180868	79.333119	-0.012519	-10.075504
0.350000	-0.015480	-13.037488	-61.861794	77.577384	-61.861794	77.577384	-0.013956	-11.748229
0.400000	-0.017130	-14.888134	-60.724537	75.828466	-60.724537	75.828466	-0.015531	-13.419626
0.450000	-0.018919	-16.735467	-59.726747	74.087543	-59.726747	74.087543	-0.017235	-15.089445
0.500000	-0.020846	-18.578681	-58.840241	72.356638	-58.840241	72.356638	-0.019065	-16.757310
0.550000	-0.022886	-20.417607	-58.043740	70.636281	-58.043740	70.636281	-0.020997	-18.423168
0.600000	-0.025021	-22.251996	-57.321746	68.927218	-57.321746	68.927218	-0.023011	-20.086938
0.650000	-0.027235	-24.081536	-56.662621	67.230385	-56.662621	67.230385	-0.025094	-21.748519
0.700000	-0.029513	-25.905938	-56.057290	65.546685	-56.057290	65.546685	-0.027233	-23.407823
0.750000	-0.031842	-27.724933	-55.498534	63.876987	-55.498534	63.876987	-0.029413	-25.064782
0.800000	-0.034209	-29.538128	-54.980680	62.222515	-54.980680	62.222515	-0.031625	-26.719274
0.850000	-0.036601	-31.344862	-54.499364	60.585230	-54.499364	60.585230	-0.033859	-28.371080
0.900000	-0.039005	-33.145447	-54.049893	58.964516	-54.049893	58.964516	-0.036103	-30.020381
0.950000	-0.041412	-34.939683	-53.628880	57.361101	-53.628880	57.361101	-0.038351	-31.667142
1.000000	-0.043812	-36.727380	-53.233432	55.775678	-53.233432	55.775678	-0.040597	-33.311332
1.050000	-0.046200	-38.508361	-52.861054	54.208903	-52.861054	54.208903	-0.042835	-34.952925
1.100000	-0.048569	-40.282459	-52.509572	52.661393	-52.509572	52.661393	-0.045062	-36.591895
1.150000	-0.050912	-42.048985	-52.177460	51.135230	-52.177460	51.135230	-0.047274	-38.228024
1.200000	-0.053225	-43.807986	-51.862810	49.630407	-51.862810	49.630407	-0.049468	-39.861368
1.250000	-0.055506	-45.559628	-51.563872	48.146550	-51.563872	48.146550	-0.051645	-41.492024
1.300000	-0.057754	-47.303779	-51.279286	46.684093	-51.279286	46.684093	-0.053803	-43.119971
1.350000	-0.059966	-49.040315	-51.007820	45.243424	-51.007820	45.243424	-0.055941	-44.745194
1.400000	-0.062142	-50.769121	-50.748350	43.824878	-50.748350	43.824878	-0.058061	-46.367678
1.450000	-0.064281	-52.490039	-50.499865	42.428877	-50.499865	42.428877	-0.060162	-47.987390
1.500000	-0.066380	-54.202128	-50.261702	41.058029	-50.261702	41.058029	-0.062242	-49.604030
1.550000	-0.068442	-55.906165	-50.032592	39.710005	-50.032592	39.710005	-0.064306	-51.217889
1.600000	-0.070469	-57.602063	-49.811710	38.384893	-49.811710	38.384893	-0.066354	-52.828961
1.650000	-0.072462	-59.289746	-49.598285	37.082716	-49.598285	37.082716	-0.068387	-54.437238
1.700000	-0.074420	-60.968650	-49.391661	35.804768	-49.391661	35.804768	-0.070406	-56.042552
1.750000	-0.076346	-62.639312	-49.191018	34.549260	-49.191018	34.549260	-0.072414	-57.645102
1.800000	-0.078243	-64.301428	-48.995737	33.316653	-48.995737	33.316653	-0.074410	-59.244809
1.850000	-0.080110	-65.954951	-48.805180	32.106648	-48.805180	32.106648	-0.076398	-60.841676
1.900000	-0.081951	-67.599836	-48.618737	30.918854	-48.618737	30.918854	-0.078377	-62.435709
1.950000	-0.083767	-69.236050	-48.435823	29.752789	-48.435823	29.752789	-0.080351	-64.026921
2.000000	-0.085559	-70.863567	-48.255878	28.607874	-48.255878	28.607874	-0.082319	-65.615324
2.050000	-0.087331	-72.482366	-48.078363	27.483428	-48.078363	27.483428	-0.084285	-67.200937
2.100000	-0.089083	-74.092436	-47.902763	26.378673	-47.902763	26.378673	-0.086248	-68.783781
2.150000	-0.090817	-75.693774	-47.728580	25.292726	-47.728580	25.292726	-0.088212	-70.363880
2.200000	-0.092536	-77.286383	-47.555339	24.224599	-47.555339	24.224599	-0.090176	-71.941263
2.250000	-0.094241	-78.870274	-47.382583	23.173202	-47.382583	23.173202	-0.092143	-73.515964
2.300000	-0.095935	-80.445465	-47.209874	22.137342	-47.209874	22.137342	-0.094113	-75.088019
2.350000	-0.097618	-82.011981	-47.036794	21.115724	-47.036794	21.115724	-0.096088	-76.657469
2.400000	-0.099293	-83.569855	-46.862947	20.106955	-46.862947	20.106955	-0.098070	-78.224360
2.450000	-0.100961	-85.119125	-46.687954	19.109548	-46.687954	19.109548	-0.100060	-79.788740
2.500000	-0.102624	-86.659838	-46.511459	18.121927	-46.511459	18.121927	-0.102058	-81.350662
2.550000	-0.104284	-88.191678	-46.332869	17.142704	-46.332869	17.142704	-0.104067	-82.910083
2.600000	-0.105942	-89.715078	-46.152090	16.169712	-46.152090	16.169712	-0.106087	-84.467172
2.650000	-0.107600	-91.230104	-45.968831	15.201141	-45.968831	15.201141	-0.108120	-86.021996
2.700000	-0.109259	-92.736827	-45.782821	14.235129	-45.782821	14.235129	-0.110167	-87.574624
2.750000	-0.110922	-94.235325	-45.593814	13.269769	-45.593814	13.269769	-0.112228	-89.125133
2.800000	-0.112588	-95.725683	-45.401582	12.303121	-45.401582	12.303121	-0.114305	-90.673602
2.850000	-0.114260	-97.207990	-45.205924	11.333223	-45.205924	11.333223	-0.116399	-92.220114
2.900000	-0.115938	-98.682341	-45.006655	10.358104	-45.006655	10.358104	-0.118511	-93.764758
2.950000	-0.117625	-100.148837	-44.803614	9.375796	-44.803614	9.375796	-0.120642	-95.307624
3.000000	-0.119322	-101.607584	-44.596660	8.384345	-44.596660	8.384345	-0.122794	-96.848811
3.050000	-0.121029	-103.058694	-44.385667	7.381825	-44.385667	7.381825	-0.124966	-98.388418
3.100000	-0.122749	-104.502282	-44.170532	6.366346	-44.170532	6.366346	-0.127161	-99.926550
3.150000	-0.124481	-105.938470	-43.951163	5.336067	-43.951163	5.336067	-0.129379	-101.463318
3.200000	-0.126228	-107.367386	-43.727486	4.289205	-43.727486	4.289205	-0.131621	-102.998834
3.250000	-0.127991	-108.789160	-43.499437	3.224044	-43.499437	3.224044	-0.133889	-104.533218
3.300000	-0.129770	-110.203931	-43.266965	2.138941	-43.266965	2.138941	-0.136182	-106.066591
3.350000	-0.131568	-111.611840	-43.030025	1.032333	-43.030025	1.032333	-0.138503	-107.599081
3.400000	-0.133385	-113.013034	-42.788582	-0.097255	-42.788582	-0.097255	-0.140853	-109.130820
3.450000	-0.135222	-114.407666	-42.542602	-1.251211	-42.542602	-1.251211	-0.143231	-110.661944
3.500000	-0.137081	-115.795895	-42.292054	-2.430827	-42.292054	-2.430827	-0.145640	-112.192594
3.550000	-0.138963	-117.177882	-42.036909	-3.637306	-42.036909	-3.637306	-0.148080	-113.722917
3.600000	-0.140870	-118.553799	-41.777132	-4.871754	-41.777132	-4.871754	-0.150553	-115.253063
3.650000	-0.142802	-119.923819	-41.512685	-6.135182	-41.512685	-6.135182	-0.153059	-116.783189
3.700000	-0.144760	-121.288124	-41.243524	-7.428513	-41.243524	-7.428513	-0.155600	-118.313455
3.750000	-0.146748	-122.646904	-40.969593	-8.752580	-40.969593	-8.752580	-0.158176	-119.844030
3.800000	-0.148766	-124.000130	-40.690213	-10.109529	-40.690213	-10.109529	-0.160791	-121.375116
3.850000	-0.150816	-125.348247	-40.405877	-11.498678	-40.405877	-11.498678	-0.163444	-122.906878
3.900000	-0.152900	-126.691468	-40.116483	-12.920608	-40.116483	-12.920608	-0.166137	-124.439504
3.950000	-0.155019	-128.030016	-39.821911	-14.375830	-39.821911	-14.375830	-0.168870	-125.973186
4.000000	-0.157175	-129.364120	-39.522020	-15.864789	-39.522020	-15.864789	-0.171645	-127.508127
4.050000	-0.159371	-130.694026	-39.216643	-17.387877	-39.216643	-17.387877	-0.174464	-129.044533
4.100000	-0.161609	-132.019989	-38.905588	-18.945433	-38.905588	-18.945433	-0.177328	-130.582624
4.150000	-0.163892	-133.342278	-38.588635	-20.537755	-38.588635	-20.537755	-0.180239	-132.122626
4.200000	-0.166222	-134.661178	-38.265529	-22.165104	-38.265529	-22.165104	-0.183199	-133.664777
4.250000	-0.168603	-135.976992	-37.935983	-23.827716	-37.935983	-23.827716	-0.186210	-135.209324
4.300000	-0.171039	-137.290044	-37.599671	-25.525806	-37.599671	-25.525806	-0.189274	-136.756532
4.350000	-0.173535	-138.600679	-37.256225	-27.259584	-37.256225	-27.259584	-0.192394	-138.306674
4.400000	-0.176094	-139.909271	-36.905230	-29.029255	-36.905230	-29.029255	-0.195573	-139.860045
4.450000	-0.178723	-141.216221	-36.546223	-30.835039	-36.546223	-30.835039	-0.198815	-141.416955
4.500000	-0.181429	-142.521968	-36.178683	-32.677178	-36.178683	-32.677178	-0.202122	-142.977734
4.550000	-0.184219	-143.826993	-35.802028	-34.555952	-35.802028	-34.555952	-0.205501	-144.542741
4.600000	-0.187103	-145.131823	-35.415609	-36.471692	-35.415609	-36.471692	-0.208955	-146.112359
4.650000	-0.190090	-146.437044	-35.018698	-38.424800	-35.018698	-38.424800	-0.212492	-147.687005
4.700000	-0.193194	-147.743309	-34.610480	-40.415772	-34.610480	-40.415772	-0.216118	-149.267136
4.750000	-0.196430	-149.051352	-34.190045	-42.445219	-34.190045	-42.445219	-0.219844	-150.853252
4.800000	-0.199818	-150.362004	-33.756371	-44.513905	-33.756371	-44.513905	-0.223680	-152.445910
4.850000	-0.203378	-151.676215	-33.308306	-46.622780	-33.308306	-46.622780	-0.227638	-154.045732
4.900000	-0.207140	-152.995077	-32.844554	-48.773035	-32.844554	-48.773035	-0.231737	-155.653421
4.950000	-0.211137	-154.319860	-32.363646	-50.966157	-32.363646	-50.966157	-0.235995	-157.269777
5.000000	-0.215414	-155.652050	-31.863917	-53.204014	-31.863917	-53.204014	-0.240439	-158.895718
5.050000	-0.220046	-156.994057	-31.340288	-55.491779	-31.340288	-55.491779	-0.245117	-160.532994
5.100000	-0.225082	-158.347333	-30.794431	-57.828826	-30.794431	-57.828826	-0.250055	-162.182064
5.150000	-0.230606	-159.714295	-30.224168	-60.218755	-30.224168	-60.218755	-0.255305	-163.844349
5.200000	-0.236755	-161.098474	-29.624803	-62.667997	-29.624803	-62.667997	-0.260950	-165.522062
5.250000	-0.243727	-162.504786	-28.989711	-65.185484	-28.989711	-65.185484	-0.267111	-167.218200
5.300000	-0.251699	-163.936951	-28.319318	-67.775566	-28.319318	-67.775566	-0.273896	-168.934526
5.350000	-0.260945	-165.400595	-27.610302	-70.447658	-27.610302	-70.447658	-0.281473	-170.674149
5.400000	-0.272017	-166.906747	-26.849088	-73.223049	-26.849088	-73.223049	-0.290180	-172.443615
5.450000	-0.285494	-168.465045	-26.032481	-76.117961	-26.032481	-76.117961	-0.300377	-174.247958
5.500000	-0.302424	-170.092277	-25.147673	-79.163814	-25.147673	-79.163814	-0.312709	-176.096471
5.550000	-0.324215	-171.807750	-24.186799	-82.396335	-24.186799	-82.396335	-0.328045	-177.999387
5.600000	-0.353600	-173.646648	-23.126373	-85.883820	-23.126373	-85.883820	-0.348074	-179.975731
5.650000	-0.394481	-175.649939	-21.953767	-89.706660	-21.953767	-89.706660	-0.375199	177.953321
5.700000	-0.454965	-177.894406	-20.632073	-94.021435	-20.632073	-94.021435	-0.414397	175.748091
5.750000	-0.550219	179.505899	-19.123312	-99.072529	-19.123312	-99.072529	-0.474894	173.352362
5.800000	-0.713015	176.360948	-17.373147	-105.302484	-17.373147	-105.302484	-0.576305	170.678672
5.850000	-1.024122	172.356139	-15.307244	-113.585187	-15.307244	-113.585187	-0.765427	167.605569
5.900000	-1.711287	167.133334	-12.864991	-125.751599	-12.864991	-125.751599	-1.164543	164.112605
5.950000	-3.478014	162.076499	-10.197378	-145.594329	-10.197378	-145.594329	-2.073175	161.480169
6.000000	-6.883056	175.674409	-8.418821	-177.317636	-8.418821	-177.317636	-3.361881	167.108905
6.050000	-4.672544	-157.438176	-9.263691	148.083581	-9.263691	148.083581	-2.649913	177.103884
6.100000	-2.235084	-159.654639	-11.641579	124.667191	-11.641579	124.667191	-1.512833	176.520131
6.150000	-1.289206	-165.032641	-13.990758	110.572150	-13.990758	110.572150	-0.975855	173.222017
6.200000	-0.881099	-169.320639	-15.966148	101.300301	-15.966148	101.300301	-0.728111	170.058001
6.250000	-0.675896	-172.664191	-17.605794	94.497971	-17.605794	94.497971	-0.600339	167.258751
6.300000	-0.561221	-175.386248	-18.977712	89.092166	-18.977712	89.092166	-0.528410	164.738823
6.350000	-0.491579	-177.707485	-20.145080	84.528814	-20.145080	84.528814	-0.484915	162.408543
6.400000	-0.446528	-179.763134	-21.156212	80.505755	-21.156212	80.505755	-0.457174	160.205760
6.450000	-0.416229	178.367125	-22.041600	76.855254	-22.041600	76.855254	-0.438978	158.091717
6.500000	-0.395244	176.631103	-22.824801	73.471793	-22.824801	73.471793	-0.426852	156.040183
6.550000	-0.380612	174.997345	-23.518110	70.293912	-23.518110	70.293912	-0.418888	154.034727
6.600000	-0.369875	173.432482	-24.150315	67.256655	-24.150315	67.256655	-0.413481	152.058794
6.650000	-0.362418	171.930569	-24.713572	64.350987	-24.713572	64.350987	-0.410231	150.108084
6.700000	-0.356991	170.470745	-25.231451	61.536426	-25.231451	61.536426	-0.408315	148.172712
6.750000	-0.353282	169.048759	-25.701504	58.807211	-25.701504	58.807211	-0.407524	146.249634
6.800000	-0.350838	167.656289	-26.131741	56.148357	-26.131741	56.148357	-0.407555	144.334631
6.850000	-0.349377	166.287927	-26.526711	53.550784	-26.526711	53.550784	-0.408221	142.424822
6.900000	-0.348783	164.941724	-26.884285	51.014489	-26.884285	51.014489	-0.409435	140.518101
6.950000	-0.348716	163.609433	-27.219837	48.520268	-27.219837	48.520268	-0.410976	138.612168
7.000000	-0.349159	162.290888	-27.529846	46.071080	-27.529846	46.071080	-0.412828	136.705973
7.050000	-0.350022	160.983839	-27.816662	43.663708	-27.816662	43.663708	-0.414927	134.798361
7.100000	-0.351234	159.686425	-28.082318	41.295617	-28.082318	41.295617	-0.417222	132.888403
7.150000	-0.352740	158.397088	-28.328582	38.964797	-28.328582	38.964797	-0.419675	130.975342
7.200000	-0.354494	157.114513	-28.557002	36.669647	-28.557002	36.669647	-0.422253	129.058566
7.250000	-0.356461	155.837580	-28.768940	34.408874	-28.768940	34.408874	-0.424929	127.137580
7.300000	-0.358611	154.565325	-28.965601	32.181430	-28.965601	32.181430	-0.427680	125.211988
7.350000	-0.360919	153.296915	-29.148052	29.986452	-29.148052	29.986452	-0.430488	123.281476
7.400000	-0.363366	152.031623	-29.317243	27.823217	-29.317243	27.823217	-0.433338	121.345803
7.450000	-0.365934	150.768810	-29.474023	25.691108	-29.474023	25.691108	-0.436215	119.404788
7.500000	-0.368609	149.507911	-29.619151	23.589587	-29.619151	23.589587	-0.439109	117.458303
7.550000	-0.371383	148.248465	-29.752779	21.519455	-29.752779	21.519455	-0.442010	115.506027
7.600000	-0.374241	146.989945	-29.876124	19.478938	-29.876124	19.478938	-0.444908	113.548168
7.650000	-0.377174	145.731951	-29.989724	17.467607	-29.989724	17.467607	-0.447796	111.584731
7.700000	-0.380175	144.474124	-30.094065	15.485039	-30.094065	15.485039	-0.450668	109.615759
7.750000	-0.383237	143.216135	-30.189588	13.530807	-30.189588	13.530807	-0.453518	107.641325
7.800000	-0.386354	141.957683	-30.276691	11.604473	-30.276691	11.604473	-0.456342	105.661531
7.850000	-0.389522	140.698492	-30.355734	9.705580	-30.355734	9.705580	-0.459135	103.676510
7.900000	-0.392737	139.438311	-30.427046	7.833651	-30.427046	7.833651	-0.461895	101.686416
7.950000	-0.395993	138.176904	-30.490926	5.988182	-30.490926	5.988182	-0.464618	99.691429
8.000000	-0.399289	136.914054	-30.547646	4.168640	-30.547646	4.168640	-0.467303	97.691753
8.050000	-0.402620	135.649561	-30.597453	2.374465	-30.597453	2.374465	-0.469947	95.687612
8.100000	-0.405984	134.383235	-30.640576	0.605067	-30.640576	0.605067	-0.472548	93.679250
8.150000	-0.409380	133.114901	-30.677222	-1.140174	-30.677222	-1.140174	-0.475107	91.666931
8.200000	-0.412804	131.844394	-30.707585	-2.861904	-30.707585	-2.861904	-0.477623	89.650937
8.250000	-0.416255	130.571560	-30.731841	-4.560796	-30.731841	-4.560796	-0.480096	87.631567
8.300000	-0.419732	129.296255	-30.750155	-6.237547	-30.750155	-6.237547	-0.482526	85.609136
8.350000	-0.423233	128.018340	-30.762679	-7.892877	-30.762679	-7.892877	-0.484914	83.583974
8.400000	-0.426756	126.737688	-30.769554	-9.527524	-30.769554	-9.527524	-0.487261	81.556426
8.450000	-0.430302	125.454177	-30.770915	-11.142242	-30.770915	-11.142242	-0.489569	79.526848
8.500000	-0.433868	124.167692	-30.766886	-12.737799	-30.766886	-12.737799	-0.491840	77.495610
8.550000	-0.437455	122.878124	-30.757583	-14.314974	-30.757583	-14.314974	-0.494077	75.463093
8.600000	-0.441061	121.585372	-30.743117	-15.874552	-30.743117	-15.874552	-0.496282	73.429688
8.650000	-0.444687	120.289337	-30.723592	-17.417324	-30.723592	-17.417324	-0.498458	71.395796
8.700000	-0.448332	118.989929	-30.699106	-18.944086	-30.699106	-18.944086	-0.500608	69.361825
8.750000	-0.451996	117.687060	-30.669753	-20.455630	-30.669753	-20.455630	-0.502737	67.328192
8.800000	-0.455680	116.380491	-30.635410	-21.952159	-30.635410	-21.952159	-0.504848	65.295370
8.850000	-0.459384	115.070295	-30.596373	-23.435125	-30.596373	-23.435125	-0.506946	63.263774
8.900000	-0.463107	113.756400	-30.552720	-24.905310	-30.552720	-24.905310	-0.509036	61.233836
8.950000	-0.466850	112.438737	-30.504523	-26.363494	-30.504523	-26.363494	-0.511123	59.205990
9.000000	-0.470615	111.117241	-30.451850	-27.810448	-30.451850	-27.810448	-0.513212	57.180674
9.050000	-0.474401	109.791853	-30.394765	-29.246938	-30.394765	-29.246938	-0.515308	55.158324
9.100000	-0.478209	108.462515	-30.333326	-30.673723	-30.333326	-30.673723	-0.517418	53.139379
9.150000	-0.482041	107.129174	-30.267588	-32.091556	-30.267588	-32.091556	-0.519546	51.124276
9.200000	-0.485898	105.791780	-30.197599	-33.501184	-30.197599	-33.501184	-0.521700	49.113448
9.250000	-0.489782	104.450287	-30.123406	-34.903352	-30.123406	-34.903352	-0.523885	47.107327
9.300000	-0.493692	103.104650	-30.045048	-36.298799	-30.045048	-36.298799	-0.526107	45.106342
9.350000	-0.497633	101.754831	-29.962560	-37.688263	-29.962560	-37.688263	-0.528374	43.110914
9.400000	-0.501604	100.400793	-29.875972	-39.072485	-29.875972	-39.072485	-0.530691	41.121462
9.450000	-0.505609	99.042500	-29.785310	-40.452204	-29.785310	-40.452204	-0.533065	39.138395
9.500000	-0.509648	97.679923	-29.690593	-41.828166	-29.690593	-41.828166	-0.535503	37.162117
9.550000	-0.513725	96.313033	-29.591837	-43.201124	-29.591837	-43.201124	-0.538012	35.193024
9.600000	-0.517843	94.941804	-29.489051	-44.571839	-29.489051	-44.571839	-0.540598	33.231502
9.650000	-0.522002	93.566214	-29.382240	-45.941087	-29.382240	-45.941087	-0.543268	31.277929
9.700000	-0.526207	92.186241	-29.271402	-47.309657	-29.271402	-47.309657	-0.546029	29.332670
9.750000	-0.530460	90.801868	-29.156533	-48.678359	-29.156533	-48.678359	-0.548887	27.396084
9.800000	-0.534765	89.413079	-29.037619	-50.048026	-29.037619	-50.048026	-0.551849	25.468515
9.850000	-0.539124	88.019861	-28.914645	-51.419516	-28.914645	-51.419516	-0.554922	23.550297
9.900000	-0.543541	86.622201	-28.787588	-52.793720	-28.787588	-52.793720	-0.558112	21.641751
9.950000	-0.548019	85.220090	-28.656421	-54.171563	-28.656421	-54.171563	-0.561425	19.743187
10.000000	-0.552563	83.813520	-28.521110	-55.554012	-28.521110	-55.554012	-0.564869	17.854902
