! freq	dB(S11)	phase(S11)	dB(S12)	phase(S12)	
!     	dB(S21)	phase(S21)	dB(S22)	phase(S22)	
!S-par simulation data
#  GHz  S  DB  R 50
0.000000	-0.000000	0.000000	-304.399124	0.000000	-304.399124	0.000000	0.000000	0.000000
0.050000	-0.000521	-0.937651	-95.498271	88.119965	-95.498271	88.119965	-0.001802	-3.069313
0.100000	-0.001884	-1.873712	-89.506623	86.137976	-89.506623	86.137976	-0.006471	-6.128278
0.150000	-0.003673	-2.807154	-86.032927	84.189720	-86.032927	84.189720	-0.012487	-9.172354
0.200000	-0.005534	-3.737861	-83.600151	82.261956	-83.600151	82.261956	-0.018622	-12.202433
0.250000	-0.007271	-4.666167	-81.747672	80.356916	-81.747672	80.356916	-0.024243	-15.220184
0.300000	-0.008812	-5.592670	-80.270384	78.479467	-80.270384	78.479467	-0.029167	-18.227010
0.350000	-0.010166	-6.517960	-79.056812	76.634147	-79.056812	76.634147	-0.033471	-21.223741
0.400000	-0.011362	-7.442389	-78.042157	74.827284	-78.042157	74.827284	-0.037274	-24.210006
0.450000	-0.012434	-8.366158	-77.187159	73.068155	-77.187159	73.068155	-0.040688	-27.184499
0.500000	-0.013422	-9.289420	-76.460560	71.362411	-76.460560	71.362411	-0.043842	-30.146785
0.550000	-0.014354	-10.212220	-75.842412	69.718701	-75.842412	69.718701	-0.046816	-33.095806
0.600000	-0.015252	-11.134539	-75.320895	68.150751	-75.320895	68.150751	-0.049665	-36.029761
0.650000	-0.016135	-12.056368	-74.883142	66.667923	-74.883142	66.667923	-0.052439	-38.948069
0.700000	-0.017018	-12.977672	-74.520423	65.282586	-74.520423	65.282586	-0.055169	-41.849892
0.750000	-0.017911	-13.898380	-74.228250	64.013996	-74.228250	64.013996	-0.057874	-44.733730
0.800000	-0.018821	-14.818436	-74.001603	62.881228	-74.001603	62.881228	-0.060570	-47.598703
0.850000	-0.019755	-15.737784	-73.835959	61.905229	-73.835959	61.905229	-0.063263	-50.444204
0.900000	-0.020716	-16.656364	-73.728082	61.112141	-73.728082	61.112141	-0.065959	-53.269533
0.950000	-0.021707	-17.574108	-73.675541	60.534430	-73.675541	60.534430	-0.068658	-56.073932
1.000000	-0.022729	-18.490956	-73.675819	60.210372	-73.675819	60.210372	-0.071359	-58.856791
1.050000	-0.023783	-19.406845	-73.726177	60.185864	-73.726177	60.185864	-0.074061	-61.617573
1.100000	-0.024867	-20.321716	-73.823184	60.515698	-73.823184	60.515698	-0.076759	-64.355815
1.150000	-0.025981	-21.235513	-73.962069	61.264559	-73.962069	61.264559	-0.079450	-67.071121
1.200000	-0.027122	-22.148184	-74.135837	62.507162	-74.135837	62.507162	-0.082129	-69.763164
1.250000	-0.028287	-23.059679	-74.334079	64.326441	-74.334079	64.326441	-0.084792	-72.431682
1.300000	-0.029474	-23.969927	-74.541087	66.824135	-74.541087	66.824135	-0.087432	-75.075958
1.350000	-0.030679	-24.878913	-74.734242	70.062199	-74.734242	70.062199	-0.090046	-77.696369
1.400000	-0.031899	-25.786602	-74.883996	74.081785	-74.883996	74.081785	-0.092630	-80.292838
1.450000	-0.033129	-26.692963	-74.954447	78.859839	-74.954447	78.859839	-0.095179	-82.865342
1.500000	-0.034367	-27.597969	-74.907696	84.278065	-74.907696	84.278065	-0.097689	-85.413908
1.550000	-0.035610	-28.501596	-74.711889	90.110129	-74.711889	90.110129	-0.100158	-87.938615
1.600000	-0.036854	-29.403827	-74.350462	96.046380	-74.350462	96.046380	-0.102581	-90.439582
1.650000	-0.038096	-30.304643	-73.827665	101.756617	-73.827665	101.756617	-0.104957	-92.916974
1.700000	-0.039335	-31.204031	-73.166751	106.963244	-73.166751	106.963244	-0.107282	-95.370994
1.750000	-0.040569	-32.101980	-72.402042	111.488514	-72.402042	111.488514	-0.109557	-97.801880
1.800000	-0.041797	-32.998478	-71.569724	115.260451	-71.569724	115.260451	-0.111778	-100.209904
1.850000	-0.043016	-33.893516	-70.701411	118.288990	-70.701411	118.288990	-0.113946	-102.595370
1.900000	-0.044227	-34.787069	-69.820580	120.626756	-69.820580	120.626756	-0.116059	-104.958369
1.950000	-0.045429	-35.679128	-68.944839	122.357564	-68.944839	122.357564	-0.118117	-107.299270
2.000000	-0.046623	-36.569700	-68.086297	123.573406	-68.086297	123.573406	-0.120122	-109.618694
2.050000	-0.047808	-37.458775	-67.251615	124.352923	-67.251615	124.352923	-0.122074	-111.917040
2.100000	-0.048986	-38.346344	-66.444425	124.765275	-66.444425	124.765275	-0.123973	-114.194724
2.150000	-0.050156	-39.232398	-65.666345	124.869405	-65.666345	124.869405	-0.125822	-116.452181
2.200000	-0.051320	-40.116924	-64.917705	124.714673	-64.917705	124.714673	-0.127623	-118.689855
2.250000	-0.052479	-40.999912	-64.198037	124.342030	-64.198037	124.342030	-0.129376	-120.908204
2.300000	-0.053633	-41.881350	-63.506398	123.785322	-63.506398	123.785322	-0.131085	-123.107696
2.350000	-0.054785	-42.761224	-62.841590	123.072493	-62.841590	123.072493	-0.132751	-125.288806
2.400000	-0.055934	-43.639523	-62.202293	122.226648	-62.202293	122.226648	-0.134378	-127.452017
2.450000	-0.057083	-44.516233	-61.587151	121.266939	-61.587151	121.266939	-0.135968	-129.597815
2.500000	-0.058232	-45.391340	-60.994828	120.209296	-60.994828	120.209296	-0.137525	-131.726693
2.550000	-0.059382	-46.264795	-60.423690	119.065438	-60.423690	119.065438	-0.139049	-133.838797
2.600000	-0.060536	-47.136620	-59.872920	117.848517	-59.872920	117.848517	-0.140547	-135.934992
2.650000	-0.061693	-48.006800	-59.341364	116.567822	-59.341364	116.567822	-0.142020	-138.015773
2.700000	-0.062854	-48.875323	-58.827948	115.231221	-58.827948	115.231221	-0.143473	-140.081635
2.750000	-0.064022	-49.742175	-58.331676	113.845402	-58.331676	113.845402	-0.144908	-142.133071
2.800000	-0.065196	-50.607342	-57.851632	112.416082	-57.851632	112.416082	-0.146329	-144.170574
2.850000	-0.066377	-51.470813	-57.386971	110.948168	-57.386971	110.948168	-0.147739	-146.194630
2.900000	-0.067567	-52.332575	-56.936915	109.445893	-56.936915	109.445893	-0.149142	-148.205726
2.950000	-0.068765	-53.192616	-56.500752	107.912927	-56.500752	107.912927	-0.150540	-150.204340
3.000000	-0.069974	-54.050926	-56.077824	106.352470	-56.077824	106.352470	-0.151938	-152.190950
3.050000	-0.071193	-54.907494	-55.667531	104.767328	-55.667531	104.767328	-0.153339	-154.166027
3.100000	-0.072423	-55.762310	-55.269318	103.159978	-55.269318	103.159978	-0.154745	-156.130035
3.150000	-0.073664	-56.615345	-54.882615	101.532426	-54.882615	101.532426	-0.156159	-158.083323
3.200000	-0.074919	-57.466590	-54.506972	99.886701	-54.506972	99.886701	-0.157586	-160.026361
3.250000	-0.076186	-58.316057	-54.142022	98.224782	-54.142022	98.224782	-0.159026	-161.959711
3.300000	-0.077466	-59.163739	-53.787364	96.548274	-53.787364	96.548274	-0.160484	-163.883811
3.350000	-0.078761	-60.009628	-53.442627	94.858646	-53.442627	94.858646	-0.161961	-165.799095
3.400000	-0.080069	-60.853720	-53.107469	93.157256	-53.107469	93.157256	-0.163459	-167.705990
3.450000	-0.081393	-61.696010	-52.781568	91.445366	-52.781568	91.445366	-0.164982	-169.604912
3.500000	-0.082732	-62.536492	-52.464628	89.724160	-52.464628	89.724160	-0.166530	-171.496275
3.550000	-0.084086	-63.375164	-52.156367	87.994754	-52.156367	87.994754	-0.168106	-173.380483
3.600000	-0.085457	-64.212022	-51.856524	86.258209	-51.856524	86.258209	-0.169711	-175.257931
3.650000	-0.086844	-65.047065	-51.564848	84.515532	-51.564848	84.515532	-0.171347	-177.129010
3.700000	-0.088247	-65.880292	-51.281103	82.767689	-51.281103	82.767689	-0.173015	-178.994102
3.750000	-0.089669	-66.711701	-51.005065	81.015605	-51.005065	81.015605	-0.174716	179.146420
3.800000	-0.091108	-67.541253	-50.736498	79.260117	-50.736498	79.260117	-0.176451	177.292294
3.850000	-0.092565	-68.368989	-50.475223	77.502166	-50.475223	77.502166	-0.178220	175.443039
3.900000	-0.094041	-69.194910	-50.221035	75.742569	-50.221035	75.742569	-0.180024	173.598303
3.950000	-0.095535	-70.019019	-49.973738	73.982106	-49.973738	73.982106	-0.181863	171.757744
4.000000	-0.097049	-70.841319	-49.733138	72.221521	-49.733138	72.221521	-0.183736	169.921024
4.050000	-0.098582	-71.661813	-49.499046	70.461521	-49.499046	70.461521	-0.185644	168.087815
4.100000	-0.100135	-72.480506	-49.271277	68.702771	-49.271277	68.702771	-0.187587	166.257796
4.150000	-0.101708	-73.297403	-49.049649	66.945894	-49.049649	66.945894	-0.189563	164.430653
4.200000	-0.103302	-74.112509	-48.833983	65.191468	-48.833983	65.191468	-0.191572	162.606078
4.250000	-0.104918	-74.925831	-48.624103	63.440024	-48.624103	63.440024	-0.193613	160.783773
4.300000	-0.106554	-75.737376	-48.419835	61.692042	-48.419835	61.692042	-0.195684	158.963447
4.350000	-0.108213	-76.547151	-48.221010	59.947952	-48.221010	59.947952	-0.197785	157.144814
4.400000	-0.109894	-77.355146	-48.027471	58.208178	-48.027471	58.208178	-0.199915	155.327611
4.450000	-0.111598	-78.161371	-47.839057	56.473050	-47.839057	56.473050	-0.202071	153.511558
4.500000	-0.113325	-78.965853	-47.655601	54.742780	-47.655601	54.742780	-0.204251	151.696379
4.550000	-0.115075	-79.768603	-47.476950	53.017574	-47.476950	53.017574	-0.206455	149.881819
4.600000	-0.116852	-80.569483	-47.303055	51.298044	-47.303055	51.298044	-0.208681	148.067640
4.650000	-0.118650	-81.368821	-47.133569	49.583305	-47.133569	49.583305	-0.210924	146.253567
4.700000	-0.120473	-82.166461	-46.968466	47.873914	-46.968466	47.873914	-0.213184	144.439402
4.750000	-0.122321	-82.962415	-46.807620	46.169871	-46.807620	46.169871	-0.215459	142.624920
4.800000	-0.124195	-83.756697	-46.650915	44.471128	-46.650915	44.471128	-0.217746	140.809905
4.850000	-0.126095	-84.549319	-46.498246	42.777599	-46.498246	42.777599	-0.220043	138.994147
4.900000	-0.128022	-85.340296	-46.349514	41.089165	-46.349514	41.089165	-0.222349	137.177445
4.950000	-0.129975	-86.129643	-46.204634	39.405675	-46.204634	39.405675	-0.224661	135.359607
5.000000	-0.131955	-86.917375	-46.063531	37.726962	-46.063531	37.726962	-0.226976	133.540446
5.050000	-0.133965	-87.703439	-45.926210	36.053034	-45.926210	36.053034	-0.229294	131.719713
5.100000	-0.136003	-88.487921	-45.792558	34.383495	-45.792558	34.383495	-0.231610	129.897298
5.150000	-0.138069	-89.270838	-45.662537	32.718165	-45.662537	32.718165	-0.233924	128.073040
5.200000	-0.140165	-90.052208	-45.536121	31.056878	-45.536121	31.056878	-0.236234	126.246790
5.250000	-0.142289	-90.832131	-45.413193	29.399285	-45.413193	29.399285	-0.238537	124.418527
5.300000	-0.144445	-91.610475	-45.293925	27.745658	-45.293925	27.745658	-0.240833	122.587907
5.350000	-0.146630	-92.387327	-45.178247	26.095759	-45.178247	26.095759	-0.243119	120.754897
5.400000	-0.148847	-93.162705	-45.066175	24.449575	-45.066175	24.449575	-0.245395	118.919381
5.450000	-0.151096	-93.936630	-44.957734	22.807153	-44.957734	22.807153	-0.247659	117.081253
5.500000	-0.153376	-94.709121	-44.852956	21.168608	-44.852956	21.168608	-0.249909	115.240415
5.550000	-0.155689	-95.480200	-44.751881	19.534132	-44.751881	19.534132	-0.252147	113.396781
5.600000	-0.158035	-96.249887	-44.654551	17.903999	-44.654551	17.903999	-0.254369	111.550271
5.650000	-0.160415	-97.018190	-44.561043	16.278622	-44.561043	16.278622	-0.256577	109.700786
5.700000	-0.162829	-97.785131	-44.471410	14.658472	-44.471410	14.658472	-0.258770	107.848266
5.750000	-0.165277	-98.550749	-44.385668	13.044042	-44.385668	13.044042	-0.260947	105.992694
5.800000	-0.167760	-99.315066	-44.303859	11.435972	-44.303859	11.435972	-0.263110	104.134033
5.850000	-0.170278	-100.078106	-44.226022	9.834987	-44.226022	9.834987	-0.265259	102.272255
5.900000	-0.172833	-100.839893	-44.152189	8.241900	-44.152189	8.241900	-0.267394	100.407343
5.950000	-0.175423	-101.600452	-44.082382	6.657603	-44.082382	6.657603	-0.269517	98.539290
6.000000	-0.178050	-102.359807	-44.016613	5.083059	-44.016613	5.083059	-0.271628	96.668098
6.050000	-0.180715	-103.117984	-43.954884	3.519296	-43.954884	3.519296	-0.273729	94.793780
6.100000	-0.183417	-103.875009	-43.897183	1.967394	-43.897183	1.967394	-0.275822	92.916358
6.150000	-0.186157	-104.630909	-43.843481	0.428475	-43.843481	0.428475	-0.277908	91.035866
6.200000	-0.188936	-105.385710	-43.793739	-1.096309	-43.793739	-1.096309	-0.279989	89.152345
6.250000	-0.191753	-106.139440	-43.747897	-2.605790	-43.747897	-2.605790	-0.282068	87.265847
6.300000	-0.194611	-106.892105	-43.705960	-4.098412	-43.705960	-4.098412	-0.284147	85.376371
6.350000	-0.197509	-107.643756	-43.667759	-5.573347	-43.667759	-5.573347	-0.286228	83.484051
6.400000	-0.200448	-108.394422	-43.633186	-7.029459	-43.633186	-7.029459	-0.288315	81.588968
6.450000	-0.203427	-109.144133	-43.602119	-8.465650	-43.602119	-8.465650	-0.290411	79.691206
6.500000	-0.206447	-109.892919	-43.574425	-9.880868	-43.574425	-9.880868	-0.292518	77.790861
6.550000	-0.209509	-110.640810	-43.549953	-11.274122	-43.549953	-11.274122	-0.294639	75.888033
6.600000	-0.212613	-111.387836	-43.528544	-12.644484	-43.528544	-12.644484	-0.296779	73.982829
6.650000	-0.215760	-112.134031	-43.510026	-13.991106	-43.510026	-13.991106	-0.298941	72.075362
6.700000	-0.218950	-112.879425	-43.494220	-15.313217	-43.494220	-15.313217	-0.301128	70.165748
6.750000	-0.222183	-113.624052	-43.480938	-16.610132	-43.480938	-16.610132	-0.303344	68.254110
6.800000	-0.225460	-114.367945	-43.469987	-17.881254	-43.469987	-17.881254	-0.305595	66.340570
6.850000	-0.228781	-115.111137	-43.461170	-19.126077	-43.461170	-19.126077	-0.307883	64.425252
6.900000	-0.232147	-115.853656	-43.454305	-20.343889	-43.454305	-20.343889	-0.310214	62.508266
6.950000	-0.235559	-116.595539	-43.449184	-21.534351	-43.449184	-21.534351	-0.312594	60.589739
7.000000	-0.239016	-117.336828	-43.445585	-22.697514	-43.445585	-22.697514	-0.315026	58.669808
7.050000	-0.242519	-118.077560	-43.443310	-23.833220	-43.443310	-23.833220	-0.317516	56.748588
7.100000	-0.246068	-118.817773	-43.442160	-24.941386	-43.442160	-24.941386	-0.320071	54.826187
7.150000	-0.249664	-119.557503	-43.441944	-26.021998	-43.441944	-26.021998	-0.322697	52.902702
7.200000	-0.253307	-120.296790	-43.442472	-27.075106	-43.442472	-27.075106	-0.325400	50.978218
7.250000	-0.256998	-121.035674	-43.443562	-28.100817	-43.443562	-28.100817	-0.328190	49.052803
7.300000	-0.260736	-121.774193	-43.445037	-29.099283	-43.445037	-29.099283	-0.331075	47.126506
7.350000	-0.264523	-122.512390	-43.446724	-30.070697	-43.446724	-30.070697	-0.334065	45.199350
7.400000	-0.268359	-123.250306	-43.448459	-31.015283	-43.448459	-31.015283	-0.337172	43.271331
7.450000	-0.272244	-123.987984	-43.450084	-31.933285	-43.450084	-31.933285	-0.340409	41.342406
7.500000	-0.276178	-124.725468	-43.451445	-32.824958	-43.451445	-32.824958	-0.343792	39.412488
7.550000	-0.280163	-125.462800	-43.452384	-33.689997	-43.452384	-33.689997	-0.347344	37.481407
7.600000	-0.284199	-126.200030	-43.452763	-34.529214	-43.452763	-34.529214	-0.351084	35.548973
7.650000	-0.288286	-126.937205	-43.452443	-35.342824	-43.452443	-35.342824	-0.355040	33.614892
7.700000	-0.292425	-127.674373	-43.451288	-36.131000	-43.451288	-36.131000	-0.359245	31.678767
7.750000	-0.296615	-128.411583	-43.449158	-36.893855	-43.449158	-36.893855	-0.363741	29.740075
7.800000	-0.300858	-129.148886	-43.445913	-37.631426	-43.445913	-37.631426	-0.368579	27.798132
7.850000	-0.305154	-129.886333	-43.441400	-38.343647	-43.441400	-38.343647	-0.373828	25.852053
7.900000	-0.309503	-130.623976	-43.435452	-39.030327	-43.435452	-39.030327	-0.379571	23.900692
7.950000	-0.313906	-131.361872	-43.427879	-39.691115	-43.427879	-39.691115	-0.385924	21.942565
8.000000	-0.318364	-132.100075	-43.418450	-40.325468	-43.418450	-40.325468	-0.393036	19.975744
8.050000	-0.322878	-132.838643	-43.406877	-40.932613	-43.406877	-40.932613	-0.401113	17.997705
8.100000	-0.327447	-133.577635	-43.392785	-41.511503	-43.392785	-41.511503	-0.410443	16.005118
8.150000	-0.332074	-134.317118	-43.375626	-42.060451	-43.375626	-42.060451	-0.421456	13.993262
8.200000	-0.336759	-135.057156	-43.354657	-42.577731	-43.354657	-42.577731	-0.434784	11.955827
8.250000	-0.341502	-135.797811	-43.328865	-43.061755	-43.328865	-43.061755	-0.451347	9.884506
8.300000	-0.346305	-136.539148	-43.296695	-43.510651	-43.296695	-43.510651	-0.472635	7.767313
8.350000	-0.351167	-137.281229	-43.255882	-43.923681	-43.255882	-43.923681	-0.501011	5.587888
8.400000	-0.356091	-138.024130	-43.202713	-44.302114	-43.202713	-44.302114	-0.540704	3.321430
8.450000	-0.361077	-138.767930	-43.131072	-44.654982	-43.131072	-44.654982	-0.599654	0.931341
8.500000	-0.366127	-139.512721	-43.030268	-45.014452	-43.030268	-45.014452	-0.694436	-1.635526
8.550000	-0.371242	-140.258567	-42.884057	-45.479319	-42.884057	-45.479319	-0.859514	-4.427072
8.600000	-0.376424	-141.005555	-42.671767	-46.347531	-42.671767	-46.347531	-1.175810	-7.376420
8.650000	-0.381673	-141.753789	-42.420727	-48.436544	-42.420727	-48.436544	-1.814342	-9.560748
8.700000	-0.386990	-142.503362	-42.435245	-52.354191	-42.435245	-52.354191	-2.706607	-6.834476
8.750000	-0.392373	-143.254373	-42.945328	-54.480550	-42.945328	-54.480550	-2.460967	0.329324
8.800000	-0.397820	-144.006902	-43.309089	-53.479181	-43.309089	-53.479181	-1.550238	0.816397
8.850000	-0.403332	-144.760994	-43.397917	-52.156612	-43.397917	-52.156612	-1.034955	-1.946434
8.900000	-0.408917	-145.516735	-43.367757	-51.270122	-43.367757	-51.270122	-0.790119	-4.929655
8.950000	-0.414585	-146.274266	-43.293172	-50.746993	-43.293172	-50.746993	-0.666564	-7.648173
9.000000	-0.420338	-147.033739	-43.200359	-50.467544	-43.200359	-50.467544	-0.599165	-10.117780
9.050000	-0.426174	-147.795221	-43.099499	-50.350337	-43.099499	-50.350337	-0.559607	-12.408826
9.100000	-0.432098	-148.558936	-42.994798	-50.354831	-42.994798	-50.354831	-0.536246	-14.565029
9.150000	-0.438111	-149.324984	-42.888852	-50.446333	-42.888852	-50.446333	-0.522223	-16.624808
9.200000	-0.444215	-150.093482	-42.783032	-50.601013	-42.783032	-50.601013	-0.514047	-18.612529
9.250000	-0.450413	-150.864575	-42.678015	-50.801114	-42.678015	-50.801114	-0.509766	-20.544199
9.300000	-0.456710	-151.638488	-42.574025	-51.033189	-42.574025	-51.033189	-0.508246	-22.430043
9.350000	-0.463104	-152.415189	-42.470996	-51.284452	-42.470996	-51.284452	-0.508582	-24.280854
9.400000	-0.469606	-153.195074	-42.368627	-51.547821	-42.368627	-51.547821	-0.510431	-26.099671
9.450000	-0.476222	-153.978342	-42.266506	-51.816105	-42.266506	-51.816105	-0.513427	-27.891261
9.500000	-0.482951	-154.765079	-42.164223	-52.084108	-42.164223	-52.084108	-0.517298	-29.659880
9.550000	-0.489800	-155.555490	-42.061344	-52.348238	-42.061344	-52.348238	-0.521883	-31.407998
9.600000	-0.496774	-156.349791	-41.957454	-52.605844	-41.957454	-52.605844	-0.527066	-33.137535
9.650000	-0.503878	-157.148213	-41.852162	-52.854978	-41.852162	-52.854978	-0.532759	-34.850007
9.700000	-0.511119	-157.951004	-41.745109	-53.094215	-41.745109	-53.094215	-0.538896	-36.546612
9.750000	-0.518504	-158.758425	-41.635968	-53.322509	-41.635968	-53.322509	-0.545428	-38.228311
9.800000	-0.526040	-159.570758	-41.524438	-53.539082	-41.524438	-53.539082	-0.552316	-39.895871
9.850000	-0.533733	-160.388304	-41.410243	-53.743344	-41.410243	-53.743344	-0.559528	-41.549912
9.900000	-0.541594	-161.211386	-41.293131	-53.934831	-41.293131	-53.934831	-0.567040	-43.190934
9.950000	-0.549629	-162.040351	-41.172863	-54.113158	-41.172863	-54.113158	-0.574833	-44.819336
10.000000	-0.557850	-162.875570	-41.049215	-54.277986	-41.049215	-54.277986	-0.582892	-46.435443
