! freq	dB(S11)	phase(S11)	dB(S12)	phase(S12)	
!     	dB(S21)	phase(S21)	dB(S22)	phase(S22)	
!S-par simulation data
#  GHz  S  DB  R 50
0.000000	-0.000000	-0.000000	-359.379986	180.000000	-359.379986	180.000000	-0.000000	0.000000
0.050000	-0.000071	-0.771361	-86.789246	1.964256	-86.789246	1.964256	-0.000071	-0.771327
0.100000	-0.000283	-1.542587	-86.822694	0.727182	-86.822694	0.727182	-0.000283	-1.542521
0.150000	-0.000636	-2.313540	-86.886425	0.188488	-86.886425	0.188488	-0.000635	-2.313440
0.200000	-0.001111	-3.084126	-86.976191	-0.200498	-86.976191	-0.200498	-0.001111	-3.083993
0.250000	-0.001706	-3.854230	-87.093606	-0.545951	-87.093606	-0.545951	-0.001706	-3.854065
0.300000	-0.002420	-4.623698	-87.242944	-0.894718	-87.242944	-0.894718	-0.002420	-4.623500
0.350000	-0.003224	-5.392551	-87.421581	-1.270168	-87.421581	-1.270168	-0.003223	-5.392321
0.400000	-0.004119	-6.160628	-87.636389	-1.695265	-87.636389	-1.695265	-0.004118	-6.160365
0.450000	-0.005085	-6.927941	-87.888057	-2.184008	-87.888057	-2.184008	-0.005084	-6.927647
0.500000	-0.006114	-7.694419	-88.182106	-2.758052	-88.182106	-2.758052	-0.006113	-7.694093
0.550000	-0.007193	-8.460042	-88.523538	-3.439757	-88.523538	-3.439757	-0.007192	-8.459684
0.600000	-0.008311	-9.224791	-88.918884	-4.257603	-88.918884	-4.257603	-0.008311	-9.224402
0.650000	-0.009459	-9.988659	-89.376308	-5.248796	-89.376308	-5.248796	-0.009458	-9.988239
0.700000	-0.010628	-10.751645	-89.906101	-6.463899	-89.906101	-6.463899	-0.010627	-10.751194
0.750000	-0.011809	-11.513751	-90.521334	-7.974270	-90.521334	-7.974270	-0.011808	-11.513270
0.800000	-0.012997	-12.274987	-91.238722	-9.884582	-91.238722	-9.884582	-0.012996	-12.274475
0.850000	-0.014184	-13.035215	-92.087933	-12.541550	-92.087933	-12.541550	-0.014183	-13.034672
0.900000	-0.015368	-13.794556	-93.091928	-16.061095	-93.091928	-16.061095	-0.015367	-13.793983
0.950000	-0.016546	-14.553463	-94.241390	-20.554662	-94.241390	-20.554662	-0.016546	-14.552860
1.000000	-0.017710	-15.311069	-95.615832	-27.970291	-95.615832	-27.970291	-0.017710	-15.310436
1.050000	-0.018870	-16.068392	-97.156045	-37.126762	-97.156045	-37.126762	-0.018869	-16.067728
1.100000	-0.020007	-16.824301	-98.471733	-54.987442	-98.471733	-54.987442	-0.020006	-16.823607
1.150000	-0.021141	-17.580069	-99.782146	-73.317977	-99.782146	-73.317977	-0.021141	-17.579346
1.200000	-0.022247	-18.334302	-98.660168	-96.816917	-98.660168	-96.816917	-0.022247	-18.333548
1.250000	-0.023354	-19.088534	-97.666680	-120.315856	-97.666680	-120.315856	-0.023354	-19.087751
1.300000	-0.024438	-19.841514	-95.416554	-134.257407	-95.416554	-134.257407	-0.024438	-19.840701
1.350000	-0.025508	-20.593690	-93.268483	-143.376037	-93.268483	-143.376037	-0.025508	-20.592848
1.400000	-0.026564	-21.345059	-91.337100	-149.607733	-91.337100	-149.607733	-0.026564	-21.344188
1.450000	-0.027608	-22.095615	-89.615595	-154.104826	-89.615595	-154.104826	-0.027609	-22.094715
1.500000	-0.028641	-22.845351	-88.071839	-157.521282	-88.071839	-157.521282	-0.028641	-22.844423
1.550000	-0.029663	-23.594259	-86.674017	-160.236093	-86.674017	-160.236093	-0.029663	-23.593301
1.600000	-0.030675	-24.342327	-85.395864	-162.478045	-85.395864	-162.478045	-0.030676	-24.341342
1.650000	-0.031679	-25.089546	-84.216692	-164.391357	-84.216692	-164.391357	-0.031679	-25.088532
1.700000	-0.032672	-25.835598	-83.099579	-166.018665	-83.099579	-166.018665	-0.032673	-25.834556
1.750000	-0.033662	-26.581195	-82.082609	-167.547717	-82.082609	-167.547717	-0.033662	-26.580126
1.800000	-0.034645	-27.325705	-81.112798	-168.940855	-81.112798	-168.940855	-0.034646	-27.324609
1.850000	-0.035623	-28.069438	-80.202234	-170.236911	-80.202234	-170.236911	-0.035624	-28.068315
1.900000	-0.036598	-28.812208	-79.334196	-171.470827	-79.334196	-171.470827	-0.036598	-28.811057
1.950000	-0.037568	-29.554013	-78.505149	-172.642602	-78.505149	-172.642602	-0.037569	-29.552836
2.000000	-0.038537	-30.294988	-77.716215	-173.787690	-77.716215	-173.787690	-0.038538	-30.293785
2.050000	-0.039504	-31.034800	-76.951747	-174.895414	-76.951747	-174.895414	-0.039505	-31.033571
2.100000	-0.040470	-31.773925	-76.226233	-175.993682	-76.226233	-175.993682	-0.040471	-31.772669
2.150000	-0.041436	-32.511675	-75.514397	-177.073039	-75.514397	-177.073039	-0.041437	-32.510394
2.200000	-0.042403	-33.248893	-74.841046	-178.150853	-74.841046	-178.150853	-0.042404	-33.247587
2.250000	-0.043371	-33.984514	-74.173146	-179.224037	-74.173146	-179.224037	-0.043372	-33.983183
2.300000	-0.044339	-34.719768	-73.543622	179.701430	-73.543622	179.701430	-0.044340	-34.718413
2.350000	-0.045312	-35.453192	-72.913163	178.620147	-72.913163	178.620147	-0.045313	-35.451811
2.400000	-0.046285	-36.186426	-72.321134	177.537409	-72.321134	177.537409	-0.046286	-36.185022
2.450000	-0.047264	-36.917585	-71.723151	176.438668	-71.723151	176.438668	-0.047265	-36.916157
2.500000	-0.048244	-37.648745	-71.163698	175.339927	-71.163698	175.339927	-0.048245	-37.647292
2.550000	-0.049232	-38.377575	-70.594327	174.217562	-70.594327	174.217562	-0.049233	-38.376100
2.600000	-0.050220	-39.106405	-70.059995	173.095197	-70.059995	173.095197	-0.050222	-39.104907
2.650000	-0.051219	-39.833044	-69.519741	171.947507	-69.519741	171.947507	-0.051220	-39.831522
2.700000	-0.052218	-40.559482	-69.007975	170.797516	-69.007975	170.797516	-0.052219	-40.557938
2.750000	-0.053228	-41.283879	-68.493804	169.622438	-68.493804	169.622438	-0.053229	-41.282312
2.800000	-0.054239	-42.007866	-68.002546	168.442343	-68.002546	168.442343	-0.054241	-42.006277
2.850000	-0.055262	-42.729973	-67.511964	167.238647	-67.511964	167.238647	-0.055263	-42.728362
2.900000	-0.056288	-43.451452	-67.039533	166.027084	-67.039533	166.027084	-0.056289	-43.449819
2.950000	-0.057324	-44.171223	-66.570465	164.794193	-66.570465	164.794193	-0.057326	-44.169569
3.000000	-0.058366	-44.890140	-66.115473	163.550637	-66.115473	163.550637	-0.058367	-44.888465
3.050000	-0.059417	-45.607533	-65.666173	162.288494	-65.666173	162.288494	-0.059419	-45.605836
3.100000	-0.060476	-46.323837	-65.227462	161.013074	-65.227462	161.013074	-0.060477	-46.322119
3.150000	-0.061544	-47.038811	-64.796442	159.722047	-64.796442	159.722047	-0.061545	-47.037072
3.200000	-0.062621	-47.752454	-64.373035	158.415412	-64.373035	158.415412	-0.062622	-47.750695
3.250000	-0.063706	-48.464971	-63.959013	157.096217	-63.959013	157.096217	-0.063708	-48.463192
3.300000	-0.064803	-49.175911	-63.550074	155.759440	-63.550074	155.759440	-0.064805	-49.174111
3.350000	-0.065907	-49.885935	-63.151935	154.413088	-63.151935	154.413088	-0.065909	-49.884115
3.400000	-0.067025	-50.594130	-62.756739	153.047587	-62.756739	153.047587	-0.067027	-50.592290
3.450000	-0.068148	-51.301629	-62.373503	151.675333	-62.373503	151.675333	-0.068150	-51.299769
3.500000	-0.069289	-52.007042	-61.991411	150.282817	-61.991411	150.282817	-0.069291	-52.005163
3.550000	-0.070433	-52.711986	-61.622207	148.886122	-61.622207	148.886122	-0.070435	-52.710087
3.600000	-0.071598	-53.414584	-61.252645	147.468531	-61.252645	147.468531	-0.071600	-53.412666
3.650000	-0.072764	-54.116945	-60.896689	146.049027	-60.896689	146.049027	-0.072766	-54.115007
3.700000	-0.073954	-54.816698	-60.539133	144.608488	-60.539133	144.608488	-0.073956	-54.814741
3.750000	-0.075143	-55.516451	-60.195715	143.167949	-60.195715	143.167949	-0.075145	-55.514475
3.800000	-0.076360	-56.213333	-59.849675	141.706728	-59.849675	141.706728	-0.076361	-56.211339
3.850000	-0.077576	-56.910215	-59.516894	140.245507	-59.516894	140.245507	-0.077578	-56.908202
3.900000	-0.078818	-57.604444	-59.183154	138.767497	-59.183154	138.767497	-0.078820	-57.602412
3.950000	-0.080062	-58.298433	-58.860605	137.287960	-58.860605	137.287960	-0.080064	-58.296382
4.000000	-0.081331	-58.989993	-58.538518	135.795178	-58.538518	135.795178	-0.081333	-58.987923
4.050000	-0.082605	-59.681068	-58.225809	134.299747	-58.225809	134.299747	-0.082607	-59.678980
4.100000	-0.083902	-60.369946	-57.914762	132.794222	-57.914762	132.794222	-0.083904	-60.367839
4.150000	-0.085207	-61.058091	-57.611507	131.285333	-57.611507	131.285333	-0.085209	-61.055966
4.200000	-0.086534	-61.744276	-57.310921	129.769081	-57.310921	129.769081	-0.086536	-61.742132
4.250000	-0.087872	-62.429479	-57.016735	128.249148	-57.016735	128.249148	-0.087874	-62.427317
4.300000	-0.089229	-63.112962	-56.726055	126.724148	-56.726055	126.724148	-0.089231	-63.110781
4.350000	-0.090601	-63.795214	-56.440552	125.195527	-56.440552	125.195527	-0.090603	-63.793015
4.400000	-0.091991	-64.475988	-56.159250	123.663694	-56.159250	123.663694	-0.091993	-64.473771
4.450000	-0.093399	-65.155284	-55.882042	122.128648	-55.882042	122.128648	-0.093401	-65.153048
4.500000	-0.094823	-65.833346	-55.609609	120.591818	-55.609609	120.591818	-0.094825	-65.831092
4.550000	-0.096269	-66.509681	-55.340305	119.052489	-55.340305	119.052489	-0.096271	-66.507409
4.600000	-0.097728	-67.185030	-55.076252	117.512396	-55.076252	117.512396	-0.097729	-67.182739
4.650000	-0.099213	-67.858406	-54.814462	115.970776	-54.814462	115.970776	-0.099215	-67.856097
4.700000	-0.100708	-68.531042	-54.558319	114.429041	-54.558319	114.429041	-0.100710	-68.528715
4.750000	-0.102234	-69.201461	-54.303650	112.886956	-54.303650	112.886956	-0.102236	-69.199115
4.800000	-0.103768	-69.871389	-54.054966	111.345067	-54.054966	111.345067	-0.103770	-69.869024
4.850000	-0.105337	-70.538857	-53.807030	109.804156	-53.807030	109.804156	-0.105339	-70.536474
4.900000	-0.106911	-71.206081	-53.565371	108.263463	-53.565371	108.263463	-0.106912	-71.203680
4.950000	-0.108525	-71.870608	-53.323785	106.725167	-53.323785	106.725167	-0.108526	-71.868188
5.000000	-0.110139	-72.535136	-53.088736	105.186872	-53.088736	105.186872	-0.110140	-72.532697
5.050000	-0.111800	-73.196733	-52.853123	103.652430	-52.853123	103.652430	-0.111801	-73.194276
5.100000	-0.113461	-73.858331	-52.623734	102.117989	-52.623734	102.117989	-0.113462	-73.855855
5.150000	-0.115166	-74.517256	-52.394286	100.588023	-52.394286	100.588023	-0.115167	-74.514761
5.200000	-0.116876	-75.175938	-52.170217	99.058464	-52.170217	99.058464	-0.116877	-75.173425
5.250000	-0.118627	-75.832205	-51.946547	97.533659	-51.946547	97.533659	-0.118628	-75.829673
5.300000	-0.120387	-76.487989	-51.727471	96.009805	-51.727471	96.009805	-0.120388	-76.485438
5.350000	-0.122186	-77.141614	-51.509215	94.490696	-51.509215	94.490696	-0.122187	-77.139044
5.400000	-0.123999	-77.794520	-51.294823	92.973168	-51.294823	92.973168	-0.124000	-77.791930
5.450000	-0.125847	-78.445520	-51.081642	91.460140	-51.081642	91.460140	-0.125848	-78.442912
5.500000	-0.127714	-79.095568	-50.871639	89.949362	-50.871639	89.949362	-0.127714	-79.092941
5.550000	-0.129613	-79.743964	-50.663221	88.442662	-50.663221	88.442662	-0.129613	-79.741317
5.600000	-0.131536	-80.391179	-50.457334	86.938873	-50.457334	86.938873	-0.131536	-80.388513
5.650000	-0.133487	-81.036990	-50.253392	85.438612	-50.253392	85.438612	-0.133488	-81.034305
5.700000	-0.135468	-81.681398	-50.051370	83.941878	-50.051370	83.941878	-0.135468	-81.678693
5.750000	-0.137474	-82.324649	-49.851642	82.448043	-49.851642	82.448043	-0.137474	-82.321924
5.800000	-0.139514	-82.966278	-49.653258	80.958268	-49.653258	80.958268	-0.139514	-82.963534
5.850000	-0.141575	-83.606992	-49.457509	79.470732	-49.457509	79.470732	-0.141575	-83.604227
5.900000	-0.143677	-84.245873	-49.262561	77.987674	-49.262561	77.987674	-0.143677	-84.243088
5.950000	-0.145796	-84.884074	-49.070580	76.506203	-49.070580	76.506203	-0.145795	-84.881270
6.000000	-0.147961	-85.520239	-48.878895	75.029491	-48.878895	75.029491	-0.147960	-85.517414
6.050000	-0.150138	-86.155956	-48.690497	73.553756	-48.690497	73.553756	-0.150137	-86.153111
6.100000	-0.152369	-86.789437	-48.501929	72.082903	-48.501929	72.082903	-0.152368	-86.786572
6.150000	-0.154606	-87.422698	-48.316954	70.612490	-48.316954	70.612490	-0.154604	-87.419812
6.200000	-0.156903	-88.053531	-48.131384	69.146914	-48.131384	69.146914	-0.156902	-88.050625
6.250000	-0.159202	-88.684365	-47.949696	67.681338	-47.949696	67.681338	-0.159200	-88.681438
6.300000	-0.161568	-89.312587	-47.767037	66.220375	-47.767037	66.220375	-0.161566	-89.309639
6.350000	-0.163935	-89.940810	-47.588141	64.759412	-47.588141	64.759412	-0.163933	-89.937841
6.400000	-0.166366	-90.566674	-47.408720	63.302013	-47.408720	63.302013	-0.166364	-90.563684
6.450000	-0.168804	-91.192324	-47.232562	61.844937	-47.232562	61.844937	-0.168801	-91.189312
6.500000	-0.171301	-91.815862	-47.056315	60.390460	-47.056315	60.390460	-0.171298	-91.812829
6.550000	-0.173810	-92.438978	-46.882871	58.936503	-46.882871	58.936503	-0.173807	-92.435923
6.600000	-0.176374	-93.060224	-46.709761	57.484289	-46.709761	57.484289	-0.176371	-93.057147
6.650000	-0.178957	-93.680846	-46.539034	56.032655	-46.539034	56.032655	-0.178953	-93.677748
6.700000	-0.181590	-94.299835	-46.369046	54.582037	-46.369046	54.582037	-0.181586	-94.296714
6.750000	-0.184247	-94.918006	-46.201070	53.131927	-46.201070	53.131927	-0.184244	-94.914862
6.800000	-0.186950	-95.534771	-46.034212	51.682246	-46.034212	51.682246	-0.186946	-95.531605
6.850000	-0.189684	-96.150533	-45.869048	50.232872	-45.869048	50.232872	-0.189680	-96.147344
6.900000	-0.192458	-96.765111	-45.705347	48.783489	-45.705347	48.783489	-0.192453	-96.761899
6.950000	-0.195270	-97.378507	-45.543086	47.334098	-45.543086	47.334098	-0.195265	-97.375272
7.000000	-0.198115	-97.990935	-45.382592	45.884409	-45.382592	45.884409	-0.198110	-97.987676
7.050000	-0.201007	-98.602008	-45.223350	44.434302	-45.223350	44.434302	-0.201002	-98.598725
7.100000	-0.203926	-99.212322	-45.066130	42.983748	-45.066130	42.983748	-0.203920	-99.209015
7.150000	-0.206898	-99.821117	-44.910049	41.532302	-44.910049	41.532302	-0.206892	-99.817786
7.200000	-0.209891	-100.429354	-44.756190	40.080389	-44.756190	40.080389	-0.209884	-100.425998
7.250000	-0.212945	-101.035916	-44.603437	38.627075	-44.603437	38.627075	-0.212938	-101.032536
7.300000	-0.216013	-101.642114	-44.453040	37.173382	-44.453040	37.173382	-0.216006	-101.638708
7.350000	-0.219150	-102.246488	-44.303804	35.717791	-44.303804	35.717791	-0.219142	-102.243057
7.400000	-0.222294	-102.850685	-44.156985	34.261988	-44.156985	34.261988	-0.222287	-102.847227
7.450000	-0.225515	-103.452917	-44.011476	32.803847	-44.011476	32.803847	-0.225507	-103.449433
7.500000	-0.228737	-104.055150	-43.868365	31.345706	-43.868365	31.345706	-0.228729	-104.051640
7.550000	-0.232043	-104.655286	-43.726808	29.884900	-43.726808	29.884900	-0.232034	-104.651748
7.600000	-0.235350	-105.255422	-43.587521	28.424094	-43.587521	28.424094	-0.235341	-105.251857
7.650000	-0.238735	-105.853679	-43.450179	26.960898	-43.450179	26.960898	-0.238725	-105.850086
7.700000	-0.242128	-106.451764	-43.314952	25.497485	-43.314952	25.497485	-0.242118	-106.448143
7.750000	-0.245593	-107.048179	-43.181988	24.032108	-43.181988	24.032108	-0.245582	-107.044529
7.800000	-0.249073	-107.644260	-43.051066	22.566338	-43.051066	22.566338	-0.249062	-107.640581
7.850000	-0.252618	-108.238871	-42.922645	21.099140	-42.922645	21.099140	-0.252607	-108.235162
7.900000	-0.256186	-108.832993	-42.796277	19.631465	-42.796277	19.631465	-0.256175	-108.829253
7.950000	-0.259813	-109.425839	-42.672563	18.162964	-42.672563	18.162964	-0.259801	-109.422068
8.000000	-0.263470	-110.018047	-42.551001	16.694050	-42.551001	16.694050	-0.263458	-110.014245
8.050000	-0.267179	-110.609164	-42.432154	15.224926	-42.432154	15.224926	-0.267166	-110.605330
8.100000	-0.270926	-111.199504	-42.315643	13.755652	-42.315643	13.755652	-0.270913	-111.195637
8.150000	-0.274717	-111.788931	-42.201817	12.286748	-42.201817	12.286748	-0.274704	-111.785031
8.200000	-0.278554	-112.377447	-42.090591	10.818212	-42.090591	10.818212	-0.278540	-112.373513
8.250000	-0.282429	-112.965221	-41.981929	9.350527	-41.981929	9.350527	-0.282415	-112.961252
8.300000	-0.286357	-113.551957	-41.876208	7.884035	-41.876208	7.884035	-0.286342	-113.547952
8.350000	-0.290316	-114.138114	-41.772839	6.418725	-41.772839	6.418725	-0.290301	-114.134074
8.400000	-0.294336	-114.723114	-41.672821	4.955779	-41.672821	4.955779	-0.294320	-114.719037
8.450000	-0.298379	-115.307691	-41.574859	3.494141	-41.574859	3.494141	-0.298363	-115.303576
8.500000	-0.302491	-115.890999	-41.480714	2.036425	-41.480714	2.036425	-0.302474	-115.886845
8.550000	-0.306620	-116.474031	-41.388255	0.579886	-41.388255	0.579886	-0.306603	-116.469838
8.600000	-0.310825	-117.055689	-41.300122	-0.870764	-41.300122	-0.870764	-0.310807	-117.051455
8.650000	-0.315039	-117.637212	-41.213240	-2.320662	-41.213240	-2.320662	-0.315021	-117.632938
8.700000	-0.319338	-118.217261	-41.131220	-3.762284	-41.131220	-3.762284	-0.319319	-118.212944
8.750000	-0.323638	-118.797310	-41.049968	-5.203906	-41.049968	-5.203906	-0.323619	-118.792951
8.800000	-0.328030	-119.375792	-40.974125	-6.634445	-40.974125	-6.634445	-0.328011	-119.371388
8.850000	-0.332425	-119.954274	-40.898939	-8.064984	-40.898939	-8.064984	-0.332405	-119.949825
8.900000	-0.336905	-120.531356	-40.828885	-9.483430	-40.828885	-9.483430	-0.336884	-120.526859
8.950000	-0.341394	-121.108310	-40.759796	-10.900777	-40.759796	-10.900777	-0.341373	-121.103767
9.000000	-0.345961	-121.684024	-40.695480	-12.305358	-40.695480	-12.305358	-0.345939	-121.679432
9.050000	-0.350545	-122.259490	-40.632476	-13.707386	-40.632476	-13.707386	-0.350523	-122.254849
9.100000	-0.355200	-122.833869	-40.573820	-15.096347	-40.573820	-15.096347	-0.355178	-122.829176
9.150000	-0.359880	-123.407885	-40.516848	-16.480952	-40.516848	-16.480952	-0.359858	-123.403140
9.200000	-0.364624	-123.980960	-40.463749	-17.852580	-40.463749	-17.852580	-0.364601	-123.976160
9.250000	-0.369400	-124.553563	-40.412715	-19.217718	-40.412715	-19.217718	-0.369376	-124.548709
9.300000	-0.374233	-125.125363	-40.365045	-20.570364	-40.365045	-20.570364	-0.374208	-125.120453
9.350000	-0.379106	-125.696590	-40.319815	-21.914088	-40.319815	-21.914088	-0.379081	-125.691622
9.400000	-0.384027	-126.267146	-40.277423	-23.246191	-40.277423	-23.246191	-0.384002	-126.262118
9.450000	-0.388998	-126.837031	-40.237828	-24.566676	-40.237828	-24.566676	-0.388972	-126.831942
9.500000	-0.394009	-127.406371	-40.200542	-25.876783	-40.200542	-25.876783	-0.393983	-127.401220
9.550000	-0.399077	-127.974948	-40.166384	-27.172360	-40.166384	-27.172360	-0.399051	-127.969733
9.600000	-0.404179	-128.543100	-40.134014	-28.459136	-40.134014	-28.459136	-0.404153	-128.537820
9.650000	-0.409345	-129.110402	-40.105063	-29.728309	-40.105063	-29.728309	-0.409319	-129.105055
9.700000	-0.414537	-129.677393	-40.077405	-30.990555	-40.077405	-30.990555	-0.414511	-129.671978
9.750000	-0.419802	-130.243452	-40.053413	-32.232018	-40.053413	-32.232018	-0.419776	-130.237965
9.800000	-0.425086	-130.809308	-40.030249	-33.468678	-40.030249	-33.468678	-0.425059	-130.803749
9.850000	-0.430450	-131.374153	-40.010947	-34.681323	-40.010947	-34.681323	-0.430423	-131.368520
9.900000	-0.435826	-131.938899	-39.992050	-35.891491	-39.992050	-35.891491	-0.435799	-131.933191
9.950000	-0.441290	-132.502559	-39.977160	-37.074413	-39.977160	-37.074413	-0.441263	-132.496772
10.000000	-0.446757	-133.066220	-39.962296	-38.257334	-39.962296	-38.257334	-0.446730	-133.060354
