! freq	dB(S11)	phase(S11)	dB(S12)	phase(S12)	
!     	dB(S21)	phase(S21)	dB(S22)	phase(S22)	
!S-par simulation data
#  GHz  S  DB  R 50
0.000000	-84.982501	0.000000	-0.000489	0.000000	-0.000489	0.000000	-84.982501	0.000000
0.050000	-44.100339	-92.047489	-0.004114	-2.486254	-0.004114	-2.486254	-44.094059	-91.862591
0.100000	-38.091653	-94.876407	-0.010326	-4.939281	-0.010326	-4.939281	-38.085387	-94.506089
0.150000	-34.589077	-97.531154	-0.015433	-7.374169	-0.015433	-7.374169	-34.582833	-96.975625
0.200000	-32.117156	-100.141069	-0.019524	-9.804109	-0.019524	-9.804109	-32.110939	-99.400477
0.250000	-30.213462	-102.732251	-0.023216	-12.233175	-0.023216	-12.233175	-30.207275	-101.806745
0.300000	-28.671805	-105.313222	-0.026890	-14.662012	-0.026890	-14.662012	-28.665648	-104.202952
0.350000	-27.383319	-107.887194	-0.030745	-17.090357	-0.030745	-17.090357	-27.377190	-106.592310
0.400000	-26.281344	-110.456100	-0.034856	-19.517842	-0.034856	-19.517842	-26.275238	-108.976726
0.450000	-25.323643	-113.020725	-0.039253	-21.944113	-0.039253	-21.944113	-25.317553	-111.356955
0.500000	-24.482422	-115.581334	-0.043949	-24.368792	-0.043949	-24.368792	-24.476339	-113.733220
0.550000	-23.736380	-118.138306	-0.048918	-26.791680	-0.048918	-26.791680	-23.730297	-116.105847
0.600000	-23.070118	-120.691826	-0.054131	-29.212612	-0.054131	-29.212612	-23.064028	-118.474960
0.650000	-22.472833	-123.241890	-0.059561	-31.631387	-0.059561	-31.631387	-22.466732	-120.840487
0.700000	-21.935639	-125.788571	-0.065167	-34.047905	-0.065167	-34.047905	-21.929522	-123.202430
0.750000	-21.450888	-128.332031	-0.070906	-36.462176	-0.070906	-36.462176	-21.444755	-125.560883
0.800000	-21.013252	-130.872299	-0.076736	-38.874155	-0.076736	-38.874155	-21.007108	-127.915803
0.850000	-20.618938	-133.409354	-0.082615	-41.283788	-0.082615	-41.283788	-20.612789	-130.267084
0.900000	-20.263198	-135.943432	-0.088498	-43.691234	-0.088498	-43.691234	-20.257053	-132.614917
0.950000	-19.942970	-138.474643	-0.094342	-46.096577	-0.094342	-46.096577	-19.936844	-134.959351
1.000000	-19.656913	-141.002971	-0.100100	-48.499833	-0.100100	-48.499833	-19.650825	-137.300287
1.050000	-19.401816	-143.528704	-0.105737	-50.901253	-0.105737	-50.901253	-19.395786	-139.637995
1.100000	-19.175826	-146.052016	-0.111214	-53.301015	-0.111214	-53.301015	-19.169879	-141.972621
1.150000	-18.978321	-148.573013	-0.116490	-55.699273	-0.116490	-55.699273	-18.972487	-144.304220
1.200000	-18.807768	-151.091938	-0.121532	-58.096282	-0.121532	-58.096282	-18.802077	-146.633040
1.250000	-18.662722	-153.609053	-0.126315	-60.492318	-0.126315	-60.492318	-18.657210	-148.959363
1.300000	-18.542882	-156.124556	-0.130808	-62.887630	-0.130808	-62.887630	-18.537585	-151.283398
1.350000	-18.448101	-158.638676	-0.134980	-65.282508	-0.134980	-65.282508	-18.443060	-153.605410
1.400000	-18.377106	-161.151718	-0.138825	-67.677272	-0.138825	-67.677272	-18.372367	-155.925798
1.450000	-18.329734	-163.663930	-0.142326	-70.072225	-0.142326	-70.072225	-18.325342	-158.244901
1.500000	-18.307133	-166.175550	-0.145452	-72.467728	-0.145452	-72.467728	-18.303144	-160.563074
1.550000	-18.308109	-168.686873	-0.148218	-74.864087	-0.148218	-74.864087	-18.304578	-162.880796
1.600000	-18.332906	-171.198141	-0.150619	-77.261629	-0.150619	-77.261629	-18.329896	-165.198516
1.650000	-18.383020	-173.709603	-0.152642	-79.660764	-0.152642	-79.660764	-18.380603	-167.516763
1.700000	-18.458429	-176.221481	-0.154304	-82.061802	-0.154304	-82.061802	-18.456682	-169.836094
1.750000	-18.559527	-178.733956	-0.155619	-84.465042	-0.155619	-84.465042	-18.558539	-172.157081
1.800000	-18.687704	178.752813	-0.156600	-86.870847	-0.156600	-86.870847	-18.687576	-174.480401
1.850000	-18.844242	176.238720	-0.157264	-89.279542	-0.157264	-89.279542	-18.845090	-176.806789
1.900000	-19.031005	173.723717	-0.157633	-91.691480	-0.157633	-91.691480	-19.032967	-179.137113
1.950000	-19.249929	171.207856	-0.157735	-94.106975	-0.157735	-94.106975	-19.253165	178.527663
2.000000	-19.503049	168.691310	-0.157607	-96.526278	-0.157607	-96.526278	-19.507749	176.186508
2.050000	-19.793185	166.174394	-0.157282	-98.949658	-0.157282	-98.949658	-19.799575	173.838166
2.100000	-20.123768	163.657612	-0.156802	-101.377364	-0.156802	-101.377364	-20.132121	171.481132
2.150000	-20.498996	161.141733	-0.156208	-103.809625	-0.156208	-103.809625	-20.509646	169.113571
2.200000	-20.924050	158.627875	-0.155545	-106.246646	-0.155545	-106.246646	-20.937409	166.733183
2.250000	-21.405387	156.117651	-0.154863	-108.688605	-0.154863	-108.688605	-21.421971	164.337008
2.300000	-21.950396	153.613169	-0.154209	-111.135542	-0.154209	-111.135542	-21.970853	161.921684
2.350000	-22.571284	151.118153	-0.153641	-113.587836	-0.153641	-113.587836	-22.596468	159.480752
2.400000	-23.280892	148.637371	-0.153211	-116.045443	-0.153211	-116.045443	-23.311924	157.007166
2.450000	-24.097741	146.178255	-0.152975	-118.508428	-0.152975	-118.508428	-24.136139	154.489770
2.500000	-25.047535	143.752414	-0.152991	-120.976825	-0.152991	-120.976825	-25.095428	151.911369
2.550000	-26.167954	141.379796	-0.153320	-123.450692	-0.153320	-123.450692	-26.228450	149.242453
2.600000	-27.514984	139.094114	-0.154016	-125.929939	-0.154016	-125.929939	-27.592853	146.433481
2.650000	-29.180547	136.961151	-0.155139	-128.414501	-0.155139	-128.414501	-29.283651	143.387025
2.700000	-31.329620	135.126063	-0.156744	-130.904281	-0.156744	-130.904281	-31.472233	139.885978
2.750000	-34.305861	133.983400	-0.158888	-133.399149	-0.158888	-133.399149	-34.517779	135.330591
2.800000	-39.038600	135.098118	-0.161624	-135.898943	-0.161624	-135.898943	-39.394161	127.274173
2.850000	-49.957723	157.767291	-0.165012	-138.403508	-0.165012	-138.403508	-49.908456	86.085943
2.900000	-44.102332	-75.867943	-0.169099	-140.912589	-0.169099	-140.912589	-42.935718	-23.548240
2.950000	-36.521186	-68.670745	-0.173946	-143.425997	-0.173946	-143.425997	-36.037161	-37.377044
3.000000	-32.423390	-68.750416	-0.179563	-145.943274	-0.179563	-145.943274	-32.108387	-43.080665
3.050000	-29.596038	-70.270291	-0.186004	-148.464191	-0.186004	-148.464191	-29.355128	-46.976361
3.100000	-27.429529	-72.310006	-0.193326	-150.988488	-0.193326	-150.988488	-27.229707	-50.200307
3.150000	-25.670491	-74.593212	-0.201554	-153.515777	-0.201554	-153.515777	-25.496529	-53.107898
3.200000	-24.188700	-77.013124	-0.210720	-156.045677	-0.210720	-156.045677	-24.032335	-55.838784
3.250000	-22.908531	-79.518411	-0.220843	-158.577779	-0.220843	-158.577779	-22.764779	-58.460423
3.300000	-21.782028	-82.081734	-0.231943	-161.111675	-0.231943	-161.111675	-21.647646	-61.008596
3.350000	-20.776912	-84.686854	-0.244036	-163.646945	-0.244036	-163.646945	-20.649672	-63.504268
3.400000	-19.870417	-87.323472	-0.257131	-166.183158	-0.257131	-166.183158	-19.748716	-65.960408
3.450000	-19.045867	-89.984750	-0.271237	-168.719874	-0.271237	-168.719874	-18.928510	-68.385295
3.500000	-18.290696	-92.665934	-0.286357	-171.256645	-0.286357	-171.256645	-18.176765	-70.784372
3.550000	-17.595203	-95.363362	-0.302477	-173.793021	-0.302477	-173.793021	-17.483976	-73.161572
3.600000	-16.951698	-98.074439	-0.319588	-176.328558	-0.319588	-176.328558	-16.842594	-75.519408
3.650000	-16.353999	-100.797170	-0.337671	-178.862816	-0.337671	-178.862816	-16.246538	-77.859589
3.700000	-15.797053	-103.529985	-0.356704	178.604641	-0.356704	178.604641	-15.690833	-80.183264
3.750000	-15.276673	-106.271630	-0.376662	176.074237	-0.376662	176.074237	-15.171354	-82.491185
3.800000	-14.789398	-109.021169	-0.397519	173.546417	-0.397519	173.546417	-14.684681	-84.783649
3.850000	-14.332215	-111.777691	-0.419229	171.021556	-0.419229	171.021556	-14.227841	-87.061075
3.900000	-13.902656	-114.540628	-0.441762	168.500096	-0.441762	168.500096	-13.798392	-89.323313
3.950000	-13.498382	-117.309278	-0.465050	165.982304	-0.465050	165.982304	-13.394023	-91.570751
4.000000	-13.117523	-120.083290	-0.489049	163.468556	-0.489049	163.468556	-13.012880	-93.803130
4.050000	-12.758389	-122.862342	-0.513704	160.959165	-0.513704	160.959165	-12.653290	-96.020297
4.100000	-12.419487	-125.646201	-0.538957	158.454419	-0.538957	158.454419	-12.313772	-98.222059
4.150000	-12.099487	-128.434717	-0.564744	155.954576	-0.564744	155.954576	-11.993010	-100.408199
4.200000	-11.797200	-131.227818	-0.590998	153.459863	-0.590998	153.459863	-11.689821	-102.578485
4.250000	-11.511553	-134.025504	-0.617652	150.970475	-0.617652	150.970475	-11.403143	-104.732677
4.300000	-11.241577	-136.827846	-0.644633	148.486573	-0.644633	148.486573	-11.132014	-106.870535
4.350000	-10.986390	-139.634984	-0.671868	146.008279	-0.671868	146.008279	-10.875558	-108.991825
4.400000	-10.745262	-142.447177	-0.699282	143.535744	-0.699282	143.535744	-10.633049	-111.096134
4.450000	-10.517453	-145.264707	-0.726797	141.069015	-0.726797	141.069015	-10.403755	-113.183238
4.500000	-10.302209	-148.087851	-0.754333	138.608036	-0.754333	138.608036	-10.186927	-115.253116
4.550000	-10.098901	-150.917001	-0.781815	136.152774	-0.781815	136.152774	-9.981943	-117.305579
4.600000	-9.906945	-153.752607	-0.809165	133.703153	-0.809165	133.703153	-9.788224	-119.340449
4.650000	-9.725802	-156.595175	-0.836310	131.259061	-0.836310	131.259061	-9.605236	-121.357563
4.700000	-9.554965	-159.445261	-0.863174	128.820343	-0.863174	128.820343	-9.432478	-123.356771
4.750000	-9.393966	-162.303475	-0.889687	126.386810	-0.889687	126.386810	-9.269485	-125.337938
4.800000	-9.242362	-165.170474	-0.915779	123.958232	-0.915779	123.958232	-9.115821	-127.300936
4.850000	-9.099739	-168.046963	-0.941385	121.534349	-0.941385	121.534349	-8.971077	-129.245651
4.900000	-8.965709	-170.933689	-0.966443	119.114864	-0.966443	119.114864	-8.834869	-131.171978
4.950000	-8.839903	-173.831442	-0.990895	116.699452	-0.990895	116.699452	-8.706835	-133.079819
5.000000	-8.721976	-176.741047	-1.014687	114.287763	-1.014687	114.287763	-8.586632	-134.969083
5.050000	-8.611727	-179.663665	-1.037754	111.879482	-1.037754	111.879482	-8.474065	-136.839277
5.100000	-8.508709	177.400065	-1.060068	109.474132	-1.060068	109.474132	-8.368694	-138.690722
5.150000	-8.412625	174.449217	-1.081591	107.071298	-1.081591	107.071298	-8.270228	-140.523341
5.200000	-8.323191	171.482842	-1.102291	104.670552	-1.102291	104.670552	-8.178389	-142.337055
5.250000	-8.240136	168.499968	-1.122140	102.271455	-1.122140	102.271455	-8.092909	-144.131788
5.300000	-8.163200	165.499606	-1.141118	99.873563	-1.141118	99.873563	-8.013536	-145.907462
5.350000	-8.092130	162.480755	-1.159208	97.476429	-1.159208	97.476429	-7.940024	-147.664000
5.400000	-8.026686	159.442405	-1.176400	95.079604	-1.176400	95.079604	-7.872136	-149.401321
5.450000	-7.966631	156.383540	-1.192689	92.682644	-1.192689	92.682644	-7.809644	-151.119346
5.500000	-7.911739	153.303149	-1.208073	90.285108	-1.208073	90.285108	-7.752327	-152.817991
5.550000	-7.861785	150.200225	-1.222558	87.886565	-1.222558	87.886565	-7.699968	-154.497177
5.600000	-7.816552	147.073774	-1.236152	85.486592	-1.236152	85.486592	-7.652355	-156.156819
5.650000	-7.775868	143.922545	-1.248860	83.084755	-1.248860	83.084755	-7.609325	-157.796625
5.700000	-7.739515	140.745556	-1.260701	80.680645	-1.260701	80.680645	-7.570668	-159.416515
5.750000	-7.707236	137.542160	-1.271705	78.273903	-1.271705	78.273903	-7.536134	-161.016631
5.800000	-7.678819	134.311483	-1.281899	75.864165	-1.281899	75.864165	-7.505521	-162.596912
5.850000	-7.654056	131.052698	-1.291311	73.451088	-1.291311	73.451088	-7.478627	-164.157307
5.900000	-7.632735	127.765038	-1.299975	71.034345	-1.299975	71.034345	-7.455252	-165.697779
5.950000	-7.614644	124.447800	-1.307924	68.613634	-1.307924	68.613634	-7.435192	-167.218314
6.000000	-7.599572	121.100356	-1.315197	66.188668	-1.315197	66.188668	-7.418245	-168.718919
6.050000	-7.587302	117.722162	-1.321834	63.759189	-1.321834	63.759189	-7.404206	-170.199629
6.100000	-7.577617	114.312768	-1.327878	61.324955	-1.327878	61.324955	-7.392869	-171.660516
6.150000	-7.570298	110.871831	-1.333373	58.885754	-1.333373	58.885754	-7.384024	-173.101691
6.200000	-7.565123	107.399119	-1.338365	56.441394	-1.338365	56.441394	-7.377461	-174.523311
6.250000	-7.561868	103.894525	-1.342902	53.991710	-1.342902	53.991710	-7.372967	-175.925587
6.300000	-7.560337	100.357388	-1.347026	51.536440	-1.347026	51.536440	-7.370362	-177.308382
6.350000	-7.560263	96.788585	-1.350796	49.075588	-1.350796	49.075588	-7.369384	-178.672457
6.400000	-7.561417	93.188451	-1.354263	46.609069	-1.354263	46.609069	-7.369816	179.981771
6.450000	-7.563571	89.557482	-1.357478	44.136826	-1.357478	44.136826	-7.371439	178.653806
6.500000	-7.566500	85.896346	-1.360493	41.658827	-1.360493	41.658827	-7.374038	177.343067
6.550000	-7.569981	82.205883	-1.363359	39.175071	-1.363359	39.175071	-7.377395	176.048876
6.600000	-7.573795	78.487111	-1.366125	36.685582	-1.366125	36.685582	-7.381300	174.770463
6.650000	-7.577729	74.741232	-1.368842	34.190413	-1.368842	34.190413	-7.385542	173.506954
6.700000	-7.581579	70.969627	-1.371559	31.689646	-1.371559	31.689646	-7.389920	172.257369
6.750000	-7.585149	67.173858	-1.374322	29.183388	-1.374322	29.183388	-7.394238	171.020624
6.800000	-7.588258	63.355663	-1.377176	26.671776	-1.377176	26.671776	-7.398311	169.795528
6.850000	-7.590737	59.516948	-1.380165	24.154970	-1.380165	24.154970	-7.401964	168.580784
6.900000	-7.592421	55.659605	-1.383331	21.633107	-1.383331	21.633107	-7.405028	167.375073
6.950000	-7.593173	51.785928	-1.386712	19.106406	-1.386712	19.106406	-7.407351	166.176843
7.000000	-7.592887	47.898475	-1.390341	16.575159	-1.390341	16.575159	-7.408810	164.984402
7.050000	-7.591473	43.999716	-1.394248	14.039622	-1.394248	14.039622	-7.409295	163.796073
7.100000	-7.588861	40.092220	-1.398457	11.500075	-1.398457	11.500075	-7.408715	162.610106
7.150000	-7.585007	36.178628	-1.402991	8.956813	-1.402991	8.956813	-7.407002	161.424690
7.200000	-7.579892	32.261635	-1.407867	6.410146	-1.407867	6.410146	-7.404110	160.237967
7.250000	-7.573524	28.343963	-1.413095	3.860399	-1.413095	3.860399	-7.400015	159.048043
7.300000	-7.565935	24.428343	-1.418683	1.307905	-1.418683	1.307905	-7.394718	157.853006
7.350000	-7.557185	20.517482	-1.424631	-1.246994	-1.424631	-1.246994	-7.388246	156.650938
7.400000	-7.547357	16.614047	-1.430933	-3.803954	-1.430933	-3.803954	-7.380649	155.439931
7.450000	-7.536560	12.720641	-1.437578	-6.362629	-1.437578	-6.362629	-7.372002	154.218104
7.500000	-7.524928	8.839777	-1.444549	-8.922678	-1.444549	-8.922678	-7.362401	152.983614
7.550000	-7.512602	4.974241	-1.451828	-11.483780	-1.451828	-11.483780	-7.351954	151.734319
7.600000	-7.499777	1.126035	-1.459376	-14.045584	-1.459376	-14.045584	-7.340824	150.468773
7.650000	-7.486649	-2.702708	-1.467156	-16.607783	-1.467156	-16.607783	-7.329175	149.185335
7.700000	-7.473428	-6.510012	-1.475126	-19.170092	-1.475126	-19.170092	-7.317191	147.882449
7.750000	-7.460341	-10.294060	-1.483234	-21.732250	-1.483234	-21.732250	-7.305070	146.558652
7.800000	-7.447628	-14.053211	-1.491426	-24.294027	-1.491426	-24.294027	-7.293028	145.212578
7.850000	-7.435538	-17.786000	-1.499638	-26.855227	-1.499638	-26.855227	-7.281293	143.842964
7.900000	-7.424331	-21.491139	-1.507805	-29.415694	-1.507805	-29.415694	-7.270105	142.448648
7.950000	-7.414274	-25.167523	-1.515853	-31.975317	-1.515853	-31.975317	-7.259717	141.028573
8.000000	-7.405643	-28.814224	-1.523705	-34.534033	-1.523705	-34.534033	-7.250387	139.581780
8.050000	-7.398717	-32.430488	-1.531280	-37.091834	-1.531280	-37.091834	-7.242383	138.107407
8.100000	-7.393780	-36.015732	-1.538494	-39.648770	-1.538494	-39.648770	-7.235979	136.604684
8.150000	-7.391149	-39.569192	-1.545254	-42.204947	-1.545254	-42.204947	-7.231478	135.072604
8.200000	-7.391126	-43.090598	-1.551470	-44.760551	-1.551470	-44.760551	-7.229175	133.510541
8.250000	-7.393981	-46.580186	-1.557057	-47.315841	-1.557057	-47.315841	-7.229339	131.918279
8.300000	-7.400016	-50.037983	-1.561928	-49.871138	-1.561928	-49.871138	-7.232263	130.295344
8.350000	-7.409424	-53.465058	-1.566023	-52.426807	-1.566023	-52.426807	-7.238148	128.642226
8.400000	-7.422739	-56.859738	-1.569208	-54.983347	-1.569208	-54.983347	-7.247495	126.956615
8.450000	-7.440162	-60.223438	-1.571431	-57.541272	-1.571431	-57.541272	-7.260515	125.239174
8.500000	-7.462018	-63.556635	-1.572620	-60.101171	-1.572620	-60.101171	-7.277522	123.489573
8.550000	-7.488639	-66.859891	-1.572711	-62.663690	-1.572711	-62.663690	-7.298841	121.707494
8.600000	-7.520367	-70.133843	-1.571645	-65.229524	-1.571645	-65.229524	-7.324805	119.892619
8.650000	-7.557560	-73.379191	-1.569375	-67.799409	-1.569375	-67.799409	-7.355761	118.044621
8.700000	-7.600590	-76.596690	-1.565858	-70.374112	-1.565858	-70.374112	-7.392071	116.163156
8.750000	-7.649851	-79.787139	-1.561061	-72.954427	-1.561061	-72.954427	-7.434113	114.247852
8.800000	-7.705853	-82.951003	-1.554940	-75.541271	-1.554940	-75.541271	-7.482379	112.297797
8.850000	-7.768953	-86.089528	-1.547493	-78.135386	-1.547493	-78.135386	-7.537216	110.313029
8.900000	-7.839912	-89.202674	-1.538654	-80.737958	-1.538654	-80.737958	-7.599354	108.291653
8.950000	-7.918599	-92.293368	-1.528529	-83.349062	-1.528529	-83.349062	-7.668682	106.236208
9.000000	-8.005957	-95.361207	-1.517038	-85.970039	-1.517038	-85.970039	-7.746106	104.144162
9.050000	-8.102748	-98.406595	-1.504148	-88.601981	-1.504148	-88.601981	-7.832363	102.014095
9.100000	-8.208966	-101.431987	-1.489960	-91.244948	-1.489960	-91.244948	-7.927465	99.848135
9.150000	-8.326558	-104.435331	-1.474280	-93.901581	-1.474280	-93.901581	-8.033296	97.640217
9.200000	-8.454681	-107.420792	-1.457350	-96.570641	-1.457350	-96.570641	-8.149062	95.396225
9.250000	-8.596165	-110.385218	-1.438896	-99.256039	-1.438896	-99.256039	-8.277528	93.107335
9.300000	-8.750195	-113.332385	-1.419170	-101.956352	-1.419170	-101.956352	-8.417920	90.779595
9.350000	-8.919176	-116.260487	-1.398021	-104.674843	-1.398021	-104.674843	-8.572620	88.406907
9.400000	-9.103710	-119.170758	-1.375554	-107.411924	-1.375554	-107.411924	-8.742237	85.990544
9.450000	-9.305056	-122.063402	-1.351824	-110.168873	-1.351824	-110.168873	-8.928035	83.529811
9.500000	-9.525734	-124.936957	-1.326800	-112.948740	-1.326800	-112.948740	-9.132540	81.020396
9.550000	-9.767133	-127.791542	-1.300616	-115.752499	-1.300616	-115.752499	-9.357141	78.462818
9.600000	-10.031476	-130.626138	-1.273376	-118.582054	-1.273376	-118.582054	-9.604055	75.855779
9.650000	-10.321371	-133.439215	-1.245212	-121.439408	-1.245212	-121.439408	-9.875863	73.198069
9.700000	-10.640064	-136.228351	-1.216284	-124.326922	-1.216284	-124.326922	-10.175765	70.488186
9.750000	-10.991639	-138.989860	-1.186794	-127.247388	-1.186794	-127.247388	-10.507753	67.724421
9.800000	-11.380096	-141.720024	-1.157011	-130.202225	-1.157011	-130.202225	-10.875623	64.907773
9.850000	-11.810896	-144.412883	-1.127225	-133.193645	-1.127225	-133.193645	-11.284520	62.038521
9.900000	-12.290812	-147.060212	-1.097777	-136.223841	-1.097777	-136.223841	-11.740699	59.117843
9.950000	-12.828379	-149.650540	-1.069057	-139.294959	-1.069057	-139.294959	-12.251863	56.148225
10.000000	-13.434554	-152.167612	-1.041509	-142.409048	-1.041509	-142.409048	-12.827647	53.134070
