! freq	dB(S11)	phase(S11)	dB(S12)	phase(S12)	
!     	dB(S21)	phase(S21)	dB(S22)	phase(S22)	
!S-par simulation data
#  GHz  S  DB  R 50
0.000000	-0.000000	0.000000	-384.493536	180.000000	-384.493536	180.000000	0.000000	0.000000
0.050000	-0.000072	-0.765390	-88.716779	0.266641	-88.716779	0.266641	-0.000072	-0.765623
0.100000	-0.000288	-1.530642	-88.756893	-0.115308	-88.756893	-0.115308	-0.000288	-1.531107
0.150000	-0.000646	-2.295611	-88.825405	-0.372141	-88.825405	-0.372141	-0.000646	-2.296309
0.200000	-0.001129	-3.060204	-88.921157	-0.619874	-88.921157	-0.619874	-0.001130	-3.061135
0.250000	-0.001733	-3.824304	-89.046378	-0.888120	-89.046378	-0.888120	-0.001734	-3.825466
0.300000	-0.002457	-4.587751	-89.205946	-1.199368	-89.205946	-1.199368	-0.002457	-4.589146
0.350000	-0.003269	-5.350572	-89.397322	-1.561537	-89.397322	-1.561537	-0.003271	-5.352198
0.400000	-0.004173	-6.112602	-89.628241	-1.998565	-89.628241	-1.998565	-0.004175	-6.114460
0.450000	-0.005147	-6.873858	-89.899838	-2.522668	-89.899838	-2.522668	-0.005149	-6.875947
0.500000	-0.006183	-7.634270	-90.218612	-3.159540	-90.218612	-3.159540	-0.006185	-7.636589
0.550000	-0.007267	-8.393820	-90.590653	-3.937073	-90.590653	-3.937073	-0.007269	-8.396369
0.600000	-0.008388	-9.152493	-91.023921	-4.892803	-91.023921	-4.892803	-0.008391	-9.155271
0.650000	-0.009537	-9.910284	-91.528436	-6.077831	-91.528436	-6.077831	-0.009540	-9.913292
0.700000	-0.010704	-10.667196	-92.116893	-7.564209	-92.116893	-7.564209	-0.010707	-10.670432
0.750000	-0.011881	-11.423234	-92.805442	-9.457360	-92.805442	-9.457360	-0.011886	-11.426698
0.800000	-0.013064	-12.178409	-93.614587	-11.917862	-93.614587	-11.917862	-0.013068	-12.182101
0.850000	-0.014243	-12.932589	-94.575852	-15.494004	-94.575852	-15.494004	-0.014249	-12.936509
0.900000	-0.015417	-13.685895	-95.715660	-20.390824	-95.715660	-20.390824	-0.015423	-13.690041
0.950000	-0.016586	-14.438775	-97.007691	-26.858315	-97.007691	-26.858315	-0.016592	-14.443148
1.000000	-0.017738	-15.190377	-98.454042	-38.037819	-98.454042	-38.037819	-0.017744	-15.194976
1.050000	-0.018885	-15.941703	-99.946533	-51.155186	-99.946533	-51.155186	-0.018892	-15.946526
1.100000	-0.020008	-16.691643	-100.383782	-73.961867	-100.383782	-73.961867	-0.020015	-16.696692
1.150000	-0.021128	-17.441447	-100.602150	-96.350637	-100.602150	-96.350637	-0.021136	-17.446720
1.200000	-0.022219	-18.189751	-98.479259	-114.142374	-98.479259	-114.142374	-0.022227	-18.195247
1.250000	-0.023311	-18.938054	-96.774653	-131.934111	-96.774653	-131.934111	-0.023319	-18.943774
1.300000	-0.024379	-19.685133	-94.630574	-141.164623	-94.630574	-141.164623	-0.024388	-19.691076
1.350000	-0.025434	-20.431429	-92.689724	-147.502762	-92.689724	-147.502762	-0.025443	-20.437594
1.400000	-0.026475	-21.176937	-90.951814	-152.086445	-90.951814	-152.086445	-0.026485	-21.183323
1.450000	-0.027504	-21.921651	-89.388089	-155.569397	-89.388089	-155.569397	-0.027514	-21.928258
1.500000	-0.028522	-22.665564	-87.968427	-158.334505	-87.968427	-158.334505	-0.028533	-22.672391
1.550000	-0.029530	-23.408668	-86.667431	-160.614597	-86.667431	-160.614597	-0.029541	-23.415714
1.600000	-0.030528	-24.150951	-85.464877	-162.557134	-85.464877	-162.557134	-0.030539	-24.158217
1.650000	-0.031518	-24.892405	-84.344868	-164.259152	-84.344868	-164.259152	-0.031530	-24.899889
1.700000	-0.032499	-25.632717	-83.273982	-165.747300	-83.273982	-165.747300	-0.032511	-25.640419
1.750000	-0.033477	-26.372584	-82.293304	-167.161525	-82.293304	-167.161525	-0.033489	-26.380504
1.800000	-0.034448	-27.111388	-81.351493	-168.472414	-81.351493	-168.472414	-0.034461	-27.119524
1.850000	-0.035415	-27.849431	-80.462788	-169.709491	-80.462788	-169.709491	-0.035428	-27.857783
1.900000	-0.036379	-28.586531	-79.611203	-170.899786	-79.611203	-170.899786	-0.036392	-28.595098
1.950000	-0.037340	-29.322687	-78.794364	-172.043298	-78.794364	-172.043298	-0.037354	-29.331469
2.000000	-0.038300	-30.058030	-78.014207	-173.167770	-78.014207	-173.167770	-0.038314	-30.067025
2.050000	-0.039258	-30.792233	-77.255287	-174.265585	-77.255287	-174.265585	-0.039272	-30.801442
2.100000	-0.040216	-31.525763	-76.533300	-175.357839	-76.533300	-175.357839	-0.040231	-31.535184
2.150000	-0.041175	-32.257946	-75.822315	-176.438972	-75.822315	-176.438972	-0.041190	-32.267579
2.200000	-0.042134	-32.989607	-75.148830	-177.520510	-75.148830	-177.520510	-0.042149	-32.999452
2.250000	-0.043096	-33.719703	-74.478430	-178.603268	-74.478430	-178.603268	-0.043112	-33.729757
2.300000	-0.044059	-34.449439	-73.846203	-179.688270	-73.846203	-179.688270	-0.044075	-34.459704
2.350000	-0.045026	-35.177381	-73.210855	179.215500	-73.210855	179.215500	-0.045042	-35.187854
2.400000	-0.045994	-35.905137	-72.614322	178.117501	-72.614322	178.117501	-0.046011	-35.915819
2.450000	-0.046970	-36.630858	-72.009778	177.000047	-72.009778	177.000047	-0.046987	-36.641747
2.500000	-0.047945	-37.356579	-71.444586	175.882594	-71.444586	175.882594	-0.047962	-37.367675
2.550000	-0.048930	-38.080017	-70.867529	174.738886	-70.867529	174.738886	-0.048948	-38.091318
2.600000	-0.049915	-38.803454	-70.326433	173.595179	-70.326433	173.595179	-0.049933	-38.814962
2.650000	-0.050911	-39.524742	-69.778014	172.424517	-69.778014	172.424517	-0.050930	-39.536453
2.700000	-0.051908	-40.245835	-69.258837	171.251404	-69.258837	171.251404	-0.051927	-40.257750
2.750000	-0.052916	-40.964924	-68.736323	170.052289	-68.736323	170.052289	-0.052935	-40.977042
2.800000	-0.053926	-41.683612	-68.237315	168.847972	-68.237315	168.847972	-0.053945	-41.695932
2.850000	-0.054947	-42.400456	-67.738449	167.619658	-67.738449	167.619658	-0.054966	-42.412977
2.900000	-0.055972	-43.116685	-67.258186	166.383344	-67.258186	166.383344	-0.055991	-43.129406
2.950000	-0.057007	-43.831238	-66.781080	165.125686	-66.781080	165.125686	-0.057027	-43.844160
3.000000	-0.058047	-44.544954	-66.318393	163.857355	-66.318393	163.857355	-0.058068	-44.558074
3.050000	-0.059098	-45.257175	-65.861447	162.570692	-65.861447	162.570692	-0.059119	-45.270494
3.100000	-0.060156	-45.968328	-65.415361	161.270935	-65.415361	161.270935	-0.060177	-45.981844
3.150000	-0.061223	-46.678177	-64.977203	159.956007	-64.977203	159.956007	-0.061245	-46.691890
3.200000	-0.062299	-47.386722	-64.546894	158.625908	-64.546894	158.625908	-0.062321	-47.400630
3.250000	-0.063384	-48.094161	-64.126333	157.283784	-64.126333	157.283784	-0.063406	-48.108265
3.300000	-0.064480	-48.800053	-63.711091	155.924826	-63.711091	155.924826	-0.064503	-48.814351
3.350000	-0.065583	-49.505049	-63.307078	154.556851	-63.307078	154.556851	-0.065606	-49.519540
3.400000	-0.066700	-50.208249	-62.906277	153.170844	-62.906277	153.170844	-0.066723	-50.222934
3.450000	-0.067822	-50.910768	-62.517880	151.778592	-62.517880	151.778592	-0.067846	-50.925645
3.500000	-0.068961	-51.611241	-62.130956	150.367604	-62.130956	150.367604	-0.068985	-51.626308
3.550000	-0.070104	-52.311253	-61.757331	148.952832	-61.757331	148.952832	-0.070129	-52.326512
3.600000	-0.071267	-53.008965	-61.383760	147.519134	-61.383760	147.519134	-0.071291	-53.024413
3.650000	-0.072431	-53.706445	-61.024137	146.083744	-61.024137	146.083744	-0.072456	-53.722082
3.700000	-0.073618	-54.401366	-60.663419	144.629747	-60.663419	144.629747	-0.073643	-54.417191
3.750000	-0.074805	-55.096288	-60.317086	143.175750	-60.317086	143.175750	-0.074831	-55.112301
3.800000	-0.076018	-55.788393	-59.968736	141.703954	-59.968736	141.703954	-0.076044	-55.804592
3.850000	-0.077231	-56.480498	-59.633819	140.232158	-59.633819	140.232158	-0.077257	-56.496884
3.900000	-0.078468	-57.170000	-59.298558	138.746371	-59.298558	138.746371	-0.078495	-57.186571
3.950000	-0.079708	-57.859266	-58.974640	137.259312	-58.974640	137.259312	-0.079736	-57.876022
4.000000	-0.080972	-58.546150	-58.651768	135.761635	-58.651768	135.761635	-0.081000	-58.563090
4.050000	-0.082241	-59.232558	-58.338425	134.261834	-58.338425	134.261834	-0.082269	-59.249680
4.100000	-0.083532	-59.916809	-58.027266	132.754319	-58.027266	132.754319	-0.083561	-59.934114
4.150000	-0.084831	-60.600341	-57.724062	131.244234	-57.724062	131.244234	-0.084860	-60.617828
4.200000	-0.086151	-61.281949	-57.423966	129.728861	-57.423966	129.728861	-0.086180	-61.299617
4.250000	-0.087481	-61.962593	-57.130452	128.210844	-57.130452	128.210844	-0.087511	-61.980442
4.300000	-0.088831	-62.641548	-56.840788	126.689489	-56.840788	126.689489	-0.088861	-62.659576
4.350000	-0.090194	-63.319295	-56.556502	125.165750	-56.556502	125.165750	-0.090225	-63.337503
4.400000	-0.091575	-63.995590	-56.276660	123.640166	-56.276660	123.640166	-0.091606	-64.013976
4.450000	-0.092974	-64.670433	-56.001129	122.112738	-56.001129	122.112738	-0.093005	-64.688997
4.500000	-0.094387	-65.344064	-55.730517	120.584537	-55.730517	120.584537	-0.094419	-65.362806
4.550000	-0.095822	-66.015999	-55.463256	119.055253	-55.463256	119.055253	-0.095855	-66.034917
4.600000	-0.097270	-66.686964	-55.201300	117.525887	-55.201300	117.525887	-0.097303	-66.706058
4.650000	-0.098744	-67.355990	-54.941822	115.996360	-54.941822	115.996360	-0.098777	-67.375260
4.700000	-0.100227	-68.024289	-54.687969	114.467117	-54.687969	114.467117	-0.100261	-68.043734
4.750000	-0.101741	-68.690408	-54.435782	112.938728	-54.435782	112.938728	-0.101775	-68.710028
4.800000	-0.103261	-69.356044	-54.189499	111.410720	-54.189499	111.410720	-0.103296	-69.375838
4.850000	-0.104817	-70.019261	-53.944115	109.884614	-53.944115	109.884614	-0.104852	-70.039228
4.900000	-0.106376	-70.682238	-53.704889	108.358774	-53.704889	108.358774	-0.106412	-70.702378
4.950000	-0.107976	-71.342561	-53.465829	106.835860	-53.465829	106.835860	-0.108012	-71.362873
5.000000	-0.109576	-72.002885	-53.233172	105.312947	-53.233172	105.312947	-0.109613	-72.023369
5.050000	-0.111221	-72.660325	-52.999968	103.793904	-52.999968	103.793904	-0.111259	-72.680980
5.100000	-0.112867	-73.317765	-52.772861	102.274861	-52.772861	102.274861	-0.112906	-73.338591
5.150000	-0.114557	-73.972573	-52.545616	100.759787	-52.545616	100.759787	-0.114596	-73.993570
5.200000	-0.116251	-74.627142	-52.323640	99.245075	-52.323640	99.245075	-0.116291	-74.648309
5.250000	-0.117987	-75.279332	-52.101905	97.734184	-52.101905	97.734184	-0.118027	-75.300668
5.300000	-0.119731	-75.931046	-51.884659	96.224057	-51.884659	96.224057	-0.119772	-75.952551
5.350000	-0.121514	-76.580632	-51.668018	94.717421	-51.668018	94.717421	-0.121555	-76.602306
5.400000	-0.123311	-77.229508	-51.455123	93.211947	-51.455123	93.211947	-0.123353	-77.251351
5.450000	-0.125144	-77.876506	-51.243195	91.709509	-51.243195	91.709509	-0.125186	-77.898517
5.500000	-0.126994	-78.522566	-51.034300	90.208588	-51.034300	90.208588	-0.127037	-78.544744
5.550000	-0.128878	-79.166995	-50.826735	88.710178	-50.826735	88.710178	-0.128922	-79.189341
5.600000	-0.130786	-79.810259	-50.621519	87.213562	-50.621519	87.213562	-0.130830	-79.832772
5.650000	-0.132722	-80.452139	-50.418001	85.718912	-50.418001	85.718912	-0.132767	-80.474819
5.700000	-0.134689	-81.092634	-50.216175	84.226229	-50.216175	84.226229	-0.134734	-81.115480
5.750000	-0.136680	-81.731985	-50.016425	82.734986	-50.016425	82.734986	-0.136726	-81.754997
5.800000	-0.138707	-82.369736	-49.817735	81.245760	-49.817735	81.245760	-0.138754	-82.392914
5.850000	-0.140755	-83.006583	-49.621506	79.757502	-49.621506	79.757502	-0.140802	-83.029926
5.900000	-0.142845	-83.641619	-49.425735	78.271179	-49.425735	78.271179	-0.142893	-83.665128
5.950000	-0.144951	-84.275985	-49.232815	76.785430	-49.232815	76.785430	-0.145000	-84.299659
6.000000	-0.147106	-84.908337	-49.039785	75.301402	-49.039785	75.301402	-0.147155	-84.932176
6.050000	-0.149272	-85.540248	-48.849994	73.817648	-48.849994	73.817648	-0.149322	-85.564252
6.100000	-0.151494	-86.169948	-48.659569	72.335271	-48.659569	72.335271	-0.151545	-86.194117
6.150000	-0.153722	-86.799431	-48.472761	70.852977	-48.472761	70.852977	-0.153773	-86.823764
6.200000	-0.156013	-87.426514	-48.284844	69.371599	-48.284844	69.371599	-0.156065	-87.451012
6.250000	-0.158304	-88.053597	-48.100907	67.890222	-48.100907	67.890222	-0.158357	-88.078259
6.300000	-0.160666	-88.678098	-47.915445	66.409209	-47.915445	66.409209	-0.160719	-88.702924
6.350000	-0.163028	-89.302599	-47.733861	64.928195	-47.733861	64.928195	-0.163082	-89.327589
6.400000	-0.165456	-89.924768	-47.551280	63.446969	-47.551280	63.446969	-0.165511	-89.949922
6.450000	-0.167891	-90.546724	-47.372039	61.965723	-47.372039	61.965723	-0.167947	-90.572042
6.500000	-0.170388	-91.166591	-47.192333	60.483839	-47.192333	60.483839	-0.170444	-91.192073
6.550000	-0.172897	-91.786041	-47.015467	59.001827	-47.015467	59.001827	-0.172954	-91.811687
6.600000	-0.175463	-92.403640	-46.838658	57.518907	-46.838658	57.518907	-0.175521	-92.429450
6.650000	-0.178049	-93.020623	-46.664242	56.035685	-46.664242	56.035685	-0.178107	-93.046597
6.700000	-0.180686	-93.635989	-46.490385	54.551436	-46.490385	54.551436	-0.180745	-93.662126
6.750000	-0.183349	-94.250545	-46.318530	53.066673	-46.318530	53.066673	-0.183408	-94.276847
6.800000	-0.186058	-94.863711	-46.147708	51.580900	-46.147708	51.580900	-0.186118	-94.890177
6.850000	-0.188799	-95.475883	-45.978569	50.094406	-45.978569	50.094406	-0.188860	-95.502513
6.900000	-0.191581	-96.086885	-45.810892	48.607033	-45.810892	48.607033	-0.191643	-96.113679
6.950000	-0.194403	-96.696715	-45.644657	47.118780	-45.644657	47.118780	-0.194465	-96.723674
7.000000	-0.197258	-97.305587	-45.480260	45.629863	-45.480260	45.629863	-0.197321	-97.332711
7.050000	-0.200161	-97.913119	-45.317153	44.140015	-45.317153	44.140015	-0.200225	-97.940407
7.100000	-0.203091	-98.519899	-45.156191	42.649761	-45.156191	42.649761	-0.203156	-98.547352
7.150000	-0.206076	-99.125175	-44.996468	41.158692	-44.996468	41.158692	-0.206141	-99.152793
7.200000	-0.209081	-99.729898	-44.839118	39.667471	-44.839118	39.667471	-0.209147	-99.757682
7.250000	-0.212148	-100.332963	-44.683061	38.175791	-44.683061	38.175791	-0.212214	-100.360913
7.300000	-0.215229	-100.935667	-44.529513	36.684153	-44.529513	36.684153	-0.215296	-100.963782
7.350000	-0.218378	-101.536564	-44.377427	35.192722	-44.377427	35.192722	-0.218446	-101.564846
7.400000	-0.221535	-102.137285	-44.227885	33.701406	-44.227885	33.701406	-0.221604	-102.165733
7.450000	-0.224767	-102.736059	-44.080089	32.211349	-44.080089	32.211349	-0.224837	-102.764674
7.500000	-0.228001	-103.334833	-43.934767	30.721293	-43.934767	30.721293	-0.228071	-103.363616
7.550000	-0.231315	-103.931528	-43.791591	29.234012	-43.791591	29.234012	-0.231386	-103.960478
7.600000	-0.234631	-104.528222	-43.650738	27.746731	-43.650738	27.746731	-0.234703	-104.557340
7.650000	-0.238021	-105.123049	-43.512481	26.263530	-43.512481	26.263530	-0.238094	-105.152336
7.700000	-0.241419	-105.717707	-43.376422	24.780700	-43.376422	24.780700	-0.241493	-105.747162
7.750000	-0.244884	-106.310702	-43.243304	23.303202	-43.243304	23.303202	-0.244959	-106.340327
7.800000	-0.248364	-106.903365	-43.112361	21.826770	-43.112361	21.826770	-0.248439	-106.933160
7.850000	-0.251903	-107.494563	-42.984586	20.356788	-42.984586	20.356788	-0.251979	-107.524529
7.900000	-0.255464	-108.085273	-42.859066	18.888957	-42.859066	18.888957	-0.255540	-108.115410
7.950000	-0.259076	-108.674707	-42.736826	17.428484	-42.736826	17.428484	-0.259154	-108.705016
8.000000	-0.262715	-109.263504	-42.617017	15.971690	-42.617017	15.971690	-0.262794	-109.293985
8.050000	-0.266400	-109.851207	-42.500478	14.522873	-42.500478	14.522873	-0.266480	-109.881861
8.100000	-0.270117	-110.438129	-42.386639	13.079756	-42.386639	13.079756	-0.270198	-110.468957
8.150000	-0.273872	-111.024131	-42.275948	11.644876	-42.275948	11.644876	-0.273954	-111.055134
8.200000	-0.277665	-111.609215	-42.168303	10.218234	-42.168303	10.218234	-0.277748	-111.640393
8.250000	-0.281489	-112.193547	-42.063576	8.799673	-42.063576	8.799673	-0.281573	-112.224901
8.300000	-0.285355	-112.776826	-41.962309	7.392423	-41.962309	7.392423	-0.285441	-112.808358
8.350000	-0.289246	-113.359515	-41.863633	5.992630	-41.863633	5.992630	-0.289333	-113.391225
8.400000	-0.293184	-113.941023	-41.768883	4.607750	-41.768883	4.607750	-0.293272	-113.972912
8.450000	-0.297140	-114.522095	-41.676316	3.229208	-41.676316	3.229208	-0.297229	-114.554164
8.500000	-0.301146	-115.101860	-41.588173	1.869680	-41.588173	1.869680	-0.301237	-115.134111
8.550000	-0.305165	-115.681339	-41.501740	0.514867	-41.501740	0.514867	-0.305257	-115.713772
8.600000	-0.309237	-116.259388	-41.420243	-0.816376	-41.420243	-0.816376	-0.309330	-116.292005
8.650000	-0.313315	-116.837296	-41.339937	-2.145028	-41.339937	-2.145028	-0.313410	-116.870097
8.700000	-0.317449	-117.413651	-41.265080	-3.445164	-41.265080	-3.445164	-0.317546	-117.446639
8.750000	-0.321586	-117.990006	-41.190863	-4.745300	-41.190863	-4.745300	-0.321684	-118.023181
8.800000	-0.325778	-118.564687	-41.122589	-6.011667	-41.122589	-6.011667	-0.325878	-118.598052
8.850000	-0.329973	-119.139367	-41.054848	-7.278035	-41.054848	-7.278035	-0.330075	-119.172923
8.900000	-0.334217	-119.712527	-40.992604	-8.511198	-40.992604	-8.511198	-0.334321	-119.746275
8.950000	-0.338467	-120.285548	-40.931252	-9.741344	-40.931252	-9.741344	-0.338573	-120.319490
9.000000	-0.342759	-120.857196	-40.874891	-10.939467	-40.874891	-10.939467	-0.342867	-120.891334
9.050000	-0.347061	-121.428569	-40.819801	-12.131187	-40.819801	-12.131187	-0.347171	-121.462905
9.100000	-0.351397	-121.998710	-40.769159	-13.292644	-40.769159	-13.292644	-0.351509	-122.033246
9.150000	-0.355746	-122.568441	-40.720170	-14.444015	-40.720170	-14.444015	-0.355860	-122.603178
9.200000	-0.360123	-123.137078	-40.675065	-15.567406	-40.675065	-15.567406	-0.360240	-123.172020
9.250000	-0.364516	-123.705168	-40.631989	-16.676808	-40.631989	-16.676808	-0.364636	-123.740317
9.300000	-0.368931	-124.272300	-40.592228	-17.760969	-40.592228	-17.760969	-0.369054	-124.307657
9.350000	-0.373363	-124.838746	-40.554855	-18.827100	-40.554855	-18.827100	-0.373489	-124.874315
9.400000	-0.377813	-125.404367	-40.520236	-19.871107	-40.520236	-19.871107	-0.377941	-125.440149
9.450000	-0.382281	-125.969161	-40.488339	-20.892988	-40.488339	-20.892988	-0.382412	-126.005160
9.500000	-0.386762	-126.533261	-40.458656	-21.896158	-40.458656	-21.896158	-0.386897	-126.569479
9.550000	-0.391262	-127.096390	-40.431999	-22.873132	-40.431999	-22.873132	-0.391399	-127.132831
9.600000	-0.395772	-127.658956	-40.407043	-23.835020	-40.407043	-23.835020	-0.395912	-127.695622
9.650000	-0.400299	-128.220400	-40.385385	-24.766736	-40.385385	-24.766736	-0.400443	-128.257295
9.700000	-0.404834	-128.781416	-40.364947	-25.687125	-40.364947	-25.687125	-0.404982	-128.818541
9.750000	-0.409386	-129.341149	-40.348046	-26.573532	-40.348046	-26.573532	-0.409537	-129.378511
9.800000	-0.413944	-129.900593	-40.331922	-27.452424	-40.331922	-27.452424	-0.414099	-129.938193
9.850000	-0.418518	-130.458587	-40.319539	-28.293744	-40.319539	-28.293744	-0.418676	-130.496431
9.900000	-0.423095	-131.016433	-40.307529	-29.131347	-40.307529	-29.131347	-0.423257	-131.054522
9.950000	-0.427688	-131.572653	-40.299432	-29.928058	-40.299432	-29.928058	-0.427854	-131.610994
10.000000	-0.432283	-132.128872	-40.291343	-30.724769	-40.291343	-30.724769	-0.432453	-132.167466
