! freq	dB(S11)	phase(S11)	dB(S12)	phase(S12)	
!     	dB(S21)	phase(S21)	dB(S22)	phase(S22)	
!S-par simulation data
#  GHz  S  DB  R 50
0.000000	0.000000	0.000000	-274.186110	-180.000000	-274.186110	-180.000000	-0.000000	0.000000
0.050000	-0.001159	-1.856512	-102.780606	88.876831	-102.780606	88.876831	-0.000614	-0.997260
0.100000	-0.003961	-3.704471	-96.801834	87.354265	-96.801834	87.354265	-0.002101	-1.990112
0.150000	-0.007251	-5.542435	-93.339873	85.931779	-93.339873	85.931779	-0.003852	-2.977893
0.200000	-0.010357	-7.373031	-90.927927	84.556894	-90.927927	84.556894	-0.005508	-3.962133
0.250000	-0.013163	-9.199665	-89.095636	83.219111	-89.095636	83.219111	-0.007006	-4.944713
0.300000	-0.015690	-11.023575	-87.641561	81.923852	-87.641561	81.923852	-0.008358	-5.926440
0.350000	-0.018020	-12.845400	-86.456704	80.677891	-86.456704	80.677891	-0.009608	-6.907783
0.400000	-0.020222	-14.665204	-85.477348	79.490887	-85.477348	79.490887	-0.010793	-7.888912
0.450000	-0.022346	-16.482559	-84.668891	78.381328	-84.668891	78.381328	-0.011941	-8.869822
0.500000	-0.024432	-18.297337	-83.996385	77.356186	-83.996385	77.356186	-0.013072	-9.850468
0.550000	-0.026500	-20.109170	-83.440800	76.431240	-83.440800	76.431240	-0.014198	-10.830759
0.600000	-0.028561	-21.917681	-82.988674	75.625474	-82.988674	75.625474	-0.015325	-11.810599
0.650000	-0.030624	-23.722508	-82.630384	74.961939	-82.630384	74.961939	-0.016457	-12.789893
0.700000	-0.032690	-25.523363	-82.358016	74.466207	-82.358016	74.466207	-0.017596	-13.768559
0.750000	-0.034764	-27.319528	-82.173290	74.192399	-82.173290	74.192399	-0.018745	-14.746451
0.800000	-0.036843	-29.110860	-82.069225	74.181217	-82.069225	74.181217	-0.019904	-15.723515
0.850000	-0.038927	-30.897123	-82.042079	74.489919	-82.042079	74.489919	-0.021073	-16.699694
0.900000	-0.041015	-32.678056	-82.088946	75.193795	-82.088946	75.193795	-0.022250	-17.674927
0.950000	-0.043104	-34.453385	-82.206514	76.391425	-82.206514	76.391425	-0.023437	-18.649156
1.000000	-0.045192	-36.222871	-82.388696	78.206146	-82.388696	78.206146	-0.024632	-19.622333
1.050000	-0.047276	-37.986292	-82.624478	80.790350	-82.624478	80.790350	-0.025835	-20.594413
1.100000	-0.049355	-39.743441	-82.894135	84.322660	-82.894135	84.322660	-0.027044	-21.565358
1.150000	-0.051425	-41.494124	-83.164030	88.989776	-83.164030	88.989776	-0.028259	-22.535131
1.200000	-0.053485	-43.238161	-83.381238	94.938041	-83.381238	94.938041	-0.029479	-23.503701
1.250000	-0.055533	-44.975385	-83.472326	102.181653	-83.472326	102.181653	-0.030703	-24.471040
1.300000	-0.057567	-46.705484	-83.348076	110.495024	-83.348076	110.495024	-0.031931	-25.437093
1.350000	-0.059586	-48.428464	-82.948671	119.288796	-82.948671	119.288796	-0.033161	-26.401862
1.400000	-0.061588	-50.144190	-82.263491	127.834621	-82.263491	127.834621	-0.034393	-27.365325
1.450000	-0.063572	-51.852540	-81.339086	135.500179	-81.339086	135.500179	-0.035627	-28.327462
1.500000	-0.065539	-53.553401	-80.253261	141.933592	-80.253261	141.933592	-0.036861	-29.288253
1.550000	-0.067487	-55.246668	-79.082927	147.065276	-79.082927	147.065276	-0.038096	-30.247678
1.600000	-0.069416	-56.932247	-77.886588	151.002774	-77.886588	151.002774	-0.039330	-31.205722
1.650000	-0.071326	-58.610052	-76.701945	153.924610	-76.701945	153.924610	-0.040565	-32.162366
1.700000	-0.073217	-60.280007	-75.550427	156.015540	-75.550427	156.015540	-0.041799	-33.117595
1.750000	-0.075090	-61.942043	-74.442690	157.438466	-74.442690	157.438466	-0.043033	-34.071393
1.800000	-0.076945	-63.596100	-73.382902	158.327104	-73.382902	158.327104	-0.044266	-35.023745
1.850000	-0.078783	-65.242126	-72.371564	158.787658	-72.371564	158.787658	-0.045499	-35.974636
1.900000	-0.080602	-66.878929	-71.399115	158.864268	-71.399115	158.864268	-0.046731	-36.923841
1.950000	-0.082407	-68.508675	-70.479716	158.705030	-70.479716	158.705030	-0.047963	-37.871749
2.000000	-0.084197	-70.130281	-69.602088	158.316144	-69.602088	158.316144	-0.049195	-38.818154
2.050000	-0.085973	-71.743724	-68.763372	157.737848	-68.763372	157.737848	-0.050428	-39.763043
2.100000	-0.087737	-73.348992	-67.960792	157.002093	-67.960792	157.002093	-0.051661	-40.706402
2.150000	-0.089488	-74.946077	-67.191733	156.134452	-67.191733	156.134452	-0.052895	-41.648220
2.200000	-0.091229	-76.534977	-66.453778	155.155565	-66.453778	155.155565	-0.054131	-42.588484
2.250000	-0.092960	-78.115700	-65.744713	154.082222	-65.744713	154.082222	-0.055368	-43.527181
2.300000	-0.094683	-79.688258	-65.062521	152.928197	-65.062521	152.928197	-0.056607	-44.464300
2.350000	-0.096398	-81.252669	-64.405373	151.704870	-64.405373	151.704870	-0.057849	-45.399831
2.400000	-0.098108	-82.808958	-63.771606	150.421715	-63.771606	150.421715	-0.059095	-46.333761
2.450000	-0.099812	-84.357156	-63.159714	149.086673	-63.159714	149.086673	-0.060344	-47.266081
2.500000	-0.101513	-85.897299	-62.568329	147.706443	-62.568329	147.706443	-0.061597	-48.196781
2.550000	-0.103211	-87.429082	-61.995408	146.285221	-61.995408	146.285221	-0.062855	-49.125779
2.600000	-0.104908	-88.952905	-61.440721	144.829723	-61.440721	144.829723	-0.064118	-50.053137
2.650000	-0.106605	-90.468819	-60.903220	143.344036	-60.903220	143.344036	-0.065388	-50.978847
2.700000	-0.108303	-91.976883	-60.381947	141.831693	-60.381947	141.831693	-0.066664	-51.902900
2.750000	-0.110004	-93.477158	-59.876025	140.295762	-59.876025	140.295762	-0.067946	-52.825289
2.800000	-0.111707	-94.969712	-59.384651	138.738918	-59.384651	138.738918	-0.069237	-53.746007
2.850000	-0.113415	-96.454615	-58.907082	137.163504	-58.907082	137.163504	-0.070536	-54.665047
2.900000	-0.115128	-97.931944	-58.442638	135.571581	-58.442638	135.571581	-0.071843	-55.582403
2.950000	-0.116847	-99.401777	-57.990687	133.964966	-57.990687	133.964966	-0.073160	-56.498071
3.000000	-0.118574	-100.864198	-57.550648	132.345269	-57.550648	132.345269	-0.074487	-57.412046
3.050000	-0.120308	-102.319293	-57.121978	130.713920	-57.121978	130.713920	-0.075824	-58.324323
3.100000	-0.122053	-103.767152	-56.704176	129.072194	-56.704176	129.072194	-0.077173	-59.234899
3.150000	-0.123807	-105.207868	-56.296774	127.421231	-56.296774	127.421231	-0.078533	-60.143772
3.200000	-0.125572	-106.641537	-55.899336	125.762053	-55.899336	125.762053	-0.079906	-61.050939
3.250000	-0.127349	-108.068259	-55.511454	124.095580	-55.511454	124.095580	-0.081291	-61.956399
3.300000	-0.129138	-109.488135	-55.132748	122.422641	-55.132748	122.422641	-0.082690	-62.860151
3.350000	-0.130941	-110.901270	-54.762859	120.743985	-54.762859	120.743985	-0.084102	-63.762195
3.400000	-0.132758	-112.307772	-54.401454	119.060290	-54.401454	119.060290	-0.085530	-64.662532
3.450000	-0.134590	-113.707748	-54.048217	117.372175	-54.048217	117.372175	-0.086972	-65.561164
3.500000	-0.136438	-115.101310	-53.702851	115.680200	-53.702851	115.680200	-0.088430	-66.458091
3.550000	-0.138302	-116.488572	-53.365076	113.984877	-53.365076	113.984877	-0.089904	-67.353318
3.600000	-0.140183	-117.869649	-53.034630	112.286675	-53.034630	112.286675	-0.091395	-68.246847
3.650000	-0.142082	-119.244657	-52.711261	110.586022	-52.711261	110.586022	-0.092904	-69.138683
3.700000	-0.143998	-120.613716	-52.394735	108.883311	-52.394735	108.883311	-0.094430	-70.028830
3.750000	-0.145934	-121.976945	-52.084827	107.178903	-52.084827	107.178903	-0.095975	-70.917295
3.800000	-0.147890	-123.334224	-51.781143	105.473084	-51.781143	105.473084	-0.097539	-71.804011
3.850000	-0.149865	-124.685928	-51.483684	103.766232	-51.483684	103.766232	-0.099123	-72.689059
3.900000	-0.151861	-126.032182	-51.192256	102.058624	-51.192256	102.058624	-0.100728	-73.572446
3.950000	-0.153878	-127.373112	-50.906676	100.350519	-50.906676	100.350519	-0.102352	-74.454182
4.000000	-0.155917	-128.708843	-50.626767	98.642155	-50.626767	98.642155	-0.103998	-75.334275
4.050000	-0.157977	-130.039502	-50.352364	96.933750	-50.352364	96.933750	-0.105666	-76.212736
4.100000	-0.160059	-131.365217	-50.083305	95.225509	-50.083305	95.225509	-0.107356	-77.089576
4.150000	-0.162164	-132.686116	-49.819441	93.517619	-49.819441	93.517619	-0.109068	-77.964807
4.200000	-0.164292	-134.002329	-49.560623	91.810254	-49.560623	91.810254	-0.110804	-78.838440
4.250000	-0.166443	-135.313986	-49.306714	90.103575	-49.306714	90.103575	-0.112563	-79.710489
4.300000	-0.168618	-136.621216	-49.057580	88.397731	-49.057580	88.397731	-0.114347	-80.580968
4.350000	-0.170817	-137.924150	-48.813093	86.692859	-48.813093	86.692859	-0.116155	-81.449891
4.400000	-0.173039	-139.222920	-48.573129	84.989084	-48.573129	84.989084	-0.117989	-82.317273
4.450000	-0.175287	-140.517656	-48.337573	83.286524	-48.337573	83.286524	-0.119849	-83.183131
4.500000	-0.177558	-141.808491	-48.106310	81.585286	-48.106310	81.585286	-0.121735	-84.047480
4.550000	-0.179855	-143.095556	-47.879231	79.885467	-47.879231	79.885467	-0.123648	-84.910340
4.600000	-0.182177	-144.378983	-47.656234	78.187158	-47.656234	78.187158	-0.125588	-85.771727
4.650000	-0.184523	-145.658904	-47.437216	76.490441	-47.437216	76.490441	-0.127556	-86.631660
4.700000	-0.186895	-146.935452	-47.222083	74.795391	-47.222083	74.795391	-0.129552	-87.490159
4.750000	-0.189292	-148.208758	-47.010741	73.102075	-47.010741	73.102075	-0.131577	-88.347244
4.800000	-0.191715	-149.478955	-46.803100	71.410555	-46.803100	71.410555	-0.133632	-89.202937
4.850000	-0.194163	-150.746175	-46.599075	69.720885	-46.599075	69.720885	-0.135716	-90.057258
4.900000	-0.196637	-152.010550	-46.398583	68.033115	-46.398583	68.033115	-0.137831	-90.910229
4.950000	-0.199136	-153.272212	-46.201544	66.347289	-46.201544	66.347289	-0.139977	-91.761875
5.000000	-0.201661	-154.531293	-46.007881	64.663445	-46.007881	64.663445	-0.142154	-92.612218
5.050000	-0.204212	-155.787825	-45.817483	62.981705	-45.817483	62.981705	-0.144364	-93.461229
5.100000	-0.206789	-157.042051	-45.630322	61.302012	-45.630322	61.302012	-0.146607	-94.308989
5.150000	-0.209391	-158.294102	-45.446331	59.624390	-45.446331	59.624390	-0.148883	-95.155523
5.200000	-0.212018	-159.544110	-45.265441	57.948858	-45.265441	57.948858	-0.151192	-96.000860
5.250000	-0.214670	-160.792206	-45.087591	56.275434	-45.087591	56.275434	-0.153536	-96.845025
5.300000	-0.217347	-162.038519	-44.912717	54.604130	-44.912717	54.604130	-0.155914	-97.688046
5.350000	-0.220048	-163.283181	-44.740762	52.934956	-44.740762	52.934956	-0.158326	-98.529953
5.400000	-0.222774	-164.526321	-44.571669	51.267920	-44.571669	51.267920	-0.160775	-99.370773
5.450000	-0.225525	-165.768069	-44.405383	49.603027	-44.405383	49.603027	-0.163259	-100.210537
5.500000	-0.228299	-167.008554	-44.241853	47.940278	-44.241853	47.940278	-0.165780	-101.049276
5.550000	-0.231097	-168.247906	-44.081027	46.279674	-44.081027	46.279674	-0.168338	-101.887019
5.600000	-0.233919	-169.486252	-43.922859	44.621214	-43.922859	44.621214	-0.170933	-102.723801
5.650000	-0.236763	-170.723721	-43.767302	42.964895	-43.767302	42.964895	-0.173567	-103.559651
5.700000	-0.239631	-171.960442	-43.614312	41.310713	-43.614312	41.310713	-0.176239	-104.394604
5.750000	-0.242520	-173.196540	-43.463848	39.658663	-43.463848	39.658663	-0.178950	-105.228694
5.800000	-0.245432	-174.432144	-43.315868	38.008741	-43.315868	38.008741	-0.181701	-106.061954
5.850000	-0.248365	-175.667380	-43.170335	36.360939	-43.170335	36.360939	-0.184492	-106.894421
5.900000	-0.251320	-176.902375	-43.027212	34.715254	-43.027212	34.715254	-0.187323	-107.726129
5.950000	-0.254295	-178.137253	-42.886465	33.071678	-42.886465	33.071678	-0.190196	-108.557114
6.000000	-0.257290	-179.372141	-42.748060	31.430207	-42.748060	31.430207	-0.193110	-109.387415
6.050000	-0.260305	179.392837	-42.611965	29.790836	-42.611965	29.790836	-0.196067	-110.217068
6.100000	-0.263340	178.157557	-42.478152	28.153563	-42.478152	28.153563	-0.199066	-111.046112
6.150000	-0.266393	176.921895	-42.346592	26.518383	-42.346592	26.518383	-0.202108	-111.874586
6.200000	-0.269464	175.685726	-42.217259	24.885297	-42.217259	24.885297	-0.205195	-112.702529
6.250000	-0.272552	174.448929	-42.090127	23.254306	-42.090127	23.254306	-0.208325	-113.529982
6.300000	-0.275659	173.211343	-41.965190	21.625502	-41.965190	21.625502	-0.211502	-114.356968
6.350000	-0.278782	171.972872	-41.842412	19.998801	-41.842412	19.998801	-0.214725	-115.183550
6.400000	-0.281920	170.733397	-41.721773	18.374208	-41.721773	18.374208	-0.217993	-116.009771
6.450000	-0.285073	169.492796	-41.603254	16.751734	-41.603254	16.751734	-0.221308	-116.835674
6.500000	-0.288241	168.250949	-41.486836	15.131391	-41.486836	15.131391	-0.224670	-117.661301
6.550000	-0.291423	167.007737	-41.372502	13.513193	-41.372502	13.513193	-0.228079	-118.486699
6.600000	-0.294618	165.763040	-41.260237	11.897157	-41.260237	11.897157	-0.231537	-119.311911
6.650000	-0.297825	164.516740	-41.150028	10.283303	-41.150028	10.283303	-0.235043	-120.136985
6.700000	-0.301044	163.268721	-41.041860	8.671655	-41.041860	8.671655	-0.238597	-120.961965
6.750000	-0.304274	162.018863	-40.935722	7.062238	-40.935722	7.062238	-0.242202	-121.786899
6.800000	-0.307514	160.767051	-40.831602	5.455080	-40.831602	5.455080	-0.245857	-122.611836
6.850000	-0.310764	159.513169	-40.729492	3.850211	-40.729492	3.850211	-0.249562	-123.436823
6.900000	-0.314023	158.257101	-40.629382	2.247666	-40.629382	2.247666	-0.253319	-124.261911
6.950000	-0.317289	156.998733	-40.531265	0.647480	-40.531265	0.647480	-0.257127	-125.087148
7.000000	-0.320563	155.737950	-40.435133	-0.950309	-40.435133	-0.950309	-0.260987	-125.912586
7.050000	-0.323844	154.474639	-40.340981	-2.545663	-40.340981	-2.545663	-0.264901	-126.738277
7.100000	-0.327130	153.208687	-40.248803	-4.138542	-40.248803	-4.138542	-0.268868	-127.564271
7.150000	-0.330422	151.939980	-40.158596	-5.728903	-40.158596	-5.728903	-0.272888	-128.390624
7.200000	-0.333718	150.668408	-40.070356	-7.316705	-40.070356	-7.316705	-0.276963	-129.217387
7.250000	-0.337017	149.393859	-39.984080	-8.901909	-39.984080	-8.901909	-0.281093	-130.044616
7.300000	-0.340319	148.116221	-39.899766	-10.484474	-39.899766	-10.484474	-0.285279	-130.872365
7.350000	-0.343623	146.835384	-39.817415	-12.064363	-39.817415	-12.064363	-0.289520	-131.700691
7.400000	-0.346928	145.551238	-39.737024	-13.641544	-39.737024	-13.641544	-0.293818	-132.529651
7.450000	-0.350234	144.263671	-39.658596	-15.215985	-39.658596	-15.215985	-0.298174	-133.359302
7.500000	-0.353539	142.972574	-39.582132	-16.787666	-39.582132	-16.787666	-0.302587	-134.189703
7.550000	-0.356844	141.677672	-39.507692	-18.356450	-39.507692	-18.356450	-0.307060	-135.020950
7.600000	-0.360146	140.379009	-39.435225	-19.922454	-39.435225	-19.922454	-0.311593	-135.853072
7.650000	-0.363446	139.076473	-39.364736	-21.485688	-39.364736	-21.485688	-0.316185	-136.686129
7.700000	-0.366743	137.769952	-39.296228	-23.046176	-39.296228	-23.046176	-0.320837	-137.520183
7.750000	-0.370036	136.459332	-39.229711	-24.603963	-39.229711	-24.603963	-0.325549	-138.355296
7.800000	-0.373324	135.144498	-39.165191	-26.159115	-39.165191	-26.159115	-0.330322	-139.191533
7.850000	-0.376606	133.825333	-39.102678	-27.711728	-39.102678	-27.711728	-0.335157	-140.028958
7.900000	-0.379883	132.501717	-39.042185	-29.261928	-39.042185	-29.261928	-0.340054	-140.867635
7.950000	-0.383152	131.173525	-38.983725	-30.809881	-38.983725	-30.809881	-0.345014	-141.707631
8.000000	-0.386414	129.840630	-38.927316	-32.355801	-38.927316	-32.355801	-0.350037	-142.549013
8.050000	-0.389669	128.502896	-38.872977	-33.899959	-38.872977	-33.899959	-0.355123	-143.391849
8.100000	-0.392914	127.160183	-38.820733	-35.442691	-38.820733	-35.442691	-0.360274	-144.236208
8.150000	-0.396151	125.812339	-38.770612	-36.984419	-38.770612	-36.984419	-0.365491	-145.082159
8.200000	-0.399378	124.459202	-38.722650	-38.525660	-38.722650	-38.525660	-0.370773	-145.929772
8.250000	-0.402595	123.100595	-38.676889	-40.067053	-38.676889	-40.067053	-0.376121	-146.779120
8.300000	-0.405802	121.736322	-38.633380	-41.609384	-38.633380	-41.609384	-0.381535	-147.630274
8.350000	-0.408998	120.366045	-38.592230	-43.153690	-38.592230	-43.153690	-0.387019	-148.483346
8.400000	-0.412186	118.990024	-38.553333	-44.700860	-38.553333	-44.700860	-0.392567	-149.338249
8.450000	-0.415364	117.607777	-38.516854	-46.252261	-38.516854	-46.252261	-0.398182	-150.195123
8.500000	-0.418533	116.217853	-38.483324	-47.810911	-38.483324	-47.810911	-0.403877	-151.054390
8.550000	-0.421696	114.820729	-38.452583	-49.378615	-38.452583	-49.378615	-0.409641	-151.915846
8.600000	-0.424858	113.416084	-38.424770	-50.958057	-38.424770	-50.958057	-0.415476	-152.779516
8.650000	-0.428023	112.003354	-38.400129	-52.552762	-38.400129	-52.552762	-0.421382	-153.645470
8.700000	-0.431201	110.581843	-38.378977	-54.167165	-38.378977	-54.167165	-0.427359	-154.513778
8.750000	-0.434403	109.150691	-38.361726	-55.806874	-38.361726	-55.806874	-0.433410	-155.384511
8.800000	-0.437650	107.708813	-38.348912	-57.479013	-38.348912	-57.479013	-0.439536	-156.257737
8.850000	-0.440981	106.253382	-38.341899	-59.198576	-38.341899	-59.198576	-0.445746	-157.133786
8.900000	-0.444466	104.781797	-38.342149	-60.983498	-38.342149	-60.983498	-0.452041	-158.012713
8.950000	-0.448199	103.292014	-38.351057	-62.851185	-38.351057	-62.851185	-0.458419	-158.894348
9.000000	-0.452356	101.779579	-38.371454	-64.831993	-38.371454	-64.831993	-0.464883	-159.778731
9.050000	-0.457073	100.243225	-38.404721	-66.940127	-38.404721	-66.940127	-0.471426	-160.665522
9.100000	-0.463197	98.662573	-38.464094	-69.302651	-38.464094	-69.302651	-0.478082	-161.555581
9.150000	-0.471731	97.026768	-38.560238	-72.003772	-38.560238	-72.003772	-0.484844	-162.448340
9.200000	-0.485131	95.307994	-38.720069	-75.241464	-38.720069	-75.241464	-0.491722	-163.343654
9.250000	-0.510874	93.443903	-39.018664	-79.479411	-39.018664	-79.479411	-0.498729	-164.241132
9.300000	-0.565390	91.360544	-39.612380	-85.367320	-39.612380	-85.367320	-0.505818	-165.139468
9.350000	-0.714506	88.923771	-41.176470	-94.594932	-41.176470	-94.594932	-0.512747	-166.036148
9.400000	-1.171013	86.903515	-47.659684	-101.117038	-47.659684	-101.117038	-0.518119	-166.927716
9.450000	-1.578218	90.100939	-43.738168	-14.657001	-43.738168	-14.657001	-0.518900	-167.837870
9.500000	-1.088153	91.248796	-38.808752	-36.052319	-38.808752	-36.052319	-0.523253	-168.795915
9.550000	-0.808955	89.429812	-37.910997	-49.119929	-37.910997	-49.119929	-0.532275	-169.740226
9.600000	-0.693663	87.451808	-37.688734	-56.465719	-37.688734	-56.465719	-0.541105	-170.674271
9.650000	-0.639377	85.602451	-37.625549	-61.247292	-37.625549	-61.247292	-0.549418	-171.608313
9.700000	-0.610493	83.855410	-37.609984	-64.753293	-37.609984	-64.753293	-0.557448	-172.545439
9.750000	-0.594202	82.176821	-37.611537	-67.525763	-37.611537	-67.525763	-0.565343	-173.486721
9.800000	-0.584450	80.540663	-37.619391	-69.867038	-37.619391	-69.867038	-0.573187	-174.432371
9.850000	-0.578820	78.934129	-37.630082	-71.908384	-37.630082	-71.908384	-0.581020	-175.382698
9.900000	-0.575701	77.346858	-37.641970	-73.749133	-37.641970	-73.749133	-0.588870	-176.337671
9.950000	-0.574454	75.774301	-37.654543	-75.427870	-37.654543	-75.427870	-0.596755	-177.297892
10.000000	-0.574339	74.210540	-37.667509	-77.001543	-37.667509	-77.001543	-0.604679	-178.262706
