! freq	dB(S11)	phase(S11)	dB(S12)	phase(S12)	
!     	dB(S21)	phase(S21)	dB(S22)	phase(S22)	
!S-par simulation data
#  GHz  S  DB  R 50
0.000000	-0.000000	0.000000	-350.288488	180.000000	-350.288488	180.000000	-0.000000	0.000000
0.050000	-0.001385	-2.248665	-101.224028	88.464716	-101.224028	88.464716	-0.000522	-0.935592
0.100000	-0.004829	-4.487645	-95.238637	86.935561	-95.238637	86.935561	-0.001893	-1.870007
0.150000	-0.009029	-6.714480	-91.775729	85.418823	-91.775729	85.418823	-0.003711	-2.802181
0.200000	-0.013142	-8.931961	-89.357994	83.920400	-89.357994	83.920400	-0.005629	-3.731703
0.250000	-0.016861	-11.142996	-87.525431	82.447724	-87.525431	82.447724	-0.007443	-4.658667
0.300000	-0.020172	-13.349554	-86.073441	81.008998	-86.073441	81.008998	-0.009063	-5.583578
0.350000	-0.023169	-15.552556	-84.890523	79.611469	-84.890523	79.611469	-0.010485	-6.507055
0.400000	-0.025935	-17.752010	-83.912500	78.264743	-83.912500	78.264743	-0.011729	-7.429518
0.450000	-0.028535	-19.947382	-83.101457	76.982945	-83.101457	76.982945	-0.012825	-8.351237
0.500000	-0.031031	-22.138341	-82.426137	75.775984	-82.426137	75.775984	-0.013816	-9.272433
0.550000	-0.033458	-24.324317	-81.867477	74.658740	-81.867477	74.658740	-0.014734	-10.193192
0.600000	-0.035842	-26.504441	-81.415525	73.655056	-81.415525	73.655056	-0.015604	-11.113529
0.650000	-0.038203	-28.678325	-81.057989	72.784091	-81.057989	72.784091	-0.016450	-12.033448
0.700000	-0.040553	-30.845494	-80.787261	72.071605	-80.787261	72.071605	-0.017292	-12.952918
0.750000	-0.042902	-33.005212	-80.600880	71.557933	-80.600880	71.557933	-0.018144	-13.871868
0.800000	-0.045254	-35.156995	-80.495257	71.287777	-80.495257	71.287777	-0.019016	-14.790231
0.850000	-0.047612	-37.300480	-80.466948	71.314679	-80.466948	71.314679	-0.019918	-15.707937
0.900000	-0.049977	-39.435268	-80.513554	71.709026	-80.513554	71.709026	-0.020855	-16.624910
0.950000	-0.052349	-41.560932	-80.632610	72.563184	-80.632610	72.563184	-0.021830	-17.541067
1.000000	-0.054725	-43.677107	-80.819451	73.993497	-80.819451	73.993497	-0.022845	-18.456328
1.050000	-0.057104	-45.783456	-81.065373	76.145682	-81.065373	76.145682	-0.023900	-19.370616
1.100000	-0.059483	-47.879666	-81.354247	79.195161	-81.354247	79.195161	-0.024993	-20.283859
1.150000	-0.061858	-49.965453	-81.657591	83.335665	-81.657591	83.335665	-0.026122	-21.195989
1.200000	-0.064226	-52.040555	-81.928662	88.742166	-81.928662	88.742166	-0.027283	-22.106948
1.250000	-0.066584	-54.104737	-82.098796	95.491294	-82.098796	95.491294	-0.028471	-23.016681
1.300000	-0.068929	-56.157538	-82.077529	103.456129	-82.077529	103.456129	-0.029682	-23.925114
1.350000	-0.071257	-58.199007	-81.791804	112.127806	-81.791804	112.127806	-0.030912	-24.832235
1.400000	-0.073566	-60.228977	-81.211443	120.785227	-81.211443	120.785227	-0.032155	-25.738013
1.450000	-0.075852	-62.247300	-80.367950	128.719489	-80.367950	128.719489	-0.033406	-26.642420
1.500000	-0.078114	-64.253852	-79.335614	135.473882	-79.335614	135.473882	-0.034663	-27.545437
1.550000	-0.080350	-66.248525	-78.196607	140.901721	-78.196607	140.901721	-0.035921	-28.447045
1.600000	-0.082558	-68.231233	-77.017253	145.075746	-77.017253	145.075746	-0.037177	-29.347230
1.650000	-0.084737	-70.201906	-75.841827	148.169329	-75.841827	148.169329	-0.038430	-30.245982
1.700000	-0.086885	-72.160492	-74.696135	150.375827	-74.696135	150.375827	-0.039676	-31.143290
1.750000	-0.089002	-74.106957	-73.593382	151.870553	-73.593382	151.870553	-0.040915	-32.039144
1.800000	-0.091087	-76.041282	-72.539061	152.798997	-72.539061	152.798997	-0.042145	-32.933537
1.850000	-0.093141	-77.963464	-71.534269	153.277081	-71.534269	153.277081	-0.043367	-33.826460
1.900000	-0.095163	-79.873383	-70.577145	153.392462	-70.577145	153.392462	-0.044579	-34.717888
1.950000	-0.097153	-81.771065	-69.665448	153.217652	-69.665448	153.217652	-0.045783	-35.607810
2.000000	-0.099114	-83.656683	-68.796823	152.810765	-68.796823	152.810765	-0.046978	-36.496232
2.050000	-0.101045	-85.530289	-67.968127	152.214325	-67.968127	152.214325	-0.048165	-37.383145
2.100000	-0.102947	-87.391948	-67.176294	151.461853	-67.176294	151.461853	-0.049345	-38.268535
2.150000	-0.104823	-89.241737	-66.418435	150.579918	-66.418435	150.579918	-0.050519	-39.152391
2.200000	-0.106673	-91.079743	-65.691872	149.589674	-65.691872	149.589674	-0.051687	-40.034700
2.250000	-0.108500	-92.906063	-64.994155	148.508027	-64.994155	148.508027	-0.052852	-40.915447
2.300000	-0.110304	-94.720805	-64.323060	147.348527	-64.323060	147.348527	-0.054013	-41.794619
2.350000	-0.112088	-96.524085	-63.676583	146.122051	-63.676583	146.122051	-0.055172	-42.672202
2.400000	-0.113853	-98.316028	-63.052924	144.837343	-63.052924	144.837343	-0.056331	-43.548180
2.450000	-0.115602	-100.096768	-62.450476	143.501438	-62.450476	143.501438	-0.057489	-44.422540
2.500000	-0.117336	-101.866445	-61.867813	142.120016	-61.867813	142.120016	-0.058648	-45.295265
2.550000	-0.119058	-103.624974	-61.303284	140.696886	-61.303284	140.696886	-0.059810	-46.166306
2.600000	-0.120769	-105.372751	-60.756225	139.236776	-60.756225	139.236776	-0.060974	-47.035682
2.650000	-0.122472	-107.109937	-60.225667	137.742822	-60.225667	137.742822	-0.062143	-47.903381
2.700000	-0.124168	-108.836699	-59.710764	136.217729	-59.710764	136.217729	-0.063316	-48.769386
2.750000	-0.125860	-110.552659	-59.210033	134.662431	-59.210033	134.662431	-0.064496	-49.633592
2.800000	-0.127551	-112.258999	-58.724240	133.081966	-58.724240	133.081966	-0.065682	-50.496151
2.850000	-0.129241	-113.955451	-58.252173	131.477187	-58.252173	131.477187	-0.066875	-51.356978
2.900000	-0.130933	-115.642203	-57.793324	129.850192	-57.793324	129.850192	-0.068076	-52.216059
2.950000	-0.132628	-117.319445	-57.347228	128.203073	-57.347228	128.203073	-0.069286	-53.073382
3.000000	-0.134329	-118.987370	-56.913454	126.537924	-56.913454	126.537924	-0.070506	-53.928936
3.050000	-0.136037	-120.646176	-56.491590	124.856838	-56.491590	124.856838	-0.071735	-54.782711
3.100000	-0.137754	-122.296063	-56.081240	123.161887	-56.081240	123.161887	-0.072975	-55.634695
3.150000	-0.139481	-123.937233	-55.682012	121.455096	-55.682012	121.455096	-0.074227	-56.484880
3.200000	-0.141221	-125.569892	-55.293516	119.738415	-55.293516	119.738415	-0.075490	-57.333257
3.250000	-0.142974	-127.194247	-54.915364	118.013690	-54.915364	118.013690	-0.076766	-58.179818
3.300000	-0.144742	-128.810507	-54.547170	116.282641	-54.547170	116.282641	-0.078054	-59.024554
3.350000	-0.146526	-130.418884	-54.188547	114.546842	-54.188547	114.546842	-0.079356	-59.867459
3.400000	-0.148328	-132.019589	-53.839113	112.807706	-53.839113	112.807706	-0.080672	-60.708526
3.450000	-0.150148	-133.612835	-53.498491	111.066481	-53.498491	111.066481	-0.082002	-61.547751
3.500000	-0.151988	-135.198839	-53.166311	109.324249	-53.166311	109.324249	-0.083346	-62.385128
3.550000	-0.153849	-136.777815	-52.842216	107.581927	-52.842216	107.581927	-0.084706	-63.220653
3.600000	-0.155732	-138.349979	-52.525859	105.840281	-52.525859	105.840281	-0.086082	-64.054322
3.650000	-0.157638	-139.915548	-52.216909	104.099934	-52.216909	104.099934	-0.087474	-64.886133
3.700000	-0.159567	-141.474741	-51.915050	102.361378	-51.915050	102.361378	-0.088882	-65.716084
3.750000	-0.161520	-143.027773	-51.619980	100.624989	-51.619980	100.624989	-0.090307	-66.544173
3.800000	-0.163499	-144.574616	-51.331282	98.891160	-51.331282	98.891160	-0.091750	-67.370318
3.850000	-0.165503	-146.115753	-51.048839	97.159972	-51.048839	97.159972	-0.093211	-68.194600
3.900000	-0.167533	-147.651404	-50.772400	95.431534	-50.772400	95.431534	-0.094690	-69.017020
3.950000	-0.169590	-149.181785	-50.501734	93.705894	-50.501734	93.705894	-0.096188	-69.837579
4.000000	-0.171674	-150.707113	-50.236623	91.983053	-50.236623	91.983053	-0.097704	-70.656279
4.050000	-0.173784	-152.227605	-49.976868	90.262973	-49.976868	90.262973	-0.099240	-71.473122
4.100000	-0.175922	-153.743477	-49.722282	88.545589	-49.722282	88.545589	-0.100796	-72.288112
4.150000	-0.178088	-155.254944	-49.472694	86.830814	-49.472694	86.830814	-0.102372	-73.101252
4.200000	-0.180281	-156.762222	-49.227946	85.118548	-49.227946	85.118548	-0.103969	-73.912547
4.250000	-0.182501	-158.265524	-48.987891	83.408681	-48.987891	83.408681	-0.105586	-74.722002
4.300000	-0.184750	-159.765064	-48.752396	81.701100	-48.752396	81.701100	-0.107225	-75.529622
4.350000	-0.187026	-161.261054	-48.521336	79.995693	-48.521336	79.995693	-0.108885	-76.335414
4.400000	-0.189330	-162.753707	-48.294598	78.292353	-48.294598	78.292353	-0.110568	-77.139384
4.450000	-0.191662	-164.243231	-48.072075	76.590978	-48.072075	76.590978	-0.112273	-77.941539
4.500000	-0.194021	-165.729838	-47.853672	74.891476	-47.853672	74.891476	-0.114001	-78.741889
4.550000	-0.196407	-167.213736	-47.639298	73.193768	-47.639298	73.193768	-0.115753	-79.540440
4.600000	-0.198821	-168.695131	-47.428872	71.497785	-47.428872	71.497785	-0.117528	-80.337202
4.650000	-0.201261	-170.174230	-47.222317	69.803475	-47.222317	69.803475	-0.119327	-81.132185
4.700000	-0.203728	-171.651239	-47.019562	68.110797	-47.019562	68.110797	-0.121151	-81.925398
4.750000	-0.206221	-173.126361	-46.820541	66.419729	-46.820541	66.419729	-0.123000	-82.716853
4.800000	-0.208739	-174.599799	-46.625193	64.730262	-46.625193	64.730262	-0.124875	-83.506560
4.850000	-0.211283	-176.071754	-46.433460	63.042404	-46.433460	63.042404	-0.126775	-84.294531
4.900000	-0.213853	-177.542425	-46.245289	61.356178	-46.245289	61.356178	-0.128701	-85.080778
4.950000	-0.216446	-179.012012	-46.060628	59.671621	-46.060628	59.671621	-0.130654	-85.865314
5.000000	-0.219064	179.519288	-45.879429	57.988786	-45.879429	57.988786	-0.132635	-86.648151
5.050000	-0.221707	178.051301	-45.701637	56.307822	-45.701637	56.307822	-0.134644	-87.429232
5.100000	-0.224373	176.583793	-45.527224	54.628735	-45.527224	54.628735	-0.136681	-88.208642
5.150000	-0.227061	175.116573	-45.356148	52.951621	-45.356148	52.951621	-0.138746	-88.986398
5.200000	-0.229772	173.649448	-45.188367	51.276584	-45.188367	51.276584	-0.140841	-89.762515
5.250000	-0.232504	172.182231	-45.023839	49.603741	-45.023839	49.603741	-0.142964	-90.537006
5.300000	-0.235258	170.714731	-44.862524	47.933218	-44.862524	47.933218	-0.145118	-91.309890
5.350000	-0.238032	169.246765	-44.704382	46.265149	-44.704382	46.265149	-0.147302	-92.081181
5.400000	-0.240826	167.778145	-44.549375	44.599674	-44.549375	44.599674	-0.149516	-92.850896
5.450000	-0.243639	166.308691	-44.397464	42.936942	-44.397464	42.936942	-0.151761	-93.619053
5.500000	-0.246472	164.838219	-44.248608	41.277102	-44.248608	41.277102	-0.154038	-94.385669
5.550000	-0.249323	163.366552	-44.102771	39.620313	-44.102771	39.620313	-0.156347	-95.150763
5.600000	-0.252192	161.893510	-43.959911	37.966730	-43.959911	37.966730	-0.158688	-95.914352
5.650000	-0.255079	160.418918	-43.819992	36.316515	-43.819992	36.316515	-0.161062	-96.676454
5.700000	-0.257982	158.942602	-43.682972	34.669828	-43.682972	34.669828	-0.163470	-97.437091
5.750000	-0.260902	157.464389	-43.548814	33.026827	-43.548814	33.026827	-0.165911	-98.196280
5.800000	-0.263838	155.984109	-43.417478	31.387671	-43.417478	31.387671	-0.168387	-98.954041
5.850000	-0.266789	154.501594	-43.288924	29.752515	-43.288924	29.752515	-0.170897	-99.710395
5.900000	-0.269756	153.016677	-43.163114	28.121513	-43.163114	28.121513	-0.173442	-100.465363
5.950000	-0.272737	151.529193	-43.040007	26.494812	-43.040007	26.494812	-0.176022	-101.218966
6.000000	-0.275732	150.038980	-42.919564	24.872558	-42.919564	24.872558	-0.178639	-101.971224
6.050000	-0.278741	148.545879	-42.801747	23.254889	-42.801747	23.254889	-0.181292	-102.722159
6.100000	-0.281763	147.049731	-42.686517	21.641940	-42.686517	21.641940	-0.183982	-103.471794
6.150000	-0.284798	145.550379	-42.573836	20.033841	-42.573836	20.033841	-0.186710	-104.220150
6.200000	-0.287847	144.047671	-42.463665	18.430716	-42.463665	18.430716	-0.189475	-104.967251
6.250000	-0.290908	142.541454	-42.355968	16.832682	-42.355968	16.832682	-0.192278	-105.713120
6.300000	-0.293981	141.031414	-42.250759	15.240084	-42.250759	15.240084	-0.195121	-106.457727
6.350000	-0.297067	139.517558	-42.147955	13.652809	-42.147955	13.652809	-0.198004	-107.201152
6.400000	-0.300165	137.999740	-42.047520	12.070960	-42.047520	12.070960	-0.200926	-107.943417
6.450000	-0.303275	136.477819	-41.949422	10.494636	-41.949422	10.494636	-0.203888	-108.684548
6.500000	-0.306396	134.951658	-41.853629	8.923935	-41.853629	8.923935	-0.206891	-109.424568
6.550000	-0.309530	133.421118	-41.760109	7.358951	-41.760109	7.358951	-0.209934	-110.163503
6.600000	-0.312676	131.886066	-41.668833	5.799777	-41.668833	5.799777	-0.213018	-110.901379
6.650000	-0.315833	130.346372	-41.579774	4.246505	-41.579774	4.246505	-0.216144	-111.638220
6.700000	-0.319003	128.801906	-41.492905	2.699231	-41.492905	2.699231	-0.219312	-112.374053
6.750000	-0.322186	127.252543	-41.408201	1.158049	-41.408201	1.158049	-0.222523	-113.108905
6.800000	-0.325381	125.698160	-41.325639	-0.376941	-41.325639	-0.376941	-0.225776	-113.842802
6.850000	-0.328590	124.138637	-41.245197	-1.905634	-41.245197	-1.905634	-0.229073	-114.575770
6.900000	-0.331812	122.573855	-41.166853	-3.427921	-41.166853	-3.427921	-0.232413	-115.307837
6.950000	-0.335049	121.003701	-41.090591	-4.943684	-41.090591	-4.943684	-0.235797	-116.039031
7.000000	-0.338300	119.428064	-41.016391	-6.452798	-41.016391	-6.452798	-0.239226	-116.769379
7.050000	-0.341567	117.846833	-40.944237	-7.955125	-40.944237	-7.955125	-0.242699	-117.498910
7.100000	-0.344851	116.259904	-40.874113	-9.450518	-40.874113	-9.450518	-0.246218	-118.227653
7.150000	-0.348152	114.667173	-40.806006	-10.938816	-40.806006	-10.938816	-0.249782	-118.955635
7.200000	-0.351471	113.068540	-40.739901	-12.419845	-40.739901	-12.419845	-0.253391	-119.682886
7.250000	-0.354810	111.463909	-40.675784	-13.893415	-40.675784	-13.893415	-0.257048	-120.409436
7.300000	-0.358169	109.853184	-40.613643	-15.359321	-40.613643	-15.359321	-0.260750	-121.135315
7.350000	-0.361551	108.236276	-40.553465	-16.817339	-40.553465	-16.817339	-0.264500	-121.860552
7.400000	-0.364955	106.613094	-40.495235	-18.267229	-40.495235	-18.267229	-0.268297	-122.585177
7.450000	-0.368385	104.983555	-40.438941	-19.708732	-40.438941	-19.708732	-0.272141	-123.309223
7.500000	-0.371842	103.347574	-40.384567	-21.141571	-40.384567	-21.141571	-0.276034	-124.032719
7.550000	-0.375329	101.704785	-40.332165	-22.565044	-40.332165	-22.565044	-0.279977	-124.755677
7.600000	-0.378846	100.055390	-40.281650	-23.979210	-40.281650	-23.979210	-0.283968	-125.478151
7.650000	-0.382396	98.399315	-40.233002	-25.383731	-40.233002	-25.383731	-0.288008	-126.200174
7.700000	-0.385982	96.736489	-40.186198	-26.778251	-40.186198	-26.778251	-0.292097	-126.921779
7.750000	-0.389604	95.067213	-40.141129	-28.162977	-40.141129	-28.162977	-0.296233	-127.643018
7.800000	-0.393267	93.390755	-40.097921	-29.536504	-40.097921	-29.536504	-0.300421	-128.363887
7.850000	-0.396974	91.707342	-40.056473	-30.898874	-40.056473	-30.898874	-0.304659	-129.084436
7.900000	-0.400728	90.016913	-40.016753	-32.249667	-40.016753	-32.249667	-0.308947	-129.804699
7.950000	-0.404531	88.319405	-39.978720	-33.588453	-39.978720	-33.588453	-0.313286	-130.524710
8.000000	-0.408387	86.614758	-39.942333	-34.914787	-39.942333	-34.914787	-0.317676	-131.244504
8.050000	-0.412301	84.902912	-39.907545	-36.228220	-39.907545	-36.228220	-0.322116	-131.964117
8.100000	-0.416276	83.183809	-39.874304	-37.528293	-39.874304	-37.528293	-0.326608	-132.683583
8.150000	-0.420316	81.457313	-39.842568	-38.814388	-39.842568	-38.814388	-0.331152	-133.402937
8.200000	-0.424428	79.723364	-39.812273	-40.086024	-39.812273	-40.086024	-0.335747	-134.122217
8.250000	-0.428614	77.981985	-39.783338	-41.342887	-39.783338	-41.342887	-0.340395	-134.841461
8.300000	-0.432881	76.233119	-39.755689	-42.584518	-39.755689	-42.584518	-0.345095	-135.560705
8.350000	-0.437237	74.476489	-39.729281	-43.809991	-39.729281	-43.809991	-0.349849	-136.279990
8.400000	-0.441677	72.712817	-39.703924	-45.020528	-39.703924	-45.020528	-0.354651	-136.999344
8.450000	-0.446224	70.940853	-39.679685	-46.213132	-39.679685	-46.213132	-0.359510	-137.718821
8.500000	-0.450869	69.161574	-39.656344	-47.389644	-39.656344	-47.389644	-0.364419	-138.438444
8.550000	-0.455630	67.374316	-39.633868	-48.548331	-39.633868	-48.548331	-0.369382	-139.158263
8.600000	-0.460512	65.579164	-39.612140	-49.689144	-39.612140	-49.689144	-0.374398	-139.878315
8.650000	-0.465517	63.776350	-39.591026	-50.812412	-39.591026	-50.812412	-0.379466	-140.598630
8.700000	-0.470668	61.965030	-39.570466	-51.916016	-39.570466	-51.916016	-0.384590	-141.319277
8.750000	-0.475951	60.146368	-39.550279	-53.002526	-39.550279	-53.002526	-0.389763	-142.040244
8.800000	-0.481411	58.318547	-39.530404	-54.067603	-39.530404	-54.067603	-0.394996	-142.761655
8.850000	-0.487023	56.483218	-39.510674	-55.115065	-39.510674	-55.115065	-0.400277	-143.483464
8.900000	-0.492825	54.638998	-39.490970	-56.141662	-39.490970	-56.141662	-0.405615	-144.205783
8.950000	-0.498814	52.786590	-39.471168	-57.149090	-39.471168	-57.149090	-0.411005	-144.928608
9.000000	-0.505009	50.925548	-39.451124	-58.136401	-39.451124	-58.136401	-0.416449	-145.652003
9.050000	-0.511428	49.055577	-39.430694	-59.103058	-39.430694	-59.103058	-0.421948	-146.376024
9.100000	-0.518072	47.177219	-39.409776	-60.050508	-39.409776	-60.050508	-0.427498	-147.100666
9.150000	-0.524987	45.289112	-39.388140	-60.975913	-39.388140	-60.975913	-0.433106	-147.826066
9.200000	-0.532149	43.392673	-39.365779	-61.882765	-39.365779	-61.882765	-0.438763	-148.552145
9.250000	-0.539631	41.485931	-39.342362	-62.767088	-39.342362	-62.767088	-0.444479	-149.279098
9.300000	-0.547401	39.570329	-39.317927	-63.632445	-39.317927	-63.632445	-0.450245	-150.006832
9.350000	-0.555521	37.644538	-39.292184	-64.476498	-39.292184	-64.476498	-0.456067	-150.735494
9.400000	-0.563994	35.708898	-39.265063	-65.300490	-39.265063	-65.300490	-0.461941	-151.465078
9.450000	-0.572848	33.763159	-39.236413	-66.104510	-39.236413	-66.104510	-0.467869	-152.195634
9.500000	-0.582135	31.806443	-39.205982	-66.887498	-39.205982	-66.887498	-0.473852	-152.927271
9.550000	-0.591836	29.839697	-39.173837	-67.651917	-39.173837	-67.651917	-0.479885	-153.659914
9.600000	-0.602065	27.860678	-39.139465	-68.394463	-39.139465	-68.394463	-0.485976	-154.393808
9.650000	-0.612767	25.871219	-39.103137	-69.119138	-39.103137	-69.119138	-0.492116	-155.128782
9.700000	-0.624073	23.868908	-39.064280	-69.822737	-39.064280	-69.822737	-0.498312	-155.865099
9.750000	-0.635950	21.854962	-39.023085	-70.508099	-39.023085	-70.508099	-0.504559	-156.602641
9.800000	-0.648495	19.827974	-38.979181	-71.173975	-38.979181	-71.173975	-0.510860	-157.341564
9.850000	-0.661746	17.787712	-38.932467	-71.820974	-38.932467	-71.820974	-0.517213	-158.081894
9.900000	-0.675734	15.734182	-38.882905	-72.450076	-38.882905	-72.450076	-0.523617	-158.823633
9.950000	-0.690595	13.665465	-38.830008	-73.059771	-38.830008	-73.059771	-0.530076	-159.566979
10.000000	-0.706268	11.583229	-38.774164	-73.653130	-38.774164	-73.653130	-0.536583	-160.311750
