! freq	dB(S11)	phase(S11)	dB(S12)	phase(S12)	
!     	dB(S21)	phase(S21)	dB(S22)	phase(S22)	
!S-par simulation data
#  GHz  S  DB  R 50
0.000000	-82.346848	0.000000	-0.000663	0.000000	-0.000663	0.000000	-82.346848	0.000000
0.050000	-43.439378	-92.298689	-0.008403	-2.797405	-0.008403	-2.797405	-43.444999	-90.748485
0.100000	-37.526319	-96.186400	-0.012028	-5.591090	-0.012028	-5.591090	-37.502131	-92.801272
0.150000	-34.084518	-100.139519	-0.016865	-8.372976	-0.016865	-8.372976	-34.053043	-94.899464
0.200000	-31.642773	-104.078385	-0.022126	-11.145867	-0.022126	-11.145867	-31.610475	-97.041058
0.250000	-29.751714	-107.966847	-0.027477	-13.911959	-0.027477	-13.911959	-29.718376	-99.168359
0.300000	-28.211528	-111.809000	-0.032836	-16.673927	-0.032836	-16.673927	-28.176183	-101.254421
0.350000	-26.915213	-115.617250	-0.038251	-19.433364	-0.038251	-19.433364	-26.877725	-103.295986
0.400000	-25.799017	-119.401596	-0.043796	-22.191058	-0.043796	-22.191058	-25.759852	-105.294723
0.450000	-24.822859	-123.170064	-0.049565	-24.947338	-0.049565	-24.947338	-24.782839	-107.251144
0.500000	-23.957524	-126.931374	-0.055600	-27.702526	-0.055600	-27.702526	-23.917471	-109.172059
0.550000	-23.182715	-130.691095	-0.061934	-30.456760	-0.061934	-30.456760	-23.143318	-111.060507
0.600000	-22.483766	-134.453985	-0.068598	-33.210160	-0.068598	-33.210160	-22.445556	-112.917932
0.650000	-21.849916	-138.224784	-0.075612	-35.962914	-0.075612	-35.962914	-21.813264	-114.744508
0.700000	-21.271299	-142.006516	-0.082933	-38.715345	-0.082933	-38.715345	-21.236373	-116.543210
0.750000	-20.740782	-145.802062	-0.090517	-41.467732	-0.090517	-41.467732	-20.707633	-118.314464
0.800000	-20.253209	-149.615042	-0.098294	-44.220304	-0.098294	-44.220304	-20.221806	-120.056943
0.850000	-19.803498	-153.447811	-0.106158	-46.973068	-0.106158	-46.973068	-19.773743	-121.770989
0.900000	-19.387432	-157.302444	-0.114020	-49.725773	-0.114020	-49.725773	-19.359200	-123.456507
0.950000	-19.001634	-161.181277	-0.121829	-52.478025	-0.121829	-52.478025	-18.974794	-125.112657
1.000000	-18.643127	-165.086408	-0.129576	-55.229468	-0.129576	-55.229468	-18.617560	-126.738592
1.050000	-18.309308	-169.019834	-0.137282	-57.979927	-0.137282	-57.979927	-18.284920	-128.333332
1.100000	-17.997877	-172.983457	-0.144975	-60.729436	-0.144975	-60.729436	-17.974605	-129.895797
1.150000	-17.706779	-176.979087	-0.152680	-63.478189	-0.152680	-63.478189	-17.684592	-131.424840
1.200000	-17.434154	178.991565	-0.160410	-66.226472	-0.160410	-66.226472	-17.413059	-132.919282
1.250000	-17.178306	174.926892	-0.168173	-68.974608	-0.168173	-68.974608	-17.158339	-134.377945
1.300000	-16.937831	170.824580	-0.175968	-71.722938	-0.175968	-71.722938	-16.919057	-135.798870
1.350000	-16.711080	166.684063	-0.183795	-74.471788	-0.183795	-74.471788	-16.693579	-137.181789
1.400000	-16.496683	162.504173	-0.191651	-77.221467	-0.191651	-77.221467	-16.480544	-138.525784
1.450000	-16.293344	158.283932	-0.199538	-79.972271	-0.199538	-79.972271	-16.278658	-139.830107
1.500000	-16.099830	154.022582	-0.207459	-82.724486	-0.207459	-82.724486	-16.086677	-141.094225
1.550000	-15.914959	149.719613	-0.215421	-85.478383	-0.215421	-85.478383	-15.903404	-142.317862
1.600000	-15.737595	145.374799	-0.223435	-88.234224	-0.223435	-88.234224	-15.727677	-143.501041
1.650000	-15.566643	140.988226	-0.231514	-90.992254	-0.231514	-90.992254	-15.558373	-144.644127
1.700000	-15.401049	136.560324	-0.239677	-93.752708	-0.239677	-93.752708	-15.394399	-145.747862
1.750000	-15.239794	132.091900	-0.247945	-96.515803	-0.247945	-96.515803	-15.234701	-146.813395
1.800000	-15.081901	127.584157	-0.256344	-99.281741	-0.256344	-99.281741	-15.078260	-147.842312
1.850000	-14.926433	123.038721	-0.264900	-102.050704	-0.264900	-102.050704	-14.924104	-148.836652
1.900000	-14.772478	118.457291	-0.273648	-104.822892	-0.273648	-104.822892	-14.771283	-149.798593
1.950000	-14.619173	113.842469	-0.282622	-107.598448	-0.282622	-107.598448	-14.618903	-150.731207
2.000000	-14.465753	109.197610	-0.291857	-110.377454	-0.291857	-110.377454	-14.466176	-151.638264
2.050000	-14.311504	104.526102	-0.301390	-113.160000	-0.301390	-113.160000	-14.312376	-152.523595
2.100000	-14.155787	99.831730	-0.311262	-115.946150	-0.311262	-115.946150	-14.156855	-153.391397
2.150000	-13.998037	95.118637	-0.321514	-118.735941	-0.321514	-118.735941	-13.999053	-154.246181
2.200000	-13.837777	90.391276	-0.332187	-121.529379	-0.332187	-121.529379	-13.838502	-155.092705
2.250000	-13.674616	85.654354	-0.343324	-124.326444	-0.343324	-124.326444	-13.674833	-155.935906
2.300000	-13.508257	80.912766	-0.354968	-127.127084	-0.354968	-127.127084	-13.507774	-156.780815
2.350000	-13.338495	76.171520	-0.367161	-129.931219	-0.367161	-129.931219	-13.337150	-157.632482
2.400000	-13.165220	71.435670	-0.379944	-132.738735	-0.379944	-132.738735	-13.162887	-158.495891
2.450000	-12.988411	66.710231	-0.393358	-135.549493	-0.393358	-135.549493	-12.985001	-159.375881
2.500000	-12.808138	62.000113	-0.407440	-138.363321	-0.407440	-138.363321	-12.803597	-160.277074
2.550000	-12.624396	57.310588	-0.422244	-141.180078	-0.422244	-141.180078	-12.618703	-161.204457
2.600000	-12.437571	52.645795	-0.437788	-143.999469	-0.437788	-143.999469	-12.430738	-162.161547
2.650000	-12.247958	48.009909	-0.454104	-146.821240	-0.454104	-146.821240	-12.240021	-163.151933
2.700000	-12.055907	43.406764	-0.471218	-149.645112	-0.471218	-149.645112	-12.046923	-164.178789
2.750000	-11.861814	38.839821	-0.489155	-152.470786	-0.489155	-152.470786	-11.851852	-165.244856
2.800000	-11.666112	34.312150	-0.507933	-155.297940	-0.507933	-155.297940	-11.655248	-166.352433
2.850000	-11.469259	29.826417	-0.527569	-158.126237	-0.527569	-158.126237	-11.457570	-167.503376
2.900000	-11.271727	25.384884	-0.548073	-160.955322	-0.548073	-160.955322	-11.259286	-168.699116
2.950000	-11.073997	20.989417	-0.569451	-163.784831	-0.569451	-163.784831	-11.060868	-169.940672
3.000000	-10.876549	16.641497	-0.591705	-166.614386	-0.591705	-166.614386	-10.862781	-171.228679
3.050000	-10.679854	12.342244	-0.614828	-169.443606	-0.614828	-169.443606	-10.665482	-172.563413
3.100000	-10.484370	8.092436	-0.638813	-172.272105	-0.638813	-172.272105	-10.469409	-173.944824
3.150000	-10.290510	3.893084	-0.663652	-175.099480	-0.663652	-175.099480	-10.274957	-175.373065
3.200000	-10.098708	-0.255637	-0.689325	-177.925334	-0.689325	-177.925334	-10.082538	-176.847506
3.250000	-9.909381	-4.354363	-0.715797	179.250698	-0.715797	179.250698	-9.892551	-178.366796
3.300000	-9.722891	-8.403415	-0.743036	176.428986	-0.743036	176.428986	-9.705339	-179.929898
3.350000	-9.539567	-12.403317	-0.771008	173.609885	-0.771008	173.609885	-9.521214	178.464386
3.400000	-9.359711	-16.354764	-0.799670	170.793738	-0.799670	170.793738	-9.340463	176.817393
3.450000	-9.183593	-20.258608	-0.828978	167.980869	-0.828978	167.980869	-9.163342	175.130567
3.500000	-9.011454	-24.115830	-0.858881	165.171581	-0.858881	165.171581	-8.990081	173.405438
3.550000	-8.843507	-27.927525	-0.889324	162.366157	-0.889324	162.366157	-8.820883	171.643603
3.600000	-8.679936	-31.694886	-0.920250	159.564853	-0.920250	159.564853	-8.655924	169.846703
3.650000	-8.520900	-35.419188	-0.951596	156.767899	-0.951596	156.767899	-8.495356	168.016411
3.700000	-8.366533	-39.101776	-0.983297	153.975497	-0.983297	153.975497	-8.339310	166.154415
3.750000	-8.216946	-42.744057	-1.015284	151.187817	-1.015284	151.187817	-8.187892	164.262407
3.800000	-8.072285	-46.346679	-1.047489	148.405109	-1.047489	148.405109	-8.041241	162.341494
3.850000	-7.932574	-49.912025	-1.079833	145.627373	-1.079833	145.627373	-7.899384	160.393997
3.900000	-7.797864	-53.441640	-1.112241	142.854682	-1.112241	142.854682	-7.762372	158.421558
3.950000	-7.668191	-56.937102	-1.144639	140.087072	-1.144639	140.087072	-7.630237	156.425790
4.000000	-7.543576	-60.400024	-1.176948	137.324546	-1.176948	137.324546	-7.503000	154.408271
4.050000	-7.424029	-63.832045	-1.209090	134.567068	-1.209090	134.567068	-7.380670	152.370541
4.100000	-7.309548	-67.234834	-1.240986	131.814572	-1.240986	131.814572	-7.263242	150.314100
4.150000	-7.200121	-70.610085	-1.272560	129.066953	-1.272560	129.066953	-7.150702	148.240403
4.200000	-7.095729	-73.959522	-1.303732	126.324071	-1.303732	126.324071	-7.043029	146.150867
4.250000	-6.996347	-77.284894	-1.334426	123.585752	-1.334426	123.585752	-6.940191	144.046860
4.300000	-6.901943	-80.587980	-1.364565	120.851786	-1.364565	120.851786	-6.842153	141.929712
4.350000	-6.812480	-83.870586	-1.394074	118.121930	-1.394074	118.121930	-6.748872	139.800709
4.400000	-6.727966	-87.134370	-1.422870	115.395945	-1.422870	115.395945	-6.660343	137.660997
4.450000	-6.648358	-90.381270	-1.450880	112.673508	-1.450880	112.673508	-6.576518	135.511828
4.500000	-6.573570	-93.613397	-1.478043	109.954231	-1.478043	109.954231	-6.497304	133.354491
4.550000	-6.503557	-96.832699	-1.504293	107.237736	-1.504293	107.237736	-6.422645	131.190128
4.600000	-6.438274	-100.041165	-1.529564	104.523615	-1.529564	104.523615	-6.352485	129.019857
4.650000	-6.377677	-103.240829	-1.553797	101.811428	-1.553797	101.811428	-6.286769	126.844771
4.700000	-6.321723	-106.433769	-1.576933	99.100704	-1.576933	99.100704	-6.225441	124.665944
4.750000	-6.270371	-109.622119	-1.598917	96.390944	-1.598917	96.390944	-6.168445	122.484439
4.800000	-6.223579	-112.808063	-1.619698	93.681621	-1.619698	93.681621	-6.115726	120.301306
4.850000	-6.181311	-115.993850	-1.639228	90.972176	-1.639228	90.972176	-6.067232	118.117595
4.900000	-6.143530	-119.181788	-1.657464	88.262026	-1.657464	88.262026	-6.022911	115.934356
4.950000	-6.110204	-122.374255	-1.674367	85.550560	-1.674367	85.550560	-5.982714	113.752647
5.000000	-6.081300	-125.573705	-1.689901	82.837140	-1.689901	82.837140	-5.946592	111.573540
5.050000	-6.056885	-128.782937	-1.704006	80.121030	-1.704006	80.121030	-5.914584	109.398235
5.100000	-6.036837	-132.004423	-1.716686	77.401580	-1.716686	77.401580	-5.886559	107.227796
5.150000	-6.021132	-135.240878	-1.727923	74.678075	-1.727923	74.678075	-5.862474	105.063378
5.200000	-6.009745	-138.495114	-1.737702	71.949776	-1.737702	71.949776	-5.842287	102.906178
5.250000	-6.002652	-141.770049	-1.746015	69.215918	-1.746015	69.215918	-5.825954	100.757439
5.300000	-5.999832	-145.068710	-1.752859	66.475717	-1.752859	66.475717	-5.813432	98.618462
5.350000	-6.001259	-148.394243	-1.758240	63.728363	-1.758240	63.728363	-5.804677	96.490608
5.400000	-6.006907	-151.749918	-1.762168	60.973028	-1.762168	60.973028	-5.799642	94.375309
5.450000	-6.016746	-155.139137	-1.764661	58.208862	-1.764661	58.208862	-5.798275	92.274073
5.500000	-6.030740	-158.565439	-1.765746	55.434997	-1.765746	55.434997	-5.800521	90.188492
5.550000	-6.048847	-162.032508	-1.765457	52.650549	-1.765457	52.650549	-5.806316	88.120249
5.600000	-6.071015	-165.544174	-1.763836	49.854615	-1.763836	49.854615	-5.815586	86.071120
5.650000	-6.097220	-169.104997	-1.760922	47.046135	-1.760922	47.046135	-5.828283	84.043235
5.700000	-6.127379	-172.719263	-1.756779	44.224153	-1.756779	44.224153	-5.844303	82.038649
5.750000	-6.161348	-176.390747	-1.751492	41.387866	-1.751492	41.387866	-5.863489	80.059230
5.800000	-6.199002	179.876092	-1.745145	38.536334	-1.745145	38.536334	-5.885701	78.107181
5.850000	-6.240188	176.076653	-1.737831	35.668616	-1.737831	35.668616	-5.910773	76.184808
5.900000	-6.284719	172.206201	-1.729657	32.783773	-1.729657	32.783773	-5.938505	74.294511
5.950000	-6.332367	168.259884	-1.720741	29.880872	-1.720741	29.880872	-5.968667	72.438777
6.000000	-6.382857	164.232760	-1.711215	26.958997	-1.711215	26.958997	-6.000985	70.620157
6.050000	-6.435862	160.119833	-1.701223	24.017249	-1.701223	24.017249	-6.035140	68.841247
6.100000	-6.490989	155.916094	-1.690925	21.054757	-1.690925	21.054757	-6.070761	67.104655
6.150000	-6.547778	151.616583	-1.680495	18.070685	-1.680495	18.070685	-6.107420	65.412961
6.200000	-6.605690	147.216460	-1.670120	15.064241	-1.670120	15.064241	-6.144625	63.768663
6.250000	-6.664099	142.711100	-1.660005	12.034685	-1.660005	12.034685	-6.181818	62.174119
6.300000	-6.722256	138.093730	-1.650384	8.980813	-1.650384	8.980813	-6.218334	60.632640
6.350000	-6.779333	133.362825	-1.641486	5.902534	-1.641486	5.902534	-6.253467	59.144955
6.400000	-6.834407	128.515197	-1.633563	2.799345	-1.633563	2.799345	-6.286436	57.712460
6.450000	-6.886452	123.548455	-1.626879	-0.329155	-1.626879	-0.329155	-6.316385	56.336024
6.500000	-6.934346	118.461190	-1.621713	-3.483251	-1.621713	-3.483251	-6.342395	55.015873
6.550000	-6.976883	113.253180	-1.618356	-6.663096	-1.618356	-6.663096	-6.363493	53.751464
6.600000	-7.012789	107.925592	-1.617112	-9.868700	-1.617112	-9.868700	-6.378668	52.541375
6.650000	-7.040750	102.481171	-1.618295	-13.099915	-1.618295	-13.099915	-6.386889	51.383189
6.700000	-7.059439	96.924412	-1.622225	-16.356420	-1.622225	-16.356420	-6.387132	50.273413
6.750000	-7.067562	91.261678	-1.629231	-19.637709	-1.629231	-19.637709	-6.378412	49.207426
6.800000	-7.063904	85.501275	-1.639643	-22.943080	-1.639643	-22.943080	-6.359811	48.179464
6.850000	-7.047375	79.653429	-1.653791	-26.271627	-1.653791	-26.271627	-6.330522	47.182658
6.900000	-7.016909	73.729529	-1.672050	-29.622454	-1.672050	-29.622454	-6.289746	46.209287
6.950000	-6.971807	67.743772	-1.694749	-32.994168	-1.694749	-32.994168	-6.236977	45.250301
7.000000	-6.911830	61.712067	-1.722153	-36.384957	-1.722153	-36.384957	-6.172067	44.296049
7.050000	-6.836889	55.650427	-1.754553	-39.793033	-1.754553	-39.793033	-6.094970	43.336783
7.100000	-6.747214	49.575359	-1.792223	-43.216395	-1.792223	-43.216395	-6.005874	42.362695
7.150000	-6.643350	43.503402	-1.835410	-46.652846	-1.835410	-46.652846	-5.905206	41.364227
7.200000	-6.526136	37.450685	-1.884335	-50.100005	-1.884335	-50.100005	-5.793614	40.332365
7.250000	-6.396677	31.432515	-1.939186	-53.555325	-1.939186	-53.555325	-5.671948	39.258916
7.300000	-6.256292	25.463032	-2.000119	-57.016119	-2.000119	-57.016119	-5.541231	38.136721
7.350000	-6.106462	19.554953	-2.067248	-60.479584	-2.067248	-60.479584	-5.402617	36.959835
7.400000	-5.948775	13.719394	-2.140649	-63.942833	-2.140649	-63.942833	-5.257357	35.723623
7.450000	-5.784869	7.965791	-2.220355	-67.402928	-2.220355	-67.402928	-5.106753	34.424803
7.500000	-5.616376	2.301890	-2.306358	-70.856910	-2.306358	-70.856910	-4.952121	33.061432
7.550000	-5.444778	-3.264000	-2.398714	-74.301573	-2.398714	-74.301573	-4.794664	31.631424
7.600000	-5.271742	-8.729334	-2.497205	-77.734163	-2.497205	-77.734163	-4.635769	30.136737
7.650000	-5.098647	-14.090986	-2.601693	-81.151877	-2.601693	-81.151877	-4.476600	28.578934
7.700000	-4.926743	-19.347039	-2.711998	-84.552033	-2.711998	-84.552033	-4.318225	26.960426
7.750000	-4.757131	-24.496630	-2.827906	-87.932091	-2.827906	-87.932091	-4.161603	25.284315
7.800000	-4.590765	-29.539792	-2.949170	-91.289681	-2.949170	-91.289681	-4.007582	23.554236
7.850000	-4.428451	-34.477313	-3.075514	-94.622624	-3.075514	-94.622624	-3.856889	21.774211
7.900000	-4.270857	-39.310604	-3.206638	-97.928945	-3.206638	-97.928945	-3.710141	19.948513
7.950000	-4.118514	-44.041587	-3.342217	-101.206889	-3.342217	-101.206889	-3.567844	18.081542
8.000000	-3.971835	-48.672595	-3.481915	-104.454927	-3.481915	-104.454927	-3.430400	16.177730
8.050000	-3.831122	-53.206293	-3.625379	-107.671762	-3.625379	-107.671762	-3.298117	14.241452
8.100000	-3.696581	-57.645601	-3.772248	-110.856325	-3.772248	-110.856325	-3.171219	12.276954
8.150000	-3.568382	-61.992688	-3.922159	-114.007409	-3.922159	-114.007409	-3.049895	10.288087
8.200000	-3.446578	-66.250944	-4.074729	-117.124381	-4.074729	-117.124381	-2.934231	8.278820
8.250000	-3.331104	-70.424754	-4.229592	-120.207210	-4.229592	-120.207210	-2.824204	6.252994
8.300000	-3.221893	-74.517589	-4.386388	-123.255706	-4.386388	-123.255706	-2.719786	4.213922
8.350000	-3.118834	-78.532970	-4.544770	-126.269866	-4.544770	-126.269866	-2.620906	2.164637
8.400000	-3.021787	-82.474446	-4.704396	-129.249864	-4.704396	-129.249864	-2.527464	0.107891
8.450000	-2.930584	-86.345582	-4.864940	-132.196034	-4.864940	-132.196034	-2.439330	-1.953838
8.500000	-2.845039	-90.149936	-5.026086	-135.108861	-5.026086	-135.108861	-2.356357	-4.018345
8.550000	-2.764953	-93.891055	-5.187533	-137.988961	-5.187533	-137.988961	-2.278382	-6.083686
8.600000	-2.690118	-97.572459	-5.348995	-140.837072	-5.348995	-140.837072	-2.205232	-8.148163
8.650000	-2.620321	-101.197640	-5.510204	-143.654037	-5.510204	-143.654037	-2.136727	-10.210317
8.700000	-2.555347	-104.770051	-5.670904	-146.440796	-5.670904	-146.440796	-2.072684	-12.268908
8.750000	-2.494984	-108.293102	-5.830858	-149.198371	-5.830858	-149.198371	-2.012918	-14.322904
8.800000	-2.439105	-111.769236	-5.989756	-151.927273	-5.989756	-151.927273	-1.957326	-16.371331
8.850000	-2.387416	-115.202842	-6.147474	-154.629297	-6.147474	-154.629297	-1.905646	-18.413640
8.900000	-2.339719	-118.597186	-6.303825	-157.305658	-6.303825	-157.305658	-1.857704	-20.449346
8.950000	-2.295824	-121.955481	-6.458636	-159.957612	-6.458636	-159.957612	-1.813335	-22.478116
9.000000	-2.255549	-125.280893	-6.611748	-162.586457	-6.611748	-162.586457	-1.772381	-24.499756
9.050000	-2.218723	-128.576535	-6.763021	-165.193519	-6.763021	-165.193519	-1.734690	-26.514203
9.100000	-2.185182	-131.845474	-6.912324	-167.780151	-6.912324	-167.780151	-1.700122	-28.521510
9.150000	-2.154772	-135.090726	-7.059544	-170.347728	-7.059544	-170.347728	-1.668546	-30.521843
9.200000	-2.127625	-138.313485	-7.204123	-172.896030	-7.204123	-172.896030	-1.640103	-32.514844
9.250000	-2.103079	-141.520363	-7.346835	-175.429663	-7.346835	-175.429663	-1.614175	-34.502109
9.300000	-2.081263	-144.712395	-7.487203	-177.948483	-7.487203	-177.948483	-1.590906	-36.483505
9.350000	-2.062064	-147.892419	-7.625162	179.546087	-7.625162	179.546087	-1.570205	-38.459569
9.400000	-2.045379	-151.063234	-7.760663	177.052621	-7.760663	177.052621	-1.551995	-40.430920
9.450000	-2.031113	-154.227600	-7.893669	174.569688	-7.893669	174.569688	-1.536208	-42.398249
9.500000	-2.019182	-157.388239	-8.024152	172.095856	-8.024152	172.095856	-1.522789	-44.362322
9.550000	-2.009510	-160.547833	-8.152099	169.629694	-8.152099	169.629694	-1.511694	-46.323972
9.600000	-2.002031	-163.709033	-8.277506	167.169769	-8.277506	167.169769	-1.502892	-48.284102
9.650000	-1.996685	-166.874446	-8.400383	164.714655	-8.400383	164.714655	-1.496364	-50.243678
9.700000	-1.993426	-170.046648	-8.520749	162.262928	-8.520749	162.262928	-1.492103	-52.203734
9.750000	-1.992211	-173.228172	-8.638636	159.813172	-8.638636	159.813172	-1.490117	-54.165367
9.800000	-1.992922	-176.420850	-8.754254	157.364035	-8.754254	157.364035	-1.490324	-56.129546
9.850000	-1.995730	-179.628539	-8.867282	154.914032	-8.867282	154.914032	-1.492990	-58.097887
9.900000	-2.000509	177.147048	-8.978003	152.461769	-8.978003	152.461769	-1.498039	-60.071515
9.950000	-2.007251	173.903559	-9.086496	150.005873	-9.086496	150.005873	-1.505541	-62.051789
10.000000	-2.015954	170.638702	-9.192858	147.544989	-9.192858	147.544989	-1.515583	-64.040138
