! freq	dB(S11)	phase(S11)	dB(S12)	phase(S12)	
!     	dB(S21)	phase(S21)	dB(S22)	phase(S22)	
!S-par simulation data
#  GHz  S  DB  R 50
0.000000	-73.330368	0.000000	-0.001872	0.000000	-0.001872	0.000000	-73.330367	0.000000
0.050000	-44.858074	78.426658	-0.007553	-4.329999	-0.007553	-4.329999	-44.858073	78.426622
0.100000	-39.272838	76.556132	-0.017114	-8.641571	-0.017114	-8.641571	-39.272839	76.556194
0.150000	-35.878016	73.656652	-0.025622	-12.927336	-0.025622	-12.927336	-35.878016	73.656764
0.200000	-33.429721	70.219768	-0.032739	-17.200997	-0.032739	-17.200997	-33.429720	70.219918
0.250000	-31.517175	66.500787	-0.038922	-21.469844	-0.038922	-21.469844	-31.517174	66.500972
0.300000	-29.951943	62.646645	-0.044758	-25.737314	-0.044758	-25.737314	-29.951942	62.646862
0.350000	-28.631128	58.717925	-0.050574	-30.004301	-0.050574	-30.004301	-28.631127	58.718174
0.400000	-27.492448	54.738254	-0.056536	-34.270962	-0.056536	-34.270962	-27.492446	54.738535
0.450000	-26.496012	50.713664	-0.062752	-38.537210	-0.062752	-38.537210	-26.496010	50.713977
0.500000	-25.612308	46.650988	-0.069237	-42.802995	-0.069237	-42.802995	-25.612306	46.651333
0.550000	-24.820172	42.553600	-0.075988	-47.068286	-0.075988	-47.068286	-24.820169	42.553977
0.600000	-24.104096	38.425036	-0.082995	-51.333091	-0.082995	-51.333091	-24.104093	38.425445
0.650000	-23.452661	34.269660	-0.090244	-55.597463	-0.090244	-55.597463	-23.452657	34.270099
0.700000	-22.856077	30.094544	-0.097689	-59.861548	-0.097689	-59.861548	-22.856073	30.095014
0.750000	-22.307351	25.903977	-0.105304	-64.125480	-0.105304	-64.125480	-22.307348	25.904475
0.800000	-21.801578	21.701082	-0.113065	-68.389428	-0.113065	-68.389428	-21.801575	21.701609
0.850000	-21.334286	17.489183	-0.120941	-72.653583	-0.120941	-72.653583	-21.334282	17.489738
0.900000	-20.901896	13.270516	-0.128903	-76.918132	-0.128903	-76.918132	-20.901892	13.271097
0.950000	-20.501719	9.046582	-0.136927	-81.183264	-0.136927	-81.183264	-20.501715	9.047189
1.000000	-20.131523	4.818469	-0.144987	-85.449162	-0.144987	-85.449162	-20.131518	4.819101
1.050000	-19.789488	0.586915	-0.153060	-89.716004	-0.153060	-89.716004	-19.789483	0.587572
1.100000	-19.474133	-3.647606	-0.161122	-93.983959	-0.161122	-93.983959	-19.474128	-3.646927
1.150000	-19.184255	-7.884820	-0.169146	-98.253192	-0.169146	-98.253192	-19.184250	-7.884118
1.200000	-18.918883	-12.124600	-0.177109	-102.523861	-0.177109	-102.523861	-18.918878	-12.123877
1.250000	-18.677243	-16.366934	-0.184982	-106.796129	-0.184982	-106.796129	-18.677238	-16.366190
1.300000	-18.459116	-20.611954	-0.192735	-111.070205	-0.192735	-111.070205	-18.459111	-20.611191
1.350000	-18.263688	-24.859752	-0.200339	-115.346234	-0.200339	-115.346234	-18.263683	-24.858970
1.400000	-18.090627	-29.110525	-0.207765	-119.624417	-0.207765	-119.624417	-18.090622	-29.109725
1.450000	-17.939714	-33.364515	-0.214981	-123.904981	-0.214981	-123.904981	-17.939709	-33.363697
1.500000	-17.810832	-37.621996	-0.221958	-128.188186	-0.221958	-128.188186	-17.810827	-37.621163
1.550000	-17.703954	-41.883278	-0.228665	-132.474333	-0.228665	-132.474333	-17.703949	-41.882429
1.600000	-17.619137	-46.148695	-0.235074	-136.763766	-0.235074	-136.763766	-17.619132	-46.147832
1.650000	-17.556516	-50.418611	-0.241159	-141.056883	-0.241159	-141.056883	-17.556511	-50.417735
1.700000	-17.516294	-54.693414	-0.246898	-145.354133	-0.246898	-145.354133	-17.516289	-54.692526
1.750000	-17.498743	-58.973521	-0.252272	-149.656018	-0.252272	-149.656018	-17.498738	-58.972622
1.800000	-17.504194	-63.259378	-0.257265	-153.963095	-0.257265	-153.963095	-17.504189	-63.258469
1.850000	-17.533035	-67.551464	-0.261869	-158.275975	-0.261869	-158.275975	-17.533031	-67.550547
1.900000	-17.585966	-71.850376	-0.266076	-162.595390	-0.266076	-162.595390	-17.585962	-71.849453
1.950000	-17.663476	-76.156697	-0.269887	-166.922063	-0.269887	-166.922063	-17.663471	-76.155769
2.000000	-17.765826	-80.470973	-0.273315	-171.256655	-0.273315	-171.256655	-17.765822	-80.470042
2.050000	-17.893565	-84.793888	-0.276376	-175.599922	-0.276376	-175.599922	-17.893561	-84.792958
2.100000	-18.047260	-89.126209	-0.279092	-179.952634	-0.279092	-179.952634	-18.047257	-89.125281
2.150000	-18.227484	-93.468803	-0.281491	175.684434	-0.281491	175.684434	-18.227481	-93.467882
2.200000	-18.434792	-97.822664	-0.283607	171.310512	-0.283607	171.310512	-18.434789	-97.821752
2.250000	-18.669699	-102.188943	-0.285481	166.924841	-0.285481	166.924841	-18.669697	-102.188046
2.300000	-18.932641	-106.568995	-0.287160	162.526684	-0.287160	162.526684	-18.932640	-106.568118
2.350000	-19.223930	-110.964427	-0.288693	158.115328	-0.288693	158.115328	-19.223929	-110.963578
2.400000	-19.543686	-115.377171	-0.290136	153.690090	-0.290136	153.690090	-19.543686	-115.376358
2.450000	-19.891757	-119.809562	-0.291544	149.250316	-0.291544	149.250316	-19.891758	-119.808793
2.500000	-20.267600	-124.264442	-0.292978	144.795381	-0.292978	144.795381	-20.267603	-124.263730
2.550000	-20.670240	-128.745944	-0.294497	140.324330	-0.294497	140.324330	-20.670244	-128.745304
2.600000	-21.097529	-133.257880	-0.296158	135.836910	-0.296158	135.836910	-21.097534	-133.257329
2.650000	-21.546602	-137.805471	-0.298015	131.332546	-0.298015	131.332546	-21.546609	-137.805028
2.700000	-22.013289	-142.394985	-0.300118	126.810657	-0.300118	126.810657	-22.013298	-142.394676
2.750000	-22.491731	-147.033813	-0.302513	122.270637	-0.302513	122.270637	-22.491743	-147.033666
2.800000	-22.973944	-151.730403	-0.305240	117.711837	-0.305240	117.711837	-22.973958	-151.730450
2.850000	-23.449347	-156.493975	-0.308334	113.133543	-0.308334	113.133543	-23.449364	-156.494253
2.900000	-23.904339	-161.333857	-0.311827	108.534950	-0.311827	108.534950	-23.904359	-161.334406
2.950000	-24.322028	-166.258317	-0.315747	103.915138	-0.315747	103.915138	-24.322049	-166.259177
3.000000	-24.682305	-171.272795	-0.320120	99.273043	-0.320120	99.273043	-24.682329	-171.274004
3.050000	-24.962503	-176.377661	-0.324978	94.607429	-0.324978	94.607429	-24.962527	-176.379249
3.100000	-25.138825	178.434062	-0.330357	89.916862	-0.330357	89.916862	-25.138848	178.432080
3.150000	-25.187042	173.177685	-0.336314	85.199373	-0.336314	85.199373	-25.187062	173.175311
3.200000	-25.088044	167.878344	-0.342921	80.452983	-0.342921	80.452983	-25.088061	167.875604
3.250000	-24.831770	162.566211	-0.350269	75.675794	-0.350269	75.675794	-24.831781	162.563155
3.300000	-24.415800	157.270118	-0.358496	70.865345	-0.358496	70.865345	-24.415806	157.266815
3.350000	-23.848988	152.012082	-0.367774	66.019277	-0.367774	66.019277	-23.848987	152.008610
3.400000	-23.145352	146.804686	-0.378350	61.134398	-0.378350	61.134398	-23.145346	146.801126
3.450000	-22.324327	141.649575	-0.390554	56.207150	-0.390554	56.207150	-22.324317	141.646001
3.500000	-21.406727	136.538586	-0.404838	51.233220	-0.404838	51.233220	-21.406715	136.535061
3.550000	-20.424438	131.455062	-0.421611	46.211198	-0.421611	46.211198	-20.424424	131.451633
3.600000	-19.393990	126.381826	-0.441581	41.135899	-0.441581	41.135899	-19.393976	126.378526
3.650000	-18.334823	121.300124	-0.465540	36.003585	-0.465540	36.003585	-18.334809	121.296975
3.700000	-17.265594	116.193447	-0.494341	30.811807	-0.494341	30.811807	-17.265580	116.190459
3.750000	-16.199440	111.047962	-0.529036	25.557728	-0.529036	25.557728	-16.199427	111.045138
3.800000	-15.145036	105.851747	-0.570977	20.237998	-0.570977	20.237998	-15.145024	105.849087
3.850000	-14.112812	100.597663	-0.621432	14.852392	-0.621432	14.852392	-14.112801	100.595161
3.900000	-13.109193	95.280783	-0.681918	9.400748	-0.681918	9.400748	-13.109183	95.278431
3.950000	-12.138203	89.898035	-0.754267	3.883388	-0.754267	3.883388	-12.138194	89.895825
4.000000	-11.205030	84.451031	-0.840098	-1.695792	-0.840098	-1.695792	-11.205022	84.448955
4.050000	-10.312943	78.943464	-0.941172	-7.331668	-0.941172	-7.331668	-10.312936	78.941512
4.100000	-9.463744	73.380726	-1.059592	-13.017898	-1.059592	-13.017898	-9.463737	73.378889
4.150000	-8.660164	67.772803	-1.196881	-18.744118	-1.196881	-18.744118	-8.660159	67.771073
4.200000	-7.904126	62.132080	-1.354025	-24.497955	-1.354025	-24.497955	-7.904121	62.130449
4.250000	-7.195638	56.471104	-1.533221	-30.266628	-1.533221	-30.266628	-7.195633	56.469566
4.300000	-6.535648	50.806498	-1.735100	-36.033760	-1.735100	-36.033760	-6.535644	50.805045
4.350000	-5.924115	45.155500	-1.960141	-41.782343	-1.960141	-41.782343	-5.924111	45.154126
4.400000	-5.360545	39.536438	-2.208652	-47.494217	-2.208652	-47.494217	-5.360541	39.535138
4.450000	-4.843961	33.967800	-2.480322	-53.151107	-2.480322	-53.151107	-4.843958	33.966567
4.500000	-4.372731	28.466826	-2.774284	-58.735994	-2.774284	-58.735994	-4.372728	28.465657
4.550000	-3.945049	23.050550	-3.089465	-64.231973	-3.089465	-64.231973	-3.945047	23.049440
4.600000	-3.558760	17.734444	-3.424346	-69.623681	-3.424346	-69.623681	-3.558758	17.733389
4.650000	-3.211236	12.531020	-3.777052	-74.898723	-3.777052	-74.898723	-3.211234	12.530017
4.700000	-2.899454	7.449165	-4.145557	-80.048335	-4.145557	-80.048335	-2.899452	7.448210
4.750000	-2.621332	2.501120	-4.527642	-85.060207	-4.527642	-85.060207	-2.621330	2.500210
4.800000	-2.373420	-2.310732	-4.921133	-89.932098	-4.921133	-89.932098	-2.373418	-2.311601
4.850000	-2.152938	-6.982991	-5.323883	-94.660638	-5.323883	-94.660638	-2.152936	-6.983820
4.900000	-1.957212	-11.514207	-5.733810	-99.244402	-5.733810	-99.244402	-1.957211	-11.514998
4.950000	-1.783717	-15.904626	-6.148935	-103.683657	-6.148935	-103.683657	-1.783716	-15.905383
5.000000	-1.630097	-20.155920	-6.567412	-107.980093	-6.567412	-107.980093	-1.630095	-20.156643
5.050000	-1.494658	-24.266335	-6.986844	-112.131850	-6.986844	-112.131850	-1.494656	-24.267027
5.100000	-1.374850	-28.244455	-7.406297	-116.147655	-7.406297	-116.147655	-1.374849	-28.245118
5.150000	-1.268891	-32.094721	-7.824414	-120.031967	-7.824414	-120.031967	-1.268890	-32.095356
5.200000	-1.175179	-35.822024	-8.239990	-123.789696	-8.239990	-123.789696	-1.175178	-35.822632
5.250000	-1.092286	-39.431544	-8.651966	-127.426043	-8.651966	-127.426043	-1.092285	-39.432127
5.300000	-1.018943	-42.928614	-9.059414	-130.946361	-9.059414	-130.946361	-1.018942	-42.929173
5.350000	-0.954209	-46.315978	-9.460903	-134.353329	-9.460903	-134.353329	-0.954208	-46.316515
5.400000	-0.896928	-49.601026	-9.856155	-137.654426	-9.856155	-137.654426	-0.896927	-49.601541
5.450000	-0.846167	-52.789902	-10.244797	-140.855859	-10.244797	-140.855859	-0.846167	-52.790397
5.500000	-0.801168	-55.887675	-10.626335	-143.962733	-10.626335	-143.962733	-0.801167	-55.888150
5.550000	-0.761263	-58.899231	-11.000349	-146.979976	-11.000349	-146.979976	-0.761262	-58.899686
5.600000	-0.726022	-61.826125	-11.365542	-149.909056	-11.365542	-149.909056	-0.726022	-61.826563
5.650000	-0.694670	-64.677938	-11.723112	-152.759827	-11.723112	-152.759827	-0.694670	-64.678359
5.700000	-0.666814	-67.457864	-12.072543	-155.535500	-12.072543	-155.535500	-0.666814	-67.458268
5.750000	-0.642245	-70.165863	-12.412294	-158.235924	-12.412294	-158.235924	-0.642245	-70.166251
5.800000	-0.620283	-72.813484	-12.744787	-160.873091	-12.744787	-160.873091	-0.620282	-72.813858
5.850000	-0.601068	-75.393427	-13.066142	-163.439262	-13.066142	-163.439262	-0.601067	-75.393786
5.900000	-0.583880	-77.920703	-13.380324	-165.950125	-13.380324	-165.950125	-0.583879	-77.921049
5.950000	-0.568848	-80.388698	-13.683714	-168.398679	-13.683714	-168.398679	-0.568847	-80.389030
6.000000	-0.555511	-82.807687	-13.978923	-170.795694	-13.978923	-170.795694	-0.555510	-82.808006
6.050000	-0.543819	-85.176593	-14.264438	-173.140022	-14.264438	-173.140022	-0.543819	-85.176900
6.100000	-0.533585	-87.499019	-14.540565	-175.435457	-14.540565	-175.435457	-0.533584	-87.499314
6.150000	-0.524867	-89.770387	-14.804322	-177.677213	-14.804322	-177.677213	-0.524867	-89.770671
6.200000	-0.517046	-92.010259	-15.062822	-179.885897	-15.062822	-179.885897	-0.517045	-92.010532
6.250000	-0.510174	-94.216165	-15.314282	177.941072	-15.314282	177.941072	-0.510174	-94.216426
6.300000	-0.504664	-96.370628	-15.550120	175.821900	-15.550120	175.821900	-0.504664	-96.370879
6.350000	-0.499889	-98.495992	-15.779207	173.733082	-15.779207	173.733082	-0.499888	-98.496233
6.400000	-0.495818	-100.593042	-16.001210	171.673749	-16.001210	171.673749	-0.495818	-100.593273
6.450000	-0.492576	-102.655808	-16.212593	169.650004	-16.212593	169.650004	-0.492575	-102.656030
6.500000	-0.490126	-104.684577	-16.412591	167.661332	-16.412591	167.661332	-0.490126	-104.684790
6.550000	-0.488215	-106.689771	-16.605484	165.696850	-16.605484	165.696850	-0.488215	-106.689975
6.600000	-0.486821	-108.672056	-16.791017	163.755807	-16.791017	163.755807	-0.486821	-108.672252
6.650000	-0.486156	-110.621381	-16.963281	161.848212	-16.963281	161.848212	-0.486156	-110.621568
6.700000	-0.485905	-112.551775	-17.128812	159.959648	-17.128812	159.959648	-0.485905	-112.551954
6.750000	-0.486168	-114.458478	-17.284449	158.094768	-17.284449	158.094768	-0.486168	-114.458649
6.800000	-0.486888	-116.344154	-17.430941	156.250713	-17.430941	156.250713	-0.486888	-116.344317
6.850000	-0.488038	-118.210009	-17.568296	154.426108	-17.568296	154.426108	-0.488038	-118.210165
6.900000	-0.489598	-120.057199	-17.696512	152.619639	-17.696512	152.619639	-0.489598	-120.057348
6.950000	-0.491547	-121.886836	-17.815578	150.830039	-17.815578	150.830039	-0.491547	-121.886977
7.000000	-0.493869	-123.699989	-17.925476	149.056087	-17.925476	149.056087	-0.493869	-123.700124
7.050000	-0.496548	-125.497692	-18.026170	147.296587	-18.026170	147.296587	-0.496548	-125.497820
7.100000	-0.499573	-127.280943	-18.117609	145.550347	-18.117609	145.550347	-0.499573	-127.281065
7.150000	-0.502932	-129.050711	-18.199721	143.816142	-18.199721	143.816142	-0.502932	-129.050827
7.200000	-0.506617	-130.807937	-18.272412	142.092664	-18.272412	142.092664	-0.506617	-130.808046
7.250000	-0.510619	-132.553536	-18.335564	140.378448	-18.335564	140.378448	-0.510619	-132.553639
7.300000	-0.514932	-134.288403	-18.389039	138.671774	-18.389039	138.671774	-0.514932	-134.288500
7.350000	-0.519552	-136.013413	-18.432691	136.970555	-18.432691	136.970555	-0.519553	-136.013504
7.400000	-0.524476	-137.729426	-18.466387	135.272227	-18.466387	135.272227	-0.524476	-137.729511
7.450000	-0.529700	-139.437287	-18.490045	133.573693	-18.490045	133.573693	-0.529700	-139.437367
7.500000	-0.535224	-141.137832	-18.503681	131.871383	-18.503681	131.871383	-0.535225	-141.137907
7.550000	-0.541062	-142.831646	-18.507050	130.161044	-18.507050	130.161044	-0.541062	-142.831715
7.600000	-0.547202	-144.519868	-18.500957	128.439515	-18.500957	128.439515	-0.547202	-144.519932
7.650000	-0.553647	-146.203318	-18.485914	126.704572	-18.485914	126.704572	-0.553647	-146.203377
7.700000	-0.560402	-147.882817	-18.462482	124.955556	-18.462482	124.955556	-0.560402	-147.882871
7.750000	-0.567471	-149.559190	-18.431146	123.193383	-18.431146	123.193383	-0.567471	-149.559239
7.800000	-0.574863	-151.233269	-18.392202	121.420055	-18.392202	121.420055	-0.574863	-151.233313
7.850000	-0.582585	-152.905895	-18.345726	119.637925	-18.345726	119.637925	-0.582585	-152.905935
7.900000	-0.590649	-154.577925	-18.291596	117.849017	-18.291596	117.849017	-0.590649	-154.577960
7.950000	-0.599065	-156.250230	-18.229554	116.054627	-18.229554	116.054627	-0.599066	-156.250260
8.000000	-0.607850	-157.923704	-18.159278	114.255212	-18.159278	114.255212	-0.607850	-157.923730
8.050000	-0.617018	-159.599265	-18.080438	112.450490	-18.080438	112.450490	-0.617019	-159.599287
8.100000	-0.626590	-161.277863	-17.992723	110.639623	-17.992723	110.639623	-0.626590	-161.277881
8.150000	-0.636587	-162.960479	-17.895855	108.821411	-17.895855	108.821411	-0.636587	-162.960493
8.200000	-0.647033	-164.648136	-17.789591	106.994437	-17.789591	106.994437	-0.647034	-164.648147
8.250000	-0.657960	-166.341902	-17.673715	105.157177	-17.673715	105.157177	-0.657960	-166.341909
8.300000	-0.669398	-168.042898	-17.548028	103.308055	-17.548028	103.308055	-0.669399	-168.042902
8.350000	-0.681468	-169.753724	-17.410594	101.443296	-17.410594	101.443296	-0.681469	-169.753723
8.400000	-0.694111	-171.473819	-17.263485	99.564056	-17.263485	99.564056	-0.694112	-171.473815
8.450000	-0.707358	-173.204401	-17.107036	97.669114	-17.107036	97.669114	-0.707359	-173.204394
8.500000	-0.721255	-174.946276	-16.940896	95.757263	-16.940896	95.757263	-0.721256	-174.946267
8.550000	-0.736079	-176.705145	-16.761194	93.821186	-16.761194	93.821186	-0.736081	-176.705133
8.600000	-0.751462	-178.474009	-16.575533	91.870857	-16.575533	91.870857	-0.751463	-178.473994
8.650000	-0.768214	179.731494	-16.371367	89.885647	-16.371367	89.885647	-0.768215	179.731511
8.700000	-0.785383	177.929673	-16.165648	87.890470	-16.165648	87.890470	-0.785384	177.929692
8.750000	-0.803999	176.101035	-15.943385	85.860068	-15.943385	85.860068	-0.804000	176.101055
8.800000	-0.824031	174.246619	-15.707283	83.796635	-15.707283	83.796635	-0.824033	174.246641
8.850000	-0.845532	172.366107	-15.458758	81.700462	-15.458758	81.700462	-0.845534	172.366130
8.900000	-0.868694	170.456789	-15.197453	79.568760	-15.197453	79.568760	-0.868696	170.456813
8.950000	-0.893743	168.515676	-14.922979	77.398431	-14.922979	77.398431	-0.893745	168.515700
9.000000	-0.920948	166.539457	-14.634915	75.186009	-14.634915	75.186009	-0.920950	166.539481
9.050000	-0.950624	164.524450	-14.332806	72.927598	-14.332806	72.927598	-0.950627	164.524474
9.100000	-0.983150	162.466546	-14.016163	70.618791	-14.016163	70.618791	-0.983153	162.466569
9.150000	-1.018978	160.361143	-13.684457	68.254577	-13.684457	68.254577	-1.018981	160.361164
9.200000	-1.058650	158.203062	-13.337122	65.829229	-13.337122	65.829229	-1.058653	158.203081
9.250000	-1.102824	155.986462	-12.973555	63.336174	-12.973555	63.336174	-1.102827	155.986478
9.300000	-1.152296	153.704723	-12.593117	60.767826	-12.593117	60.767826	-1.152300	153.704734
9.350000	-1.208044	151.350319	-12.195134	58.115399	-12.195134	58.115399	-1.208048	151.350325
9.400000	-1.271561	148.911519	-11.777531	55.364991	-11.777531	55.364991	-1.271566	148.911519
9.450000	-1.344292	146.379514	-11.340223	52.505771	-11.340223	52.505771	-1.344297	146.379505
9.500000	-1.427829	143.746094	-10.883844	49.527252	-10.883844	49.527252	-1.427835	143.746075
9.550000	-1.525422	140.990501	-10.404769	46.403510	-10.404769	46.403510	-1.525428	140.990471
9.600000	-1.639388	138.105002	-9.905352	43.123338	-9.905352	43.123338	-1.639395	138.104957
9.650000	-1.773487	135.073391	-9.385396	39.664644	-9.385396	39.664644	-1.773495	135.073329
9.700000	-1.934191	131.866449	-8.841708	35.987680	-8.841708	35.987680	-1.934200	131.866366
9.750000	-2.128355	128.463640	-8.275536	32.060914	-8.275536	32.060914	-2.128366	128.463530
9.800000	-2.364002	124.847714	-7.689989	27.854566	-7.689989	27.854566	-2.364014	124.847572
9.850000	-2.652862	120.994371	-7.087159	23.326036	-7.087159	23.326036	-2.652877	120.994190
9.900000	-3.017501	116.854190	-6.465595	18.388050	-6.465595	18.388050	-3.017519	116.853957
9.950000	-3.475096	112.436441	-5.837283	13.024230	-5.837283	13.024230	-3.475119	112.436142
10.000000	-4.062683	107.721542	-5.208069	7.152234	-5.208069	7.152234	-4.062712	107.721156
